time	V(ctle_out)	V(n_3p)
0.000000000000000e+000	0.000000e+000	0.000000e+000
9.155273276840241e-019	2.791041e-035	1.917756e-016
1.831054655368048e-018	2.046752e-034	3.835482e-016
3.662109310736096e-018	1.674599e-033	7.670876e-016
7.324218621472193e-018	1.339648e-032	1.534132e-015
1.464843724294439e-017	1.071664e-031	3.068080e-015
2.929687448588877e-017	8.572431e-031	6.135416e-015
5.859374897177754e-017	6.856530e-030	1.226785e-014
1.171874979435551e-016	5.482956e-029	2.452377e-014
2.343749958871102e-016	4.382739e-028	4.899983e-014
4.687499917742203e-016	3.500394e-027	9.780900e-014
9.374999835484407e-016	2.791057e-026	1.948570e-013
1.874999967096881e-015	2.218089e-025	3.866825e-013
3.749999934193763e-015	1.751041e-024	7.613397e-013
7.499999868387525e-015	1.363913e-023	1.475375e-012
1.499999973677505e-014	1.033840e-022	2.767765e-012
2.999999947355010e-014	7.408791e-022	4.851329e-012
5.999999894710020e-014	4.709000e-021	7.315758e-012
1.199999978942004e-013	5.602945e-020	7.432817e-012
2.115527322692004e-013	7.650620e-019	1.338509e-012
3.031054666442003e-013	-8.404917e-017	-6.193047e-012
3.946582010192003e-013	-1.211561e-015	-1.116711e-011
4.862109353942003e-013	-5.912834e-015	-1.235488e-011
5.777636697692003e-013	-1.501895e-014	-1.007102e-011
6.693164041442003e-013	-2.248418e-014	-5.361719e-012
7.608691385192003e-013	-1.721690e-014	5.103041e-013
8.524218728942003e-013	9.130998e-015	6.370173e-012
9.439746072692003e-013	5.719202e-014	1.128955e-011
1.035527341644200e-012	1.199014e-013	1.464802e-011
1.127080076019200e-012	1.850037e-013	1.613259e-011
1.218632810394200e-012	2.382513e-013	1.570076e-011
1.310185544769200e-012	2.663665e-013	1.352510e-011
1.401738279144200e-012	2.593052e-013	9.931529e-012
1.493291013519200e-012	2.116561e-013	5.339267e-012
1.584843747894200e-012	1.231946e-013	2.072265e-013
1.676396482269200e-012	-1.287307e-015	-5.010538e-012
1.767949216644200e-012	-1.527042e-013	-9.899345e-012
1.859501951019200e-012	-3.187688e-013	-1.410843e-011
1.951054685394200e-012	-4.852787e-013	-1.736629e-011
2.042607419769200e-012	-6.374496e-013	-1.948790e-011
2.134160154144200e-012	-7.611725e-013	-2.037535e-011
2.225712888519200e-012	-8.441080e-013	-2.001301e-011
2.317265622894200e-012	-8.765573e-013	-1.845888e-011
2.408818357269200e-012	-8.520799e-013	-1.583315e-011
2.500371091644200e-012	-7.678476e-013	-1.230528e-011
2.591923826019200e-012	-6.247442e-013	-8.080306e-012
2.683476560394200e-012	-4.272347e-013	-3.385332e-012
2.775029294769200e-012	-1.830361e-013	1.543221e-012
2.866582029144200e-012	9.737029e-014	6.471232e-012
2.958134763519200e-012	4.013429e-013	1.117697e-011
3.049687497894200e-012	7.147584e-013	1.545948e-011
3.141240232269200e-012	1.022727e-012	1.914518e-011
3.232792966644200e-012	1.310303e-012	2.209267e-011
3.324345701019200e-012	1.563167e-012	2.419581e-011
3.415898435394200e-012	1.768245e-012	2.538514e-011
3.507451169769200e-012	1.914244e-012	2.562787e-011
3.599003904144201e-012	1.992100e-012	2.492658e-011
3.690556638519201e-012	1.995305e-012	2.331683e-011
3.782109372894200e-012	1.920136e-012	2.086388e-011
3.873662107269200e-012	1.765764e-012	1.765875e-011
3.965214841644199e-012	1.534253e-012	1.381377e-011
4.056767576019199e-012	1.230465e-012	9.457892e-012
4.148320310394199e-012	8.618614e-013	4.731790e-012
4.239873044769198e-012	4.382352e-013	-2.169170e-013
4.331425779144198e-012	-2.863126e-014	-5.238348e-012
4.422978513519197e-012	-5.253566e-013	-1.018474e-011
4.514531247894197e-012	-1.037389e-012	-1.491446e-011
4.606083982269197e-012	-1.549456e-012	-1.929558e-011
4.697636716644196e-012	-2.046026e-012	-2.320898e-011
4.789189451019196e-012	-2.511760e-012	-2.655086e-011
4.880742185394195e-012	-2.931948e-012	-2.923477e-011
4.972294919769195e-012	-3.292917e-012	-3.119304e-011
5.063847654144195e-012	-3.582400e-012	-3.237770e-011
5.155400388519194e-012	-3.789859e-012	-3.276085e-011
5.246953122894194e-012	-3.906754e-012	-3.233454e-011
5.338505857269193e-012	-3.926759e-012	-3.111025e-011
5.430058591644193e-012	-3.845913e-012	-2.911783e-011
5.521611326019193e-012	-3.662717e-012	-2.640426e-011
5.613164060394192e-012	-3.378157e-012	-2.303197e-011
5.704716794769192e-012	-2.995686e-012	-1.907695e-011
5.796269529144192e-012	-2.521130e-012	-1.462668e-011
5.887822263519191e-012	-1.962555e-012	-9.777934e-012
5.979374997894191e-012	-1.330084e-012	-4.634430e-012
6.070927732269190e-012	-6.356623e-013	6.954692e-013
6.162480466644190e-012	1.071955e-013	6.101104e-012
6.254033201019190e-012	8.837046e-013	1.147178e-011
6.345585935394189e-012	1.678121e-012	1.669893e-011
6.437138669769189e-012	2.474070e-012	2.167819e-011
6.528691404144188e-012	3.254883e-012	2.631122e-011
6.620244138519188e-012	4.003940e-012	3.050747e-011
6.711796872894188e-012	4.704992e-012	3.418558e-011
6.803349607269187e-012	5.342491e-012	3.727471e-011
6.894902341644187e-012	5.901889e-012	3.971553e-011
6.986455076019186e-012	6.369917e-012	4.146102e-011
7.078007810394186e-012	6.734841e-012	4.247702e-011
7.169560544769186e-012	6.986681e-012	4.274251e-011
7.261113279144185e-012	7.117397e-012	4.224971e-011
7.352666013519185e-012	7.121042e-012	4.100395e-011
7.444218747894185e-012	6.993871e-012	3.902324e-011
7.535771482269186e-012	6.734413e-012	3.633779e-011
7.627324216644186e-012	6.511673e-012	3.298924e-011
7.718876951019187e-012	6.528200e-012	2.902978e-011
7.810429685394187e-012	6.681722e-012	2.452109e-011
7.901982419769187e-012	6.835700e-012	1.953325e-011
7.993535154144188e-012	6.985930e-012	1.414344e-011
8.085087888519188e-012	7.123653e-012	8.434663e-012
8.176640622894189e-012	7.239121e-012	2.494362e-012
8.268193357269189e-012	7.326086e-012	-3.586962e-012
8.359746091644189e-012	7.381947e-012	-9.717158e-012
8.451298826019190e-012	7.405932e-012	-1.580380e-011
8.542851560394190e-012	7.398336e-012	-2.175557e-011
8.634404294769191e-012	7.360421e-012	-2.748351e-011
8.725957029144191e-012	7.294378e-012	-3.290229e-011
8.817509763519191e-012	7.203266e-012	-3.793139e-011
8.909062497894192e-012	7.090946e-012	-4.249609e-011
9.000615232269192e-012	6.961984e-012	-4.652850e-011
9.092167966644193e-012	6.821555e-012	-4.996832e-011
9.183720701019193e-012	6.675320e-012	-5.276366e-011
9.275273435394194e-012	6.529308e-012	-5.487152e-011
9.366826169769194e-012	6.389784e-012	-5.625834e-011
9.458378904144194e-012	6.263117e-012	-5.690025e-011
9.549931638519195e-012	6.155643e-012	-5.678333e-011
9.641484372894195e-012	6.073533e-012	-5.590364e-011
9.733037107269196e-012	6.022661e-012	-5.426714e-011
9.824589841644196e-012	6.008481e-012	-5.188953e-011
9.916142576019196e-012	6.035914e-012	-4.879591e-011
1.000769531039420e-011	6.109233e-012	-4.502041e-011
1.009924804476920e-011	6.231975e-012	-4.060563e-011
1.019080077914420e-011	6.406853e-012	-3.560202e-011
1.028235351351920e-011	6.635690e-012	-3.006722e-011
1.037390624789420e-011	6.919371e-012	-2.406527e-011
1.046545898226920e-011	7.257803e-012	-1.766580e-011
1.055701171664420e-011	7.649895e-012	-1.094310e-011
1.064856445101920e-011	8.093551e-012	-3.975259e-012
1.074011718539420e-011	8.585684e-012	3.156805e-012
1.083166991976920e-011	9.122238e-012	1.037032e-011
1.092322265414420e-011	9.698234e-012	1.758160e-011
1.101477538851920e-011	1.030782e-011	2.470702e-011
1.110632812289420e-011	1.094436e-011	3.166398e-011
1.119788085726920e-011	1.160049e-011	3.837177e-011
1.128943359164420e-011	1.226822e-011	4.475251e-011
1.138098632601920e-011	1.293906e-011	5.073192e-011
1.147253906039420e-011	1.360410e-011	5.624017e-011
1.156409179476920e-011	1.425415e-011	6.121255e-011
1.165564452914420e-011	1.487986e-011	6.559017e-011
1.174719726351921e-011	1.547184e-011	6.932049e-011
1.183874999789421e-011	1.602080e-011	7.235789e-011
1.193030273226921e-011	1.651765e-011	7.466406e-011
1.202185546664421e-011	1.695369e-011	7.620837e-011
1.211340820101921e-011	1.732066e-011	7.696810e-011
1.220496093539421e-011	1.761091e-011	7.692866e-011
1.229651366976921e-011	1.781748e-011	7.608365e-011
1.238806640414421e-011	1.793422e-011	7.443490e-011
1.247961913851921e-011	1.795588e-011	7.199238e-011
1.257117187289421e-011	1.787821e-011	6.877404e-011
1.266272460726921e-011	1.769802e-011	6.480558e-011
1.275427734164421e-011	1.741321e-011	6.012021e-011
1.284583007601921e-011	1.702290e-011	5.475819e-011
1.293738281039421e-011	1.652738e-011	4.876644e-011
1.302893554476921e-011	1.592818e-011	4.219807e-011
1.312048827914421e-011	1.522806e-011	3.511179e-011
1.321204101351921e-011	1.443101e-011	2.757136e-011
1.330359374789421e-011	1.354223e-011	1.964494e-011
1.339514648226921e-011	1.256808e-011	1.140445e-011
1.348669921664421e-011	1.151607e-011	2.924833e-012
1.357825195101921e-011	1.039473e-011	-5.716596e-012
1.366980468539421e-011	9.213632e-012	-1.444091e-011
1.376135741976921e-011	7.983214e-012	-2.316827e-011
1.385291015414421e-011	6.714751e-012	-3.181867e-011
1.394446288851922e-011	5.420219e-012	-4.031267e-011
1.403601562289422e-011	4.112194e-012	-4.857206e-011
1.412756835726922e-011	2.803731e-012	-5.652057e-011
1.421912109164422e-011	1.508238e-012	-6.408456e-011
1.431067382601922e-011	2.393478e-013	-7.119359e-011
1.440222656039422e-011	-9.892149e-013	-7.778106e-011
1.449377929476922e-011	-2.163770e-012	-8.378478e-011
1.458533202914422e-011	-3.270817e-012	-8.914745e-011
1.467688476351922e-011	-4.297173e-012	-9.381713e-011
1.476843749789422e-011	-5.230098e-012	-9.774767e-011
1.485999023226922e-011	-6.057431e-012	-1.008991e-010
1.495154296664422e-011	-6.767712e-012	-1.032378e-010
1.504309570101922e-011	-7.350299e-012	-1.047370e-010
1.513464843539422e-011	-7.795484e-012	-1.053767e-010
1.522620116976922e-011	-8.094595e-012	-1.051440e-010
1.531775390414422e-011	-8.240094e-012	-1.040332e-010
1.540930663851922e-011	-8.225661e-012	-1.020456e-010
1.550085937289422e-011	-8.046268e-012	-9.918966e-011
1.559241210726922e-011	-7.698247e-012	-9.548076e-011
1.568396484164422e-011	-7.179343e-012	-9.094123e-011
1.577551757601922e-011	-6.488750e-012	-8.559999e-011
1.586707031039422e-011	-5.627141e-012	-7.949239e-011
1.595862304476922e-011	-4.596688e-012	-7.265987e-011
1.605017577914422e-011	-3.401059e-012	-6.514961e-011
1.614172851351923e-011	-2.045410e-012	-5.701420e-011
1.623328124789423e-011	-5.363616e-013	-4.831113e-011
1.632483398226923e-011	1.118040e-012	-3.910244e-011
1.641638671664423e-011	2.908366e-012	-2.945415e-011
1.650793945101923e-011	4.823871e-012	-1.943580e-011
1.659949218539423e-011	6.852558e-012	-9.119903e-012
1.669104491976923e-011	8.403138e-012	1.418603e-012
1.678259765414423e-011	8.865063e-012	1.210292e-011
1.687415038851923e-011	8.769119e-012	2.285493e-011
1.696570312289423e-011	8.673734e-012	3.359584e-011
1.705725585726923e-011	8.588325e-012	4.424665e-011
1.714880859164423e-011	8.531027e-012	5.472883e-011
1.724036132601923e-011	8.519481e-012	6.496480e-011
1.733191406039423e-011	8.561662e-012	7.487851e-011
1.742346679476923e-011	8.657560e-012	8.439601e-011
1.751501952914423e-011	8.804307e-012	9.344589e-011
1.760657226351923e-011	8.998078e-012	1.019598e-010
1.769812499789423e-011	9.234336e-012	1.098730e-010
1.778967773226923e-011	9.507890e-012	1.171247e-010
1.788123046664423e-011	9.812947e-012	1.236585e-010
1.797278320101923e-011	1.014319e-011	1.294226e-010
1.806433593539423e-011	1.049182e-011	1.343706e-010
1.815588866976923e-011	1.085167e-011	1.384613e-010
1.824744140414423e-011	1.121526e-011	1.416592e-010
1.833899413851924e-011	1.157487e-011	1.439346e-010
1.843054687289424e-011	1.192265e-011	1.452641e-010
1.852209960726924e-011	1.225068e-011	1.456303e-010
1.861365234164424e-011	1.255107e-011	1.450223e-010
1.870520507601924e-011	1.281604e-011	1.434353e-010
1.879675781039424e-011	1.303800e-011	1.408711e-010
1.888831054476924e-011	1.320965e-011	1.373379e-010
1.897986327914424e-011	1.332403e-011	1.328499e-010
1.907141601351924e-011	1.337462e-011	1.274279e-010
1.916296874789424e-011	1.335542e-011	1.210984e-010
1.925452148226924e-011	1.326101e-011	1.138939e-010
1.934607421664424e-011	1.308657e-011	1.058526e-010
1.943762695101924e-011	1.282804e-011	9.701809e-011
1.952917968539424e-011	1.248203e-011	8.743892e-011
1.962073241976924e-011	1.204600e-011	7.716863e-011
1.971228515414424e-011	1.151821e-011	6.626515e-011
1.980383788851924e-011	1.089778e-011	5.479055e-011
1.989539062289424e-011	1.018471e-011	4.281061e-011
1.998694335726924e-011	9.379914e-012	3.039444e-011
2.007849609164424e-011	8.485211e-012	1.761405e-011
2.017004882601924e-011	7.503330e-012	4.543899e-012
2.026160156039424e-011	6.437906e-012	-8.739517e-012
2.035315429476924e-011	5.293468e-012	-2.215815e-011
2.044470702914424e-011	4.075415e-012	-3.563284e-011
2.053625976351925e-011	2.789990e-012	-4.908380e-011
2.062781249789425e-011	1.444243e-012	-6.243107e-011
2.071936523226925e-011	4.598896e-014	-7.559500e-011
2.081091796664425e-011	-1.396239e-012	-8.849665e-011
2.090247070101925e-011	-2.873249e-012	-1.010583e-010
2.099402343539425e-011	-4.375245e-012	-1.132040e-010
2.108557616976925e-011	-5.891895e-012	-1.248596e-010
2.117712890414425e-011	-7.412395e-012	-1.359537e-010
2.126868163851925e-011	-8.925555e-012	-1.464176e-010
2.136023437289425e-011	-1.041986e-011	-1.561861e-010
2.145178710726925e-011	-1.188356e-011	-1.651974e-010
2.154333984164425e-011	-1.330476e-011	-1.733938e-010
2.163489257601925e-011	-1.467149e-011	-1.807218e-010
2.172644531039425e-011	-1.597178e-011	-1.871325e-010
2.181799804476925e-011	-1.719381e-011	-1.925819e-010
2.190955077914425e-011	-1.832590e-011	-1.970309e-010
2.200110351351925e-011	-1.935670e-011	-2.004459e-010
2.209265624789425e-011	-2.027517e-011	-2.027987e-010
2.218420898226925e-011	-2.107078e-011	-2.040664e-010
2.227576171664425e-011	-2.173349e-011	-2.042323e-010
2.236731445101925e-011	-2.225389e-011	-2.032852e-010
2.245886718539425e-011	-2.262323e-011	-2.012198e-010
2.255041991976925e-011	-2.283356e-011	-1.980368e-010
2.264197265414425e-011	-2.287771e-011	-1.937425e-010
2.273352538851926e-011	-2.274943e-011	-1.883495e-010
2.282507812289426e-011	-2.244338e-011	-1.818757e-010
2.291663085726926e-011	-2.195527e-011	-1.743451e-010
2.300818359164426e-011	-2.128181e-011	-1.657870e-010
2.309973632601926e-011	-2.042080e-011	-1.562362e-010
2.319128906039426e-011	-1.937120e-011	-1.457328e-010
2.328284179476926e-011	-1.813306e-011	-1.343219e-010
2.337439452914426e-011	-1.670765e-011	-1.220533e-010
2.346594726351926e-011	-1.509739e-011	-1.089816e-010
2.355749999789426e-011	-1.330591e-011	-9.516547e-011
2.364905273226926e-011	-1.133803e-011	-8.066777e-011
2.374060546664426e-011	-9.199730e-012	-6.555498e-011
2.383215820101926e-011	-6.898186e-012	-4.989696e-011
2.392371093539426e-011	-4.441705e-012	-3.376664e-011
2.401526366976926e-011	-1.839715e-012	-1.723962e-011
2.410681640414426e-011	8.972712e-013	-3.938521e-013
2.419836913851926e-011	3.757701e-012	1.669078e-011
2.428992187289426e-011	6.729026e-012	3.393281e-011
2.438147460726926e-011	9.797761e-012	5.124957e-011
2.447302734164426e-011	1.294954e-011	6.855760e-011
2.456458007601926e-011	1.616917e-011	8.577303e-011
2.465613281039426e-011	1.944073e-011	1.028120e-010
2.474768554476926e-011	2.274763e-011	1.195910e-010
2.483923827914426e-011	2.607268e-011	1.360272e-010
2.493079101351927e-011	2.939819e-011	1.520392e-010
2.502234374789427e-011	3.270605e-011	1.675468e-010
2.511389648226927e-011	3.597782e-011	1.824718e-010
2.520544921664427e-011	3.919486e-011	1.967385e-010
2.529700195101927e-011	4.233835e-011	2.102734e-010
2.538855468539427e-011	4.538945e-011	2.230062e-010
2.548010741976927e-011	4.832938e-011	2.348699e-010
2.557166015414427e-011	5.113951e-011	2.458009e-010
2.566321288851927e-011	5.380148e-011	2.557395e-010
2.575476562289427e-011	5.597054e-011	2.646302e-010
2.584631835726927e-011	5.735479e-011	2.724219e-010
2.593787109164427e-011	5.837293e-011	2.790680e-010
2.602942382601927e-011	5.940068e-011	2.845269e-010
2.612097656039427e-011	6.044113e-011	2.887619e-010
2.621252929476927e-011	6.149854e-011	2.917416e-010
2.630408202914427e-011	6.257347e-011	2.934398e-010
2.639563476351927e-011	6.366027e-011	2.938358e-010
2.648718749789427e-011	6.474950e-011	2.929147e-010
2.657874023226927e-011	6.583074e-011	2.906669e-010
2.667029296664427e-011	6.689342e-011	2.870888e-010
2.676184570101927e-011	6.792703e-011	2.821823e-010
2.685339843539427e-011	6.892110e-011	2.759552e-010
2.694495116976927e-011	6.986541e-011	2.684210e-010
2.703650390414427e-011	7.074995e-011	2.595988e-010
2.712805663851928e-011	7.156502e-011	2.495134e-010
2.721960937289428e-011	7.230133e-011	2.381950e-010
2.731116210726928e-011	7.295008e-011	2.256795e-010
2.740271484164428e-011	7.350295e-011	2.120076e-010
2.749426757601928e-011	7.395226e-011	1.972256e-010
2.758582031039428e-011	7.429097e-011	1.813846e-010
2.767737304476928e-011	7.451273e-011	1.645403e-010
2.776892577914428e-011	7.461197e-011	1.467531e-010
2.786047851351928e-011	7.458392e-011	1.280878e-010
2.795203124789428e-011	7.442468e-011	1.086130e-010
2.804358398226928e-011	7.413123e-011	8.840149e-011
2.813513671664428e-011	7.370146e-011	6.752918e-011
2.822668945101928e-011	7.313422e-011	4.607547e-011
2.831824218539428e-011	7.242932e-011	2.412258e-011
2.840979491976928e-011	7.158753e-011	1.755373e-012
2.850134765414428e-011	7.061063e-011	-2.093901e-011
2.859290038851928e-011	6.950139e-011	-4.387150e-011
2.868445312289428e-011	6.826359e-011	-6.695140e-011
2.877600585726928e-011	6.690197e-011	-9.008681e-011
2.886755859164428e-011	6.542229e-011	-1.131849e-010
2.895911132601928e-011	6.383126e-011	-1.361523e-010
2.905066406039428e-011	6.213650e-011	-1.588955e-010
2.914221679476928e-011	6.034660e-011	-1.813212e-010
2.923376952914428e-011	5.847094e-011	-2.033365e-010
2.932532226351928e-011	5.651983e-011	-2.248497e-010
2.941687499789428e-011	5.450432e-011	-2.457701e-010
2.950842773226928e-011	5.243622e-011	-2.660087e-010
2.959998046664428e-011	5.032802e-011	-2.854785e-010
2.969153320101928e-011	4.819285e-011	-3.040948e-010
2.978308593539428e-011	4.604438e-011	-3.217756e-010
2.987463866976928e-011	4.389680e-011	-3.384417e-010
2.996619140414428e-011	4.176471e-011	-3.540173e-010
3.005774413851929e-011	3.966308e-011	-3.684302e-010
3.014929687289429e-011	3.760717e-011	-3.816120e-010
3.024084960726929e-011	3.561247e-011	-3.934983e-010
3.033240234164429e-011	3.369457e-011	-4.040294e-010
3.042395507601929e-011	3.186915e-011	-4.131501e-010
3.051550781039429e-011	3.015182e-011	-4.208100e-010
3.060706054476929e-011	2.855810e-011	-4.269637e-010
3.069861327914429e-011	2.710332e-011	-4.315713e-010
3.079016601351929e-011	2.580253e-011	-4.345982e-010
3.088171874789429e-011	2.467040e-011	-4.360154e-010
3.097327148226929e-011	2.372119e-011	-4.357996e-010
3.106482421664429e-011	2.296859e-011	-4.339335e-010
3.115637695101929e-011	2.242570e-011	-4.304056e-010
3.124792968539429e-011	2.210494e-011	-4.252103e-010
3.133948241976929e-011	2.201793e-011	-4.183483e-010
3.143103515414429e-011	2.217548e-011	-4.098262e-010
3.152258788851929e-011	2.258748e-011	-3.996568e-010
3.161414062289429e-011	2.326288e-011	-3.878589e-010
3.170569335726929e-011	2.420956e-011	-3.744574e-010
3.179724609164429e-011	2.543433e-011	-3.594832e-010
3.188879882601929e-011	2.694285e-011	-3.429731e-010
3.198035156039429e-011	2.873958e-011	-3.249698e-010
3.207190429476929e-011	3.082773e-011	-3.055214e-010
3.216345702914429e-011	3.320922e-011	-2.846818e-010
3.225500976351930e-011	3.588467e-011	-2.625104e-010
3.234656249789430e-011	3.885333e-011	-2.390716e-010
3.243811523226930e-011	4.211308e-011	-2.144348e-010
3.252966796664430e-011	4.566041e-011	-1.886745e-010
3.262122070101930e-011	4.949039e-011	-1.618694e-010
3.271277343539430e-011	5.359666e-011	-1.341028e-010
3.280432616976930e-011	5.797146e-011	-1.054621e-010
3.289587890414430e-011	6.260562e-011	-7.603815e-011
3.298743163851930e-011	6.748854e-011	-4.592567e-011
