time	V(n_3p)	V(sum)
0.000000000000000e+000	0.000000e+000	0.000000e+000
1.953124965725918e-017	4.089942e-015	4.089609e-015
3.906249931451836e-017	8.178553e-015	8.178109e-015
7.812499862903672e-017	1.635311e-014	1.635045e-014
1.562499972580734e-016	3.268626e-014	3.267562e-014
3.124999945161469e-016	6.528871e-014	6.524622e-014
6.249999890322938e-016	1.302387e-013	1.300693e-013
1.249999978064588e-015	2.591222e-013	2.584490e-013
2.499999956129175e-015	5.128499e-013	5.101919e-013
4.999999912258350e-015	1.004358e-012	9.940007e-013
9.999999824516700e-015	1.925232e-012	1.885936e-012
1.999999964903340e-014	3.531205e-012	3.390035e-012
3.999999929806680e-014	5.896130e-012	5.444324e-012
7.999999859613360e-014	7.915144e-012	6.806845e-012
1.599999971922672e-013	5.303380e-012	4.162374e-012
3.199999943845344e-013	-6.766180e-012	-4.120252e-012
5.699999943845344e-013	-1.206449e-011	-8.181585e-012
7.500000000000000e-013	-2.522081e-012	-2.184119e-012
1.000000000000000e-012	1.234597e-011	1.234597e-011
1.025000000000000e-012	1.334970e-011	1.329626e-011
1.075000000000000e-012	1.503652e-011	1.471507e-011
1.175000000000000e-012	1.648146e-011	1.536012e-011
1.375000000000000e-012	1.264330e-011	1.091917e-011
1.625000000000000e-012	8.699722e-014	-9.720611e-014
1.875000000000000e-012	-1.320612e-011	-1.164911e-011
2.125000000000000e-012	-2.027122e-011	-1.802001e-011
2.375000000000000e-012	-1.833146e-011	-1.642227e-011
2.625000000000000e-012	-8.754922e-012	-7.834698e-012
2.875000000000000e-012	4.502513e-012	4.264856e-012
3.125000000000000e-012	1.680932e-011	1.563197e-011
3.375000000000000e-012	2.440673e-011	2.272856e-011
3.625000000000000e-012	2.529145e-011	2.360356e-011
3.875000000000000e-012	1.942460e-011	1.814063e-011
4.125000000000000e-012	8.421860e-012	7.802088e-012
4.374999999999999e-012	-5.059968e-012	-4.932645e-012
4.624999999999999e-012	-1.803250e-011	-1.723599e-011
4.874999999999999e-012	-2.781901e-011	-2.654950e-011
5.124999999999999e-012	-3.252747e-011	-3.104528e-011
5.374999999999999e-012	-3.130718e-011	-2.988287e-011
5.624999999999999e-012	-2.438965e-011	-2.325873e-011
5.874999999999999e-012	-1.294842e-011	-1.227945e-011
6.124999999999999e-012	1.168696e-012	1.290773e-012
6.374999999999999e-012	1.577412e-011	1.535032e-011
6.624999999999999e-012	2.868433e-011	2.779196e-011
6.874999999999999e-012	3.802505e-011	3.679951e-011
7.124999999999999e-012	4.246363e-011	4.107535e-011
7.374999999999999e-012	4.134909e-011	3.997913e-011
7.625000000000000e-012	3.475470e-011	3.357208e-011
7.875000000000000e-012	2.342983e-011	2.257290e-011
8.125000000000001e-012	8.677248e-012	8.240463e-012
8.375000000000002e-012	-7.822476e-012	-7.795617e-012
8.625000000000003e-012	-2.421476e-011	-2.373272e-011
8.875000000000003e-012	-3.867889e-011	-3.779770e-011
9.125000000000004e-012	-4.961826e-011	-4.843278e-011
9.375000000000005e-012	-5.581570e-011	-5.444787e-011
9.625000000000006e-012	-5.654183e-011	-5.512740e-011
9.875000000000006e-012	-5.161022e-011	-5.028519e-011
1.012500000000001e-011	-4.137846e-011	-4.026663e-011
1.037500000000001e-011	-2.669939e-011	-2.590192e-011
1.062500000000001e-011	-8.830460e-012	-8.418135e-012
1.087500000000001e-011	1.068777e-011	1.067919e-011
1.112500000000001e-011	3.017168e-011	2.974284e-011
1.137500000000001e-011	4.794026e-011	4.712658e-011
1.162500000000001e-011	6.245414e-011	6.132150e-011
1.187500000000001e-011	7.243747e-011	7.107580e-011
1.212500000000001e-011	7.697409e-011	7.548947e-011
1.237500000000001e-011	7.557221e-011	7.407826e-011
1.262500000000002e-011	6.819452e-011	6.680372e-011
1.287500000000002e-011	5.525363e-011	5.406914e-011
1.312500000000002e-011	3.757479e-011	3.668343e-011
1.337500000000002e-011	1.633052e-011	1.579721e-011
1.362500000000002e-011	-7.046964e-012	-7.182935e-012
1.387500000000002e-011	-3.096833e-011	-3.069520e-011
1.412500000000002e-011	-5.379716e-011	-5.313062e-011
1.437500000000002e-011	-7.395982e-011	-7.294116e-011
1.462500000000002e-011	-9.004783e-011	-8.874059e-011
1.487500000000002e-011	-1.009069e-010	-9.939220e-011
1.512500000000002e-011	-1.057072e-010	-1.040783e-010
1.537500000000002e-011	-1.039921e-010	-1.023484e-010
1.562500000000002e-011	-9.570215e-011	-9.414297e-011
1.587500000000002e-011	-8.117551e-011	-7.979434e-011
1.612500000000002e-011	-6.112418e-011	-6.000338e-011
1.637500000000002e-011	-3.658965e-011	-3.579604e-011
1.662500000000001e-011	-8.880686e-012	-8.462150e-012
1.687500000000001e-011	2.050242e-011	2.051913e-011
1.712500000000001e-011	4.995238e-011	4.956262e-011
1.737500000000001e-011	7.784332e-011	7.706431e-011
1.762500000000001e-011	1.026182e-010	1.014876e-010
1.787500000000001e-011	1.228708e-010	1.214445e-010
1.812500000000001e-011	1.374180e-010	1.357665e-010
1.837500000000001e-011	1.453592e-010	1.435642e-010
1.862500000000001e-011	1.461202e-010	1.442700e-010
1.887500000000001e-011	1.394804e-010	1.376657e-010
1.912500000000001e-011	1.255818e-010	1.238911e-010
1.937500000000000e-011	1.049204e-010	1.034360e-010
1.962500000000000e-011	7.832137e-011	7.711555e-011
1.987500000000000e-011	4.689908e-011	4.603099e-011
2.012500000000000e-011	1.200442e-011	1.151762e-011
2.037500000000000e-011	-2.483742e-011	-2.491660e-011
2.062500000000000e-011	-6.199598e-011	-6.165934e-011
2.087500000000000e-011	-9.780798e-011	-9.706551e-011
2.112500000000000e-011	-1.306501e-010	-1.295292e-010
2.137500000000000e-011	-1.590087e-010	-1.575529e-010
2.162500000000000e-011	-1.815440e-010	-1.798106e-010
2.187500000000000e-011	-1.971457e-010	-1.952037e-010
2.212500000000000e-011	-2.049792e-010	-2.029056e-010
2.237499999999999e-011	-2.045184e-010	-2.023959e-010
2.262499999999999e-011	-1.955676e-010	-1.934805e-010
2.287499999999999e-011	-1.782686e-010	-1.763001e-010
2.312499999999999e-011	-1.530956e-010	-1.513241e-010
2.337499999999999e-011	-1.208366e-010	-1.193331e-010
2.362499999999999e-011	-8.256348e-011	-8.138896e-011
2.387499999999999e-011	-3.959230e-011	-3.879558e-011
2.412499999999999e-011	6.565759e-012	6.949690e-012
2.437499999999999e-011	5.425954e-011	5.421062e-011
2.462499999999999e-011	1.017576e-010	1.012713e-010
2.487499999999999e-011	1.473103e-010	1.463975e-010
2.512499999999998e-011	1.892117e-010	1.878983e-010
2.537499999999998e-011	2.258595e-010	2.241855e-010
2.562499999999998e-011	2.558112e-010	2.538290e-010
2.587499999999998e-011	2.778339e-010	2.756065e-010
2.612499999999998e-011	2.909470e-010	2.885461e-010
2.637499999999998e-011	2.944565e-010	2.919598e-010
2.662499999999998e-011	2.879791e-010	2.854679e-010
2.687499999999998e-011	2.714568e-010	2.690133e-010
2.712499999999998e-011	2.451606e-010	2.428654e-010
2.737499999999998e-011	2.096837e-010	2.076133e-010
2.762499999999998e-011	1.659252e-010	1.641494e-010
2.787499999999998e-011	1.150636e-010	1.136437e-010
2.812499999999997e-011	5.852248e-011	5.750925e-011
2.837499999999997e-011	-2.071558e-012	-2.639350e-012
2.862499999999997e-011	-6.493676e-011	-6.503348e-011
2.887499999999997e-011	-1.281888e-010	-1.278027e-010
2.912499999999997e-011	-1.898963e-010	-1.890297e-010
2.937499999999997e-011	-2.481375e-010	-2.468071e-010
2.962499999999997e-011	-3.010571e-010	-2.992931e-010
2.987499999999997e-011	-3.469206e-010	-3.447661e-010
3.012499999999997e-011	-3.841661e-010	-3.816758e-010
3.037499999999997e-011	-4.114504e-010	-4.086891e-010
3.062499999999997e-011	-4.276897e-010	-4.247308e-010
3.087499999999996e-011	-4.320933e-010	-4.290162e-010
3.112499999999996e-011	-4.241884e-010	-4.210770e-010
3.137499999999996e-011	-4.038378e-010	-4.007778e-010
3.162499999999996e-011	-3.712471e-010	-3.683239e-010
3.187499999999996e-011	-3.269636e-010	-3.242601e-010
3.212499999999996e-011	-2.718659e-010	-2.694600e-010
3.237499999999996e-011	-2.071447e-010	-2.051075e-010
3.262499999999996e-011	-1.342746e-010	-1.326684e-010
3.287499999999996e-011	-5.497979e-011	-5.385640e-011
3.312499999999996e-011	2.880858e-011	2.940921e-011
3.337499999999996e-011	1.149995e-010	1.150504e-010
3.362499999999996e-011	2.013939e-010	2.008819e-010
3.387499999999995e-011	2.857402e-010	2.846661e-010
3.412499999999995e-011	3.657901e-010	3.641693e-010
3.437499999999995e-011	4.393568e-010	4.372183e-010
3.462499999999995e-011	5.043697e-010	5.017562e-010
3.487499999999995e-011	5.589287e-010	5.558953e-010
3.512499999999995e-011	6.013540e-010	5.979667e-010
3.537499999999995e-011	6.302299e-010	6.265646e-010
3.562499999999995e-011	6.444446e-010	6.405850e-010
3.587499999999995e-011	6.432209e-010	6.392567e-010
3.612499999999995e-011	6.261404e-010	6.221651e-010
3.637499999999995e-011	5.931586e-010	5.892674e-010
3.662499999999995e-011	5.446121e-010	5.408997e-010
3.687499999999994e-011	4.812157e-010	4.777737e-010
3.712499999999994e-011	4.040511e-010	4.009663e-010
3.737499999999994e-011	3.145472e-010	3.118994e-010
3.762499999999994e-011	2.144520e-010	2.123119e-010
3.787499999999994e-011	1.057962e-010	1.042238e-010
3.812499999999994e-011	-9.149234e-012	-1.010593e-011
3.837499999999994e-011	-1.279215e-010	-1.282279e-010
3.862499999999994e-011	-2.479194e-010	-2.475551e-010
3.887499999999994e-011	-3.664603e-010	-3.654199e-010
3.912499999999994e-011	-4.808396e-010	-4.791325e-010
3.937499999999994e-011	-5.883904e-010	-5.860411e-010
3.962499999999993e-011	-6.865438e-010	-6.835911e-010
3.987499999999993e-011	-7.728866e-010	-7.711979e-010
4.000000000000000e-011	-8.109921e-010	-8.109921e-010
4.002500000000000e-011	-8.215469e-010	-8.210153e-010
4.007500000000000e-011	-8.394666e-010	-8.373162e-010
4.017500000000000e-011	-8.624033e-010	-8.597194e-010
4.037500000000000e-011	-8.921730e-010	-8.923312e-010
4.062500000000000e-011	-9.300972e-010	-9.293951e-010
4.087500000000000e-011	-9.652129e-010	-9.592369e-010
4.112500000000000e-011	-9.764247e-010	-9.679605e-010
4.137500000000000e-011	-9.537795e-010	-9.461814e-010
4.162500000000000e-011	-9.007418e-010	-8.954208e-010
4.187500000000000e-011	-8.264204e-010	-8.231321e-010
4.212500000000000e-011	-7.389461e-010	-7.367069e-010
4.237500000000000e-011	-6.425153e-010	-6.403475e-010
4.262500000000000e-011	-5.374134e-010	-5.347342e-010
4.287499999999999e-011	-4.215946e-010	-4.183036e-010
4.312499999999999e-011	-2.926117e-010	-2.889954e-010
4.337499999999999e-011	-1.491637e-010	-1.457233e-010
4.362499999999999e-011	8.045967e-012	1.076767e-011
4.387499999999999e-011	1.761424e-010	1.776940e-010
4.412499999999999e-011	3.504451e-010	3.505444e-010
4.437499999999999e-011	5.251449e-010	5.237042e-010
4.462499999999999e-011	6.940817e-010	6.911911e-010
4.487499999999999e-011	8.514560e-010	8.473406e-010
4.512499999999999e-011	9.923685e-010	9.873331e-010
4.537499999999999e-011	1.113139e-009	1.107514e-009
4.562499999999999e-011	1.211407e-009	1.205499e-009
4.587499999999998e-011	1.286040e-009	1.280101e-009
4.612499999999998e-011	1.336914e-009	1.331120e-009
4.637499999999998e-011	1.364613e-009	1.359064e-009
4.662499999999998e-011	1.370118e-009	1.364844e-009
4.687499999999998e-011	1.354526e-009	1.349499e-009
4.712499999999998e-011	1.318825e-009	1.313986e-009
4.737499999999998e-011	1.263770e-009	1.259048e-009
4.762499999999998e-011	1.189828e-009	1.185163e-009
4.787499999999998e-011	1.097226e-009	1.092583e-009
4.812499999999998e-011	9.860518e-010	9.814340e-010
4.837499999999998e-011	8.564068e-010	8.518611e-010
4.862499999999997e-011	7.085790e-010	7.041948e-010
4.887499999999997e-011	5.432145e-010	5.391184e-010
4.912499999999997e-011	3.614656e-010	3.578113e-010
4.937499999999997e-011	1.650995e-010	1.620553e-010
4.962499999999997e-011	-4.344320e-011	-4.570832e-011
4.987499999999997e-011	-2.610464e-010	-2.623769e-010
5.012499999999997e-011	-4.839717e-010	-4.842382e-010
5.037499999999997e-011	-7.079631e-010	-7.070725e-010
5.062499999999997e-011	-9.283920e-010	-9.262951e-010
5.087499999999997e-011	-1.140433e-009	-1.137129e-009
5.112499999999997e-011	-1.339257e-009	-1.334792e-009
5.137499999999997e-011	-1.520222e-009	-1.514691e-009
5.162499999999996e-011	-1.679063e-009	-1.672599e-009
5.187499999999996e-011	-1.812049e-009	-1.804819e-009
5.212499999999996e-011	-1.916117e-009	-1.908313e-009
5.237499999999996e-011	-1.988969e-009	-1.980795e-009
5.262499999999996e-011	-2.029125e-009	-2.020788e-009
5.287499999999996e-011	-2.035934e-009	-2.027636e-009
5.312499999999996e-011	-2.009553e-009	-2.001482e-009
5.337499999999996e-011	-1.950887e-009	-1.943207e-009
5.362499999999996e-011	-1.861501e-009	-1.854350e-009
5.387499999999996e-011	-1.743510e-009	-1.736996e-009
5.412499999999996e-011	-1.599462e-009	-1.593661e-009
5.437499999999995e-011	-1.432208e-009	-1.427165e-009
5.462499999999995e-011	-1.244783e-009	-1.240516e-009
5.487499999999995e-011	-1.040288e-009	-1.036788e-009
5.512499999999995e-011	-8.217946e-010	-8.190353e-010
5.537499999999995e-011	-5.922642e-010	-5.902034e-010
5.562499999999995e-011	-3.544907e-010	-3.530776e-010
5.587499999999995e-011	-1.110648e-010	-1.102454e-010
5.612499999999995e-011	1.356388e-010	1.359167e-010
5.637499999999995e-011	3.834539e-010	3.832362e-010
5.662499999999995e-011	6.303981e-010	6.297210e-010
5.687499999999995e-011	8.746339e-010	8.735216e-010
5.712499999999995e-011	1.114421e-009	1.112884e-009
5.737499999999994e-011	1.348061e-009	1.346098e-009
5.762499999999994e-011	1.573850e-009	1.571445e-009
5.787499999999994e-011	1.790021e-009	1.787150e-009
5.812499999999994e-011	1.994709e-009	1.991339e-009
5.837499999999994e-011	2.185918e-009	2.182013e-009
5.862499999999994e-011	2.361506e-009	2.357027e-009
5.887499999999994e-011	2.519180e-009	2.514094e-009
5.912499999999994e-011	2.656513e-009	2.650796e-009
5.937499999999994e-011	2.770977e-009	2.764611e-009
5.962499999999994e-011	2.859978e-009	2.852964e-009
5.987499999999994e-011	2.920925e-009	2.913279e-009
6.012499999999994e-011	2.951291e-009	2.943049e-009
6.037499999999993e-011	2.948692e-009	2.939911e-009
6.062499999999993e-011	2.910970e-009	2.901726e-009
6.087499999999993e-011	2.836273e-009	2.826663e-009
6.112499999999993e-011	2.723138e-009	2.713280e-009
6.137499999999993e-011	2.570570e-009	2.560597e-009
6.162499999999993e-011	2.378108e-009	2.368168e-009
6.187499999999993e-011	2.145884e-009	2.136137e-009
6.212499999999993e-011	1.874672e-009	1.865286e-009
6.237499999999993e-011	1.565916e-009	1.557064e-009
6.262499999999993e-011	1.221752e-009	1.213606e-009
6.287499999999993e-011	8.450031e-010	8.377313e-010
6.312499999999992e-011	4.391673e-010	4.329304e-010
6.337499999999992e-011	8.383954e-012	3.330576e-012
6.362499999999992e-011	-4.426129e-010	-4.463493e-010
6.387499999999992e-011	-9.085555e-010	-9.108598e-010
6.412499999999992e-011	-1.383716e-009	-1.384494e-009
6.437499999999992e-011	-1.861989e-009	-1.861171e-009
6.462499999999992e-011	-2.336988e-009	-2.334527e-009
6.487499999999992e-011	-2.802142e-009	-2.798017e-009
6.512499999999992e-011	-3.250797e-009	-3.245015e-009
6.537499999999992e-011	-3.676325e-009	-3.668919e-009
6.562499999999992e-011	-4.072228e-009	-4.063255e-009
6.587499999999992e-011	-4.432239e-009	-4.421781e-009
6.612499999999991e-011	-4.750421e-009	-4.738585e-009
6.637499999999991e-011	-5.021261e-009	-5.008174e-009
6.662499999999991e-011	-5.239754e-009	-5.225563e-009
6.687499999999991e-011	-5.401481e-009	-5.386346e-009
6.712499999999991e-011	-5.502669e-009	-5.486769e-009
6.737499999999991e-011	-5.540256e-009	-5.523778e-009
6.762499999999991e-011	-5.511931e-009	-5.495072e-009
6.787499999999991e-011	-5.416169e-009	-5.399130e-009
6.812499999999991e-011	-5.252252e-009	-5.235238e-009
6.837499999999991e-011	-5.020282e-009	-5.003500e-009
6.862499999999991e-011	-4.721183e-009	-4.704835e-009
6.887499999999990e-011	-4.356690e-009	-4.340972e-009
6.912499999999990e-011	-3.929327e-009	-3.914431e-009
6.937499999999990e-011	-3.442383e-009	-3.428492e-009
6.962499999999990e-011	-2.899876e-009	-2.887161e-009
6.987499999999990e-011	-2.306508e-009	-2.295126e-009
7.012499999999990e-011	-1.667613e-009	-1.657710e-009
7.037499999999990e-011	-9.891070e-010	-9.808130e-010
7.062499999999990e-011	-2.774252e-010	-2.708541e-010
7.087499999999990e-011	4.605411e-010	4.652920e-010
7.112499999999990e-011	1.217511e-009	1.220361e-009
7.137499999999990e-011	1.985882e-009	1.986769e-009
7.162499999999990e-011	2.757802e-009	2.756682e-009
7.187499999999989e-011	3.525239e-009	3.522084e-009
7.212499999999989e-011	4.280055e-009	4.274856e-009
7.237499999999989e-011	5.014074e-009	5.006842e-009
7.262499999999989e-011	5.719162e-009	5.709922e-009
7.287499999999989e-011	6.387290e-009	6.376088e-009
7.312499999999989e-011	7.010608e-009	6.997506e-009
7.337499999999989e-011	7.581516e-009	7.566592e-009
7.362499999999989e-011	8.092728e-009	8.076078e-009
7.387499999999989e-011	8.537343e-009	8.519081e-009
7.412499999999989e-011	8.908908e-009	8.889160e-009
7.437499999999989e-011	9.201480e-009	9.180389e-009
7.462499999999988e-011	9.409689e-009	9.387414e-009
7.487499999999988e-011	9.528796e-009	9.505508e-009
7.512499999999988e-011	9.554751e-009	9.530634e-009
7.537499999999988e-011	9.484239e-009	9.459493e-009
7.562499999999988e-011	9.314742e-009	9.289574e-009
7.587499999999988e-011	9.044574e-009	9.019205e-009
7.612499999999988e-011	8.672928e-009	8.647587e-009
7.637499999999988e-011	8.199916e-009	8.174839e-009
7.662499999999988e-011	7.626594e-009	7.602024e-009
7.687499999999988e-011	6.954990e-009	6.931177e-009
7.712499999999988e-011	6.188131e-009	6.165324e-009
7.737499999999988e-011	5.330044e-009	5.308496e-009
7.762499999999987e-011	4.385766e-009	4.365729e-009
7.787499999999987e-011	3.361340e-009	3.343061e-009
7.812499999999987e-011	2.263800e-009	2.247522e-009
7.837499999999987e-011	1.101149e-009	1.087106e-009
7.862499999999987e-011	-1.176751e-010	-1.292611e-010
7.887499999999987e-011	-1.382843e-009	-1.391763e-009
7.912499999999987e-011	-2.683689e-009	-2.689750e-009
7.937499999999987e-011	-4.008777e-009	-4.011805e-009
7.962499999999987e-011	-5.345977e-009	-5.345822e-009
7.987499999999987e-011	-6.682554e-009	-6.679087e-009
8.012499999999987e-011	-8.005264e-009	-7.998388e-009
8.037499999999987e-011	-9.300469e-009	-9.290114e-009
8.062499999999986e-011	-1.055425e-008	-1.054038e-008
8.087499999999986e-011	-1.175254e-008	-1.173515e-008
8.112499999999986e-011	-1.288125e-008	-1.286037e-008
8.137499999999986e-011	-1.392644e-008	-1.390214e-008
8.162499999999986e-011	-1.487441e-008	-1.484680e-008
8.187499999999986e-011	-1.571193e-008	-1.568115e-008
8.212499999999986e-011	-1.642633e-008	-1.639257e-008
8.237499999999986e-011	-1.700568e-008	-1.696916e-008
8.262499999999986e-011	-1.743895e-008	-1.739993e-008
8.287499999999986e-011	-1.771616e-008	-1.767495e-008
8.312499999999986e-011	-1.782852e-008	-1.778544e-008
8.337499999999985e-011	-1.776856e-008	-1.772398e-008
8.362499999999985e-011	-1.753030e-008	-1.748462e-008
8.387499999999985e-011	-1.710931e-008	-1.706296e-008
8.412499999999985e-011	-1.650290e-008	-1.645630e-008
8.437499999999985e-011	-1.571010e-008	-1.566374e-008
8.462499999999985e-011	-1.473186e-008	-1.468621e-008
8.487499999999985e-011	-1.357101e-008	-1.352656e-008
8.512499999999985e-011	-1.223235e-008	-1.218959e-008
8.537499999999985e-011	-1.072266e-008	-1.068210e-008
8.562499999999985e-011	-9.050705e-009	-9.012814e-009
8.587499999999985e-011	-7.227179e-009	-7.192440e-009
8.612499999999985e-011	-5.264699e-009	-5.233573e-009
8.637499999999984e-011	-3.177717e-009	-3.150641e-009
8.662499999999984e-011	-9.824307e-010	-9.598135e-010
8.687499999999984e-011	1.303324e-009	1.321107e-009
8.712499999999984e-011	3.660211e-009	3.672823e-009
8.737499999999984e-011	6.067545e-009	6.074691e-009
8.762499999999984e-011	8.503464e-009	8.504897e-009
8.787499999999984e-011	1.094512e-008	1.094064e-008
8.812499999999984e-011	1.336887e-008	1.335835e-008
8.837499999999984e-011	1.575054e-008	1.573389e-008
8.862499999999984e-011	1.806559e-008	1.804278e-008
8.887499999999984e-011	2.028940e-008	2.026047e-008
8.912499999999983e-011	2.239749e-008	2.236255e-008
