time	V(ctle_out)	V(n_3p)
0.000000000000000e+000	0.000000e+000	0.000000e+000
1.216181640624937e-010	-3.158080e-007	-6.979501e-008
1.278263113839228e-010	1.274978e-007	2.791143e-006
1.340344587053518e-010	4.382632e-007	4.059016e-006
1.402426060267809e-010	6.164882e-007	3.733823e-006
1.464507533482099e-010	6.621729e-007	1.815565e-006
1.526589006696390e-010	5.753172e-007	-1.695760e-006
1.588670479910680e-010	3.559212e-007	-6.800150e-006
1.650751953124970e-010	3.984741e-009	-1.349761e-005
1.671852678571400e-010	1.330271e-006	-4.003509e-005
1.692953404017831e-010	-3.916769e-006	-8.206606e-005
1.714054129464261e-010	-1.573713e-005	-1.395905e-004
1.735154854910691e-010	-3.413083e-005	-2.126084e-004
1.756255580357121e-010	-5.909784e-005	-3.011198e-004
1.777356305803551e-010	-9.063819e-005	-4.051247e-004
1.798457031249981e-010	-1.287519e-004	-5.246231e-004
1.808048270089268e-010	-1.510424e-004	-5.793281e-004
1.817639508928554e-010	-1.734725e-004	-6.215128e-004
1.827230747767841e-010	-1.960421e-004	-6.511771e-004
1.836821986607127e-010	-2.187512e-004	-6.683210e-004
1.846413225446413e-010	-2.415998e-004	-6.729446e-004
1.856004464285700e-010	-2.645879e-004	-6.650477e-004
1.865595703124986e-010	-2.877156e-004	-6.446305e-004
1.872047991071415e-010	-3.022588e-004	-6.158200e-004
1.878500279017844e-010	-3.135744e-004	-5.624596e-004
1.884952566964273e-010	-3.216622e-004	-4.845493e-004
1.891404854910702e-010	-3.265224e-004	-3.820891e-004
1.897857142857131e-010	-3.281548e-004	-2.550791e-004
1.904309430803561e-010	-3.265596e-004	-1.035192e-004
1.910761718749990e-010	-3.217366e-004	7.259053e-005
1.916167689732133e-010	-3.136818e-004	2.486082e-004
1.921573660714276e-010	-2.985084e-004	4.652128e-004
1.926979631696419e-010	-2.762166e-004	7.224042e-004
1.932385602678563e-010	-2.468062e-004	1.020182e-003
1.937791573660706e-010	-2.102773e-004	1.358548e-003
1.943197544642849e-010	-1.666300e-004	1.737500e-003
1.948603515624993e-010	-1.158641e-004	2.157039e-003
1.954009486607136e-010	-5.589262e-005	2.628871e-003
1.959415457589279e-010	2.011461e-005	3.176023e-003
1.964821428571422e-010	1.121576e-004	3.798496e-003
1.970227399553566e-010	2.202364e-004	4.496290e-003
1.975633370535709e-010	3.443511e-004	5.269403e-003
1.981039341517852e-010	4.845015e-004	6.117837e-003
1.986445312499995e-010	6.406876e-004	7.041592e-003
1.992897600446424e-010	8.509611e-004	8.261190e-003
1.999349888392854e-010	1.107635e-003	9.656722e-003
2.005802176339283e-010	1.410710e-003	1.122819e-002
2.012254464285712e-010	1.760186e-003	1.297559e-002
2.018706752232141e-010	2.156062e-003	1.489892e-002
2.025159040178570e-010	2.598339e-003	1.699819e-002
2.031611328124999e-010	3.087017e-003	1.927339e-002
2.038586774553571e-010	3.681100e-003	2.197975e-002
2.045562220982143e-010	4.373241e-003	2.497056e-002
2.052537667410715e-010	5.163440e-003	2.824582e-002
2.059513113839287e-010	6.051697e-003	3.180554e-002
2.066488560267859e-010	7.038013e-003	3.564972e-002
2.073464006696430e-010	8.122387e-003	3.977835e-002
2.080439453125002e-010	9.304819e-003	4.419144e-002
2.089856305803575e-010	1.108687e-002	5.070201e-002
2.099273158482147e-010	1.314660e-002	5.773699e-002
2.108690011160719e-010	1.548401e-002	6.529638e-002
2.118106863839291e-010	1.809910e-002	7.338019e-002
2.127523716517863e-010	2.099187e-002	8.198841e-002
2.136940569196435e-010	2.416231e-002	9.112104e-002
2.146357421875007e-010	2.761044e-002	1.007781e-001
2.157518136160722e-010	3.216539e-002	1.129602e-001
2.168678850446438e-010	3.715016e-002	1.253724e-001
2.179839564732153e-010	4.256475e-002	1.380148e-001
2.191000279017868e-010	4.840916e-002	1.508872e-001
2.202160993303583e-010	5.468339e-002	1.639898e-001
2.213321707589298e-010	6.138744e-002	1.773225e-001
2.224482421875013e-010	6.852131e-002	1.908853e-001
2.237038225446443e-010	7.708133e-002	2.059269e-001
2.249594029017872e-010	8.586830e-002	2.202176e-001
2.262149832589302e-010	9.488222e-002	2.337573e-001
2.274705636160731e-010	1.041231e-001	2.465461e-001
2.287261439732161e-010	1.135909e-001	2.585839e-001
2.299817243303590e-010	1.232857e-001	2.698707e-001
2.312373046875020e-010	1.332074e-001	2.804066e-001
2.328590959821450e-010	1.460565e-001	2.920229e-001
2.344808872767879e-010	1.583092e-001	3.016643e-001
2.361026785714309e-010	1.699653e-001	3.093307e-001
2.377244698660739e-010	1.810250e-001	3.150221e-001
2.393462611607169e-010	1.914882e-001	3.187385e-001
2.409680524553599e-010	2.013549e-001	3.204799e-001
2.425898437500028e-010	2.106251e-001	3.202463e-001
2.431478794642886e-010	2.134888e-001	3.197310e-001
2.437059151785744e-010	2.162240e-001	3.189935e-001
2.442639508928601e-010	2.188306e-001	3.180338e-001
2.448219866071459e-010	2.213088e-001	3.168519e-001
2.453800223214316e-010	2.236585e-001	3.154478e-001
2.459380580357174e-010	2.258796e-001	3.138215e-001
2.464960937500031e-010	2.279722e-001	3.119730e-001
2.466181640625031e-010	2.284110e-001	3.115399e-001
2.485189732142890e-010	2.344632e-001	3.030663e-001
2.504197823660749e-010	2.386979e-001	2.924055e-001
2.523205915178607e-010	2.411149e-001	2.795576e-001
2.542214006696466e-010	2.417145e-001	2.645224e-001
2.561222098214325e-010	2.404964e-001	2.473000e-001
2.580230189732183e-010	2.374608e-001	2.278905e-001
2.599238281250041e-010	2.326076e-001	2.062937e-001
2.610573381696471e-010	2.287342e-001	1.928671e-001
2.621908482142900e-010	2.243251e-001	1.794425e-001
2.633243582589329e-010	2.193803e-001	1.660199e-001
2.644578683035759e-010	2.138997e-001	1.525992e-001
2.655913783482189e-010	2.078835e-001	1.391806e-001
2.667248883928618e-010	2.013315e-001	1.257641e-001
2.678583984375047e-010	1.942438e-001	1.123495e-001
2.688872767857191e-010	1.874485e-001	1.006700e-001
2.699161551339334e-010	1.804930e-001	8.958040e-002
2.709450334821478e-010	1.733773e-001	7.908076e-002
2.719739118303622e-010	1.661016e-001	6.917105e-002
2.730027901785766e-010	1.586656e-001	5.985127e-002
2.740316685267909e-010	1.510696e-001	5.112142e-002
2.750605468750053e-010	1.433134e-001	4.298149e-002
2.759324776785768e-010	1.367823e-001	3.678106e-002
2.768044084821483e-010	1.303406e-001	3.108147e-002
2.776763392857198e-010	1.239884e-001	2.588274e-002
2.785482700892912e-010	1.177257e-001	2.118486e-002
2.794202008928628e-010	1.115525e-001	1.698784e-002
2.802921316964342e-010	1.054688e-001	1.329167e-002
2.811640625000057e-010	9.947450e-002	1.009635e-002
2.816349051339343e-010	9.632754e-002	8.542118e-003
2.821057477678630e-010	9.323386e-002	7.093862e-003
2.825765904017915e-010	9.019349e-002	5.751579e-003
2.830474330357202e-010	8.720640e-002	4.515271e-003
2.835182756696488e-010	8.427262e-002	3.384935e-003
2.839891183035774e-010	8.139213e-002	2.360574e-003
2.844599609375060e-010	7.856493e-002	1.442185e-003
2.848610491071489e-010	7.620515e-002	7.247898e-004
2.852621372767917e-010	7.388905e-002	5.685194e-005
2.856632254464346e-010	7.161665e-002	-5.616284e-004
2.860643136160776e-010	6.938794e-002	-1.130651e-003
2.864654017857204e-010	6.720293e-002	-1.650216e-003
2.868664899553633e-010	6.506160e-002	-2.120324e-003
2.872675781250062e-010	6.296397e-002	-2.540973e-003
2.877907366071491e-010	6.029695e-002	-3.030243e-003
2.883138950892920e-010	5.770299e-002	-3.479928e-003
2.888370535714349e-010	5.518209e-002	-3.890030e-003
2.893602120535778e-010	5.273425e-002	-4.260546e-003
2.898833705357207e-010	5.035948e-002	-4.591479e-003
2.904065290178636e-010	4.805777e-002	-4.882827e-003
2.909296875000065e-010	4.582912e-002	-5.134591e-003
2.921678292410780e-010	4.087634e-002	-5.682729e-003
2.934059709821495e-010	3.623567e-002	-6.187983e-003
2.946441127232210e-010	3.190710e-002	-6.650354e-003
2.958822544642925e-010	2.789064e-002	-7.069841e-003
2.971203962053641e-010	2.418628e-002	-7.446445e-003
2.983585379464356e-010	2.079403e-002	-7.780165e-003
2.995966796875071e-010	1.771389e-002	-8.071002e-003
3.003291015625072e-010	1.598125e-002	-8.195458e-003
3.010615234375072e-010	1.433076e-002	-8.237348e-003
3.017939453125073e-010	1.276243e-002	-8.196671e-003
3.025263671875073e-010	1.127626e-002	-8.073427e-003
3.032587890625074e-010	9.872235e-003	-7.867617e-003
3.039912109375074e-010	8.550370e-003	-7.579240e-003
3.047236328125075e-010	7.310660e-003	-7.208297e-003
3.057001953125076e-010	5.774122e-003	-6.508703e-003
3.066767578125077e-010	4.396654e-003	-5.561223e-003
3.076533203125077e-010	3.178257e-003	-4.365859e-003
3.086298828125078e-010	2.118930e-003	-2.922609e-003
3.096064453125079e-010	1.218674e-003	-1.231474e-003
3.105830078125079e-010	4.774876e-004	7.075456e-004
3.115595703125080e-010	-1.046284e-004	2.894451e-003
3.122047991071509e-010	-3.877856e-004	4.488437e-003
3.128500279017938e-010	-5.939893e-004	6.160426e-003
3.134952566964367e-010	-7.232396e-004	7.910418e-003
3.141404854910797e-010	-7.755364e-004	9.738412e-003
3.147857142857226e-010	-7.508797e-004	1.164441e-002
3.154309430803655e-010	-6.492695e-004	1.362841e-002
3.160761718750084e-010	-4.707059e-004	1.569041e-002
3.168085937500084e-010	-1.683735e-004	1.810380e-002
3.175410156250085e-010	2.214409e-004	2.052143e-002
3.182734375000085e-010	6.987373e-004	2.294330e-002
3.190058593750086e-010	1.263516e-003	2.536941e-002
3.197382812500086e-010	1.915776e-003	2.779976e-002
3.204707031250087e-010	2.655519e-003	3.023436e-002
3.212031250000087e-010	3.482744e-003	3.267320e-002
3.219878627232231e-010	4.458781e-003	3.522161e-002
3.227726004464374e-010	5.491988e-003	3.765503e-002
3.235573381696518e-010	6.582366e-003	3.997346e-002
3.243420758928661e-010	7.729915e-003	4.217690e-002
3.251268136160805e-010	8.934633e-003	4.426535e-002
3.259115513392948e-010	1.019652e-002	4.623881e-002
3.266962890625092e-010	1.151558e-002	4.809728e-002
3.276902901785807e-010	1.323946e-002	5.018767e-002
3.286842912946522e-010	1.495012e-002	5.201336e-002
3.296782924107237e-010	1.664758e-002	5.357435e-002
3.306722935267952e-010	1.833182e-002	5.487065e-002
3.316662946428667e-010	2.000286e-002	5.590225e-002
3.326602957589382e-010	2.166069e-002	5.666916e-002
3.336542968750097e-010	2.330530e-002	5.717137e-002
3.351191406250098e-010	2.559305e-002	5.735875e-002
3.365839843750099e-010	2.767229e-002	5.722428e-002
3.380488281250100e-010	2.954303e-002	5.676797e-002
3.395136718750101e-010	3.120527e-002	5.598981e-002
3.409785156250102e-010	3.265901e-002	5.488980e-002
3.424433593750103e-010	3.390424e-002	5.346795e-002
3.439082031250104e-010	3.494098e-002	5.172425e-002
3.454602399553677e-010	3.576896e-002	4.988915e-002
3.470122767857250e-010	3.635638e-002	4.778627e-002
3.485643136160822e-010	3.670326e-002	4.541561e-002
3.501163504464395e-010	3.680958e-002	4.277718e-002
3.516683872767967e-010	3.667535e-002	3.987097e-002
3.532204241071540e-010	3.630057e-002	3.669698e-002
3.547724609375113e-010	3.568524e-002	3.325522e-002
3.558362165178685e-010	3.512059e-002	3.057504e-002
3.568999720982257e-010	3.442498e-002	2.772623e-002
3.579637276785830e-010	3.359843e-002	2.470879e-002
3.590274832589401e-010	3.264093e-002	2.152272e-002
3.600912388392974e-010	3.155248e-002	1.816803e-002
3.611549944196546e-010	3.033308e-002	1.464470e-002
3.622187500000118e-010	2.898274e-002	1.095274e-002
3.626895926339404e-010	2.833910e-002	9.299529e-003
3.631604352678690e-010	2.767086e-002	7.644072e-003
3.636312779017976e-010	2.697802e-002	5.986365e-003
3.641021205357263e-010	2.626058e-002	4.326407e-003
3.645729631696549e-010	2.551854e-002	2.664199e-003
3.650438058035835e-010	2.475190e-002	9.997401e-004
3.655146484375121e-010	2.396066e-002	-6.669689e-004
3.660203683035836e-010	2.308377e-002	-2.445859e-003
3.665260881696550e-010	2.218614e-002	-4.187745e-003
3.670318080357265e-010	2.126778e-002	-5.892627e-003
3.675375279017979e-010	2.032868e-002	-7.560506e-003
3.680432477678694e-010	1.936884e-002	-9.191381e-003
3.685489676339408e-010	1.838827e-002	-1.078525e-002
3.690546875000123e-010	1.738696e-002	-1.234212e-002
3.694034598214409e-010	1.668882e-002	-1.337596e-002
3.697522321428695e-010	1.598631e-002	-1.437545e-002
3.701010044642981e-010	1.527944e-002	-1.534059e-002
3.704497767857267e-010	1.456820e-002	-1.627138e-002
3.707985491071553e-010	1.385259e-002	-1.716782e-002
3.711473214285839e-010	1.313262e-002	-1.802991e-002
3.714960937500125e-010	1.240828e-002	-1.885765e-002
3.716181640625125e-010	1.215503e-002	-1.913638e-002
3.723157087053697e-010	1.068806e-002	-2.064958e-002
3.730132533482269e-010	9.240269e-003	-2.196815e-002
3.737107979910841e-010	7.811663e-003	-2.309208e-002
3.744083426339413e-010	6.402242e-003	-2.402138e-002
3.751058872767985e-010	5.012004e-003	-2.475604e-002
3.758034319196557e-010	3.640951e-003	-2.529608e-002
3.765009765625129e-010	2.289081e-003	-2.564147e-002
3.771113281250129e-010	1.147587e-003	-2.575167e-002
3.777216796875130e-010	5.413507e-005	-2.571096e-002
3.783320312500130e-010	-9.912739e-004	-2.551936e-002
3.789423828125131e-010	-1.988640e-003	-2.517687e-002
3.795527343750131e-010	-2.937964e-003	-2.468348e-002
3.801630859375132e-010	-3.839245e-003	-2.403919e-002
3.807734375000132e-010	-4.692484e-003	-2.324401e-002
3.814884207589418e-010	-5.610262e-003	-2.211952e-002
3.822034040178705e-010	-6.435388e-003	-2.086506e-002
3.829183872767991e-010	-7.167862e-003	-1.948063e-002
3.836333705357277e-010	-7.807683e-003	-1.796623e-002
3.843483537946563e-010	-8.354853e-003	-1.632185e-002
3.850633370535850e-010	-8.809371e-003	-1.454750e-002
3.857783203125136e-010	-9.171236e-003	-1.264317e-002
3.863189174107279e-010	-9.375775e-003	-1.116782e-002
3.868595145089422e-010	-9.528313e-003	-9.678294e-003
3.874001116071566e-010	-9.628851e-003	-8.174589e-003
3.879407087053709e-010	-9.677387e-003	-6.656707e-003
3.884813058035852e-010	-9.673924e-003	-5.124649e-003
3.890219029017995e-010	-9.618460e-003	-3.578414e-003
3.895625000000139e-010	-9.510995e-003	-2.018003e-003
3.900333426339425e-010	-9.378013e-003	-6.737578e-004
3.905041852678711e-010	-9.213782e-003	6.489085e-004
3.909750279017997e-010	-9.018302e-003	1.949996e-003
3.914458705357283e-010	-8.791575e-003	3.229505e-003
3.919167131696569e-010	-8.533598e-003	4.487434e-003
3.923875558035855e-010	-8.244373e-003	5.723785e-003
3.928583984375141e-010	-7.923899e-003	6.938558e-003
3.936082589285856e-010	-7.349230e-003	8.806584e-003
3.943581194196571e-010	-6.732735e-003	1.056241e-002
3.951079799107286e-010	-6.074415e-003	1.220602e-002
3.958578404018001e-010	-5.374269e-003	1.373743e-002
3.966077008928716e-010	-4.632297e-003	1.515663e-002
3.973575613839430e-010	-3.848500e-003	1.646363e-002
3.981074218750145e-010	-3.022878e-003	1.765842e-002
3.988049665178717e-010	-2.242942e-003	1.864161e-002
3.995025111607289e-010	-1.464612e-003	1.951674e-002
4.002000558035861e-010	-6.878890e-004	2.028380e-002
4.008976004464433e-010	8.722787e-005	2.094281e-002
4.015951450893005e-010	8.607384e-004	2.149374e-002
4.022926897321577e-010	1.632643e-003	2.193662e-002
4.029902343750149e-010	2.402941e-003	2.227143e-002
4.039667968750150e-010	3.455153e-003	2.255278e-002
4.049433593750150e-010	4.447163e-003	2.266601e-002
4.059199218750151e-010	5.378971e-003	2.261113e-002
4.068964843750152e-010	6.250577e-003	2.238812e-002
4.078730468750153e-010	7.061981e-003	2.199700e-002
4.088496093750153e-010	7.813183e-003	2.143777e-002
4.098261718750154e-010	8.504183e-003	2.071042e-002
4.109248046875155e-010	9.173553e-003	1.972070e-002
4.120234375000156e-010	9.734196e-003	1.861026e-002
4.131220703125156e-010	1.018611e-002	1.737911e-002
4.142207031250157e-010	1.052931e-002	1.602723e-002
4.153193359375158e-010	1.076377e-002	1.455462e-002
4.164179687500159e-010	1.088951e-002	1.296130e-002
4.175166015625160e-010	1.090652e-002	1.124725e-002
4.182839006696589e-010	1.084975e-002	1.002004e-002
4.190511997768018e-010	1.074564e-002	8.785621e-003
4.198184988839447e-010	1.059419e-002	7.544012e-003
4.205857979910877e-010	1.039540e-002	6.295208e-003
4.213530970982306e-010	1.014927e-002	5.039208e-003
4.221203962053735e-010	9.855799e-003	3.776014e-003
4.228876953125164e-010	9.514989e-003	2.505625e-003
4.234980468750164e-010	9.214657e-003	1.512752e-003
4.241083984375165e-010	8.894185e-003	5.473315e-004
4.247187500000165e-010	8.553573e-003	-3.906365e-004
4.253291015625166e-010	8.192820e-003	-1.301152e-003
4.259394531250166e-010	7.811926e-003	-2.184215e-003
4.265498046875167e-010	7.410892e-003	-3.039826e-003
4.271601562500167e-010	6.989718e-003	-3.867985e-003
4.279448939732311e-010	6.421620e-003	-4.876068e-003
4.287296316964454e-010	5.846564e-003	-5.783490e-003
4.295143694196597e-010	5.264552e-003	-6.590252e-003
4.302991071428741e-010	4.675583e-003	-7.296354e-003
4.310838448660884e-010	4.079657e-003	-7.901796e-003
4.318685825893028e-010	3.476774e-003	-8.406577e-003
4.326533203125171e-010	2.866934e-003	-8.810697e-003
4.333508649553743e-010	2.335464e-003	-9.052320e-003
4.340484095982315e-010	1.825028e-003	-9.184897e-003
4.347459542410887e-010	1.335627e-003	-9.208429e-003
4.354434988839459e-010	8.672597e-004	-9.122916e-003
4.361410435268031e-010	4.199268e-004	-8.928357e-003
4.368385881696603e-010	-6.371947e-006	-8.624753e-003
4.375361328125175e-010	-4.116364e-004	-8.212104e-003
4.383034319196604e-010	-8.176342e-004	-7.612710e-003
4.390707310268033e-010	-1.170703e-003	-6.892366e-003
4.398380301339462e-010	-1.470843e-003	-6.051073e-003
4.406053292410892e-010	-1.718054e-003	-5.088829e-003
4.413726283482321e-010	-1.912336e-003	-4.005636e-003
4.421399274553750e-010	-2.053690e-003	-2.801493e-003
4.429072265625179e-010	-2.142114e-003	-1.476401e-003
4.434129464285894e-010	-2.162100e-003	-5.526764e-004
4.439186662946608e-010	-2.154184e-003	4.010761e-004
4.444243861607323e-010	-2.118365e-003	1.384857e-003
4.449301060268037e-010	-2.054644e-003	2.398666e-003
4.454358258928752e-010	-1.963021e-003	3.442504e-003
4.459415457589467e-010	-1.843495e-003	4.516370e-003
4.464472656250182e-010	-1.696068e-003	5.620264e-003
4.471448102678754e-010	-1.442243e-003	7.184536e-003
4.478423549107326e-010	-1.140504e-003	8.746047e-003
4.485398995535898e-010	-7.908512e-004	1.030480e-002
4.492374441964469e-010	-3.932841e-004	1.186079e-002
4.499349888393041e-010	5.219717e-005	1.341402e-002
4.506325334821613e-010	5.455926e-004	1.496448e-002
4.513300781250185e-010	1.086902e-003	1.651219e-002
4.521148158482329e-010	1.750722e-003	1.820552e-002
4.528995535714472e-010	2.446989e-003	1.981003e-002
4.536842912946615e-010	3.175701e-003	2.132571e-002
4.544690290178759e-010	3.936860e-003	2.275258e-002
4.552537667410903e-010	4.730465e-003	2.409062e-002
4.560385044643046e-010	5.556517e-003	2.533984e-002
4.568232421875189e-010	6.415014e-003	2.650023e-002
4.577823660714476e-010	7.489184e-003	2.773539e-002
4.587414899553762e-010	8.544233e-003	2.877270e-002
4.597006138393048e-010	9.580160e-003	2.961216e-002
4.606597377232335e-010	1.059697e-002	3.025378e-002
4.616188616071621e-010	1.159465e-002	3.069755e-002
4.625779854910908e-010	1.257321e-002	3.094347e-002
4.635371093750194e-010	1.353265e-002	3.099155e-002
4.649845145089476e-010	1.488433e-002	3.063572e-002
4.664319196428758e-010	1.604278e-002	2.989910e-002
4.678793247768041e-010	1.700797e-002	2.878168e-002
4.693267299107322e-010	1.777993e-002	2.728346e-002
4.707741350446605e-010	1.835865e-002	2.540444e-002
4.722215401785886e-010	1.874412e-002	2.314463e-002
4.736689453125168e-010	1.893635e-002	2.050402e-002
4.746106305803737e-010	1.891258e-002	1.863277e-002
4.755523158482305e-010	1.878827e-002	1.666456e-002
4.764940011160873e-010	1.856343e-002	1.459938e-002
4.774356863839441e-010	1.823805e-002	1.243725e-002
4.783773716518009e-010	1.781213e-002	1.017816e-002
4.793190569196577e-010	1.728568e-002	7.822102e-003
4.802607421875145e-010	1.665870e-002	5.369088e-003
4.808885323660858e-010	1.618480e-002	3.707560e-003
4.815163225446569e-010	1.567141e-002	2.040449e-003
4.821441127232282e-010	1.511851e-002	3.677539e-004
4.827719029017994e-010	1.452612e-002	-1.310525e-003
