Freq.	V(d_3p)
2.00000000000000e+007	(-7.94587958093143e+000dB,-4.21667223630455e-001°)
3.99900000000000e+007	(-7.94759169662489e+000dB,-8.31683720306403e-001°)
5.99800000000000e+007	(-7.94896064041306e+000dB,-1.23831072040033e+000°)
7.99700000000000e+007	(-7.95027584289128e+000dB,-1.64364482689389e+000°)
9.99600000000000e+007	(-7.95165134546541e+000dB,-2.04752527129825e+000°)
1.19950000000000e+008	(-7.95308995719494e+000dB,-2.44960319767492e+000°)
1.39940000000000e+008	(-7.95455288147887e+000dB,-2.84964288922705e+000°)
1.59930000000000e+008	(-7.95598772902322e+000dB,-3.24753760961004e+000°)
1.79920000000000e+008	(-7.95734033605031e+000dB,-3.64328634795273e+000°)
1.99910000000000e+008	(-7.95856020807403e+000dB,-4.03696779689803e+000°)
2.19900000000000e+008	(-7.95960302038504e+000dB,-4.42871724450916e+000°)
2.39890000000000e+008	(-7.96043155710430e+000dB,-4.81870729752951e+000°)
2.59880000000000e+008	(-7.96101576345943e+000dB,-5.20713243831846e+000°)
2.79870000000000e+008	(-7.96133229697022e+000dB,-5.59419711716552e+000°)
2.99860000000000e+008	(-7.96136381778706e+000dB,-5.98010693472412e+000°)
3.19850000000000e+008	(-7.96109817146688e+000dB,-6.36506240908534e+000°)
3.39840000000000e+008	(-7.96052756026795e+000dB,-6.74925482382397e+000°)
3.59830000000000e+008	(-7.95964776017941e+000dB,-7.13286369464406e+000°)
3.79820000000000e+008	(-7.95845741457022e+000dB,-7.51605545381301e+000°)
3.99810000000000e+008	(-7.95695741790420e+000dB,-7.89898301960227e+000°)
4.19800000000000e+008	(-7.95515039184626e+000dB,-8.28178598386066e+000°)
4.39790000000000e+008	(-7.95304024938806e+000dB,-8.66459121001149e+000°)
4.59780000000000e+008	(-7.95063183895570e+000dB,-9.04751368423741e+000°)
4.79770000000000e+008	(-7.94793065880748e+000dB,-9.43065750407641e+000°)
4.99760000000000e+008	(-7.94494263166620e+000dB,-9.81411692169348e+000°)
5.19750000000000e+008	(-7.94167392994038e+000dB,-1.01979773847497e+001°)
5.39740000000000e+008	(-7.93813084272743e+000dB,-1.05823165372375e+001°)
5.59730000000000e+008	(-7.93431967682871e+000dB,-1.09672051570625e+001°)
5.79720000000000e+008	(-7.93024668508847e+000dB,-1.13527080175646e+001°)
5.99710000000000e+008	(-7.92591801641423e+000dB,-1.17388846675013e+001°)
6.19700000000000e+008	(-7.92133968279335e+000dB,-1.21257901290127e+001°)
6.39690000000000e+008	(-7.91651753946308e+000dB,-1.25134755163426e+001°)
6.59680000000000e+008	(-7.91145727512263e+000dB,-1.29019885800906e+001°)
6.79670000000000e+008	(-7.90616440969023e+000dB,-1.32913741828730e+001°)
6.99660000000000e+008	(-7.90064429762095e+000dB,-1.36816747127476e+001°)
7.19650000000000e+008	(-7.89490213522360e+000dB,-1.40729304408164e+001°)
7.39640000000000e+008	(-7.88894297075807e+000dB,-1.44651798292168e+001°)
7.59630000000000e+008	(-7.88277171637056e+000dB,-1.48584597953286e+001°)
7.79620000000000e+008	(-7.87639316114702e+000dB,-1.52528059375690e+001°)
7.99610000000000e+008	(-7.86981198473971e+000dB,-1.56482527276417e+001°)
8.19600000000000e+008	(-7.86303277116236e+000dB,-1.60448336735993e+001°)
8.39590000000000e+008	(-7.85606002245555e+000dB,-1.64425814575907e+001°)
8.59580000000000e+008	(-7.84889817201209e+000dB,-1.68415280517060e+001°)
8.79570000000000e+008	(-7.84155159741378e+000dB,-1.72417048149056e+001°)
8.99560000000000e+008	(-7.83402463268521e+000dB,-1.76431425736436e+001°)
9.19550000000000e+008	(-7.82632157990370e+000dB,-1.80458716884475e+001°)
9.39540000000000e+008	(-7.81844672013673e+000dB,-1.84499221084162e+001°)
9.59530000000000e+008	(-7.81040432369754e+000dB,-1.88553234153292e+001°)
9.79520000000000e+008	(-7.80219865972509e+000dB,-1.92621048588278e+001°)
9.99510000000000e+008	(-7.79383400510596e+000dB,-1.96702953839201e+001°)
1.01950000000000e+009	(-7.78531465276274e+000dB,-2.00799236518902e+001°)
1.03949000000000e+009	(-7.77664491933767e+000dB,-2.04910180555330e+001°)
1.05948000000000e+009	(-7.76782915230473e+000dB,-2.09036067295045e+001°)
1.07947000000000e+009	(-7.75887173654346e+000dB,-2.13177175564666e+001°)
1.09946000000000e+009	(-7.74977710040795e+000dB,-2.17333781695986e+001°)
1.11945000000000e+009	(-7.74054972132479e+000dB,-2.21506159519723e+001°)
1.13944000000000e+009	(-7.73119413095140e+000dB,-2.25694580332055e+001°)
1.15943000000000e+009	(-7.72171491992610e+000dB,-2.29899312837538e+001°)
1.17942000000000e+009	(-7.71211674223850e+000dB,-2.34120623071422e+001°)
1.19941000000000e+009	(-7.70240431924613e+000dB,-2.38358774303934e+001°)
1.21940000000000e+009	(-7.69258244336364e+000dB,-2.42614026928707e+001°)
1.23939000000000e+009	(-7.68265598144696e+000dB,-2.46886638337225e+001°)
1.25938000000000e+009	(-7.67262987789197e+000dB,-2.51176862780794e+001°)
1.27937000000000e+009	(-7.66250915746865e+000dB,-2.55484951221397e+001°)
1.29936000000000e+009	(-7.65229892790594e+000dB,-2.59811151172530e+001°)
1.31935000000000e+009	(-7.64200438224384e+000dB,-2.64155706530954e+001°)
1.33934000000000e+009	(-7.63163080096476e+000dB,-2.68518857400136e+001°)
1.35933000000000e+009	(-7.62118355391812e+000dB,-2.72900839906080e+001°)
1.37932000000000e+009	(-7.61066810204634e+000dB,-2.77301886006065e+001°)
1.39931000000000e+009	(-7.60008999892300e+000dB,-2.81722223290808e+001°)
1.41930000000000e+009	(-7.58945489210970e+000dB,-2.86162074780398e+001°)
1.43929000000000e+009	(-7.57876852433897e+000dB,-2.90621658714418e+001°)
1.45928000000000e+009	(-7.56803673452820e+000dB,-2.95101188336484e+001°)
1.47927000000000e+009	(-7.55726545862862e+000dB,-2.99600871673506e+001°)
1.49926000000000e+009	(-7.54646073031373e+000dB,-3.04120911309890e+001°)
1.51925000000000e+009	(-7.53562868150846e+000dB,-3.08661504156889e+001°)
1.53924000000000e+009	(-7.52477554276193e+000dB,-3.13222841217298e+001°)
1.55923000000000e+009	(-7.51390764346358e+000dB,-3.17805107345698e+001°)
1.57922000000000e+009	(-7.50303141190497e+000dB,-3.22408481004407e+001°)
1.59921000000000e+009	(-7.49215337518413e+000dB,-3.27033134015349e+001°)
1.61920000000000e+009	(-7.48128015895463e+000dB,-3.31679231308006e+001°)
1.63919000000000e+009	(-7.47041848701627e+000dB,-3.36346930663673e+001°)
1.65918000000000e+009	(-7.45957518074572e+000dB,-3.41036382456188e+001°)
1.67917000000000e+009	(-7.44875715836593e+000dB,-3.45747729389401e+001°)
1.69916000000000e+009	(-7.43797143405150e+000dB,-3.50481106231584e+001°)
1.71915000000000e+009	(-7.42722511686650e+000dB,-3.55236639547033e+001°)
1.73914000000000e+009	(-7.41652540953334e+000dB,-3.60014447425164e+001°)
1.75913000000000e+009	(-7.40587960702787e+000dB,-3.64814639207360e+001°)
1.77912000000000e+009	(-7.39529509499898e+000dB,-3.69637315211905e+001°)
1.79911000000000e+009	(-7.38477934800772e+000dB,-3.74482566457328e+001°)
1.81910000000000e+009	(-7.37433992758435e+000dB,-3.79350474384533e+001°)
1.83909000000000e+009	(-7.36398448009782e+000dB,-3.84241110578077e+001°)
1.85908000000000e+009	(-7.35372073443562e+000dB,-3.89154536487040e+001°)
1.87907000000000e+009	(-7.34355649949028e+000dB,-3.94090803145894e+001°)
1.89906000000000e+009	(-7.33349966144849e+000dB,-3.99049950895846e+001°)
1.91905000000000e+009	(-7.32355818088102e+000dB,-4.04032009107153e+001°)
1.93904000000000e+009	(-7.31374008962840e+000dB,-4.09036995902907e+001°)
1.95903000000000e+009	(-7.30405348748208e+000dB,-4.14064917884853e+001°)
1.97902000000000e+009	(-7.29450653865597e+000dB,-4.19115769861796e+001°)
1.99901000000000e+009	(-7.28510746804783e+000dB,-4.24189534581184e+001°)
2.01900000000000e+009	(-7.27586455728827e+000dB,-4.29286182464520e+001°)
2.03899000000000e+009	(-7.26678614057428e+000dB,-4.34405671347196e+001°)
2.05898000000000e+009	(-7.25788060028884e+000dB,-4.39547946223468e+001°)
2.07897000000000e+009	(-7.24915636240282e+000dB,-4.44712938997225e+001°)
2.09896000000000e+009	(-7.24062189166149e+000dB,-4.49900568239278e+001°)
2.11895000000000e+009	(-7.23228568655377e+000dB,-4.55110738951896e+001°)
2.13894000000000e+009	(-7.22415627406661e+000dB,-4.60343342341341e+001°)
2.15893000000000e+009	(-7.21624220422472e+000dB,-4.65598255599164e+001°)
2.17892000000000e+009	(-7.20855204441807e+000dB,-4.70875341693031e+001°)
2.19891000000000e+009	(-7.20109437351951e+000dB,-4.76174449167888e+001°)
2.21890000000000e+009	(-7.19387777579641e+000dB,-4.81495411958251e+001°)
2.23889000000000e+009	(-7.18691083461862e+000dB,-4.86838049212423e+001°)
2.25888000000000e+009	(-7.18020212596990e+000dB,-4.92202165129496e+001°)
2.27887000000000e+009	(-7.17376021176566e+000dB,-4.97587548809856e+001°)
2.29886000000000e+009	(-7.16759363298437e+000dB,-5.02993974120108e+001°)
2.31885000000000e+009	(-7.16171090262034e+000dB,-5.08421199573167e+001°)
2.33884000000000e+009	(-7.15612049846337e+000dB,-5.13868968224322e+001°)
2.35883000000000e+009	(-7.15083085571601e+000dB,-5.19337007584076e+001°)
2.37882000000000e+009	(-7.14585035945662e+000dB,-5.24825029548508e+001°)
2.39881000000000e+009	(-7.14118733695811e+000dB,-5.30332730347957e+001°)
2.41880000000000e+009	(-7.13685004987390e+000dB,-5.35859790514688e+001°)
2.43879000000000e+009	(-7.13284668630304e+000dB,-5.41405874870325e+001°)
2.45878000000000e+009	(-7.12918535274575e+000dB,-5.46970632533659e+001°)
2.47877000000000e+009	(-7.12587406596395e+000dB,-5.52553696949495e+001°)
2.49876000000000e+009	(-7.12292074476031e+000dB,-5.58154685939162e+001°)
2.51875000000000e+009	(-7.12033320169089e+000dB,-5.63773201773192e+001°)
2.53874000000000e+009	(-7.11811913472590e+000dB,-5.69408831266735e+001°)
2.55873000000000e+009	(-7.11628611887632e+000dB,-5.75061145898121e+001°)
2.57872000000000e+009	(-7.11484159780201e+000dB,-5.80729701951036e+001°)
2.59871000000000e+009	(-7.11379287541887e+000dB,-5.86414040680583e+001°)
2.61870000000000e+009	(-7.11314710752337e+000dB,-5.92113688503610e+001°)
2.63869000000000e+009	(-7.11291129345288e+000dB,-5.97828157213440e+001°)
2.65868000000000e+009	(-7.11309226780007e+000dB,-6.03556944219237e+001°)
2.67867000000000e+009	(-7.11369669220137e+000dB,-6.09299532810023e+001°)
2.69866000000000e+009	(-7.11473104721839e+000dB,-6.15055392443426e+001°)
2.71865000000000e+009	(-7.11620162433312e+000dB,-6.20823979059042e+001°)
2.73864000000000e+009	(-7.11811451807508e+000dB,-6.26604735416330e+001°)
2.75863000000000e+009	(-7.12047561830221e+000dB,-6.32397091456726e+001°)
2.77862000000000e+009	(-7.12329060265489e+000dB,-6.38200464689813e+001°)
2.79861000000000e+009	(-7.12656492920268e+000dB,-6.44014260603020e+001°)
2.81860000000000e+009	(-7.13030382930395e+000dB,-6.49837873094525e+001°)
2.83859000000000e+009	(-7.13451230069825e+000dB,-6.55670684928687e+001°)
2.85858000000000e+009	(-7.13919510084970e+000dB,-6.61512068213518e+001°)
2.87857000000000e+009	(-7.14435674056136e+000dB,-6.67361384899350e+001°)
2.89856000000000e+009	(-7.15000147787775e+000dB,-6.73217987298030e+001°)
2.91855000000000e+009	(-7.15613331229405e+000dB,-6.79081218621703e+001°)
2.93854000000000e+009	(-7.16275597928890e+000dB,-6.84950413540284e+001°)
2.95853000000000e+009	(-7.16987294519600e+000dB,-6.90824898756587e+001°)
2.97852000000000e+009	(-7.17748740243180e+000dB,-6.96703993598044e+001°)
2.99851000000000e+009	(-7.18560226509147e+000dB,-7.02587010623856e+001°)
3.01850000000000e+009	(-7.19422016492874e+000dB,-7.08473256246363e+001°)
3.03849000000000e+009	(-7.20334344773087e+000dB,-7.14362031365393e+001°)
3.05848000000000e+009	(-7.21297417009982e+000dB,-7.20252632014212e+001°)
3.07847000000000e+009	(-7.22311409665066e+000dB,-7.26144350015764e+001°)
3.09846000000000e+009	(-7.23376469763517e+000dB,-7.32036473647770e+001°)
3.11845000000000e+009	(-7.24492714699900e+000dB,-7.37928288315198e+001°)
3.13844000000000e+009	(-7.25660232087739e+000dB,-7.43819077228678e+001°)
3.15843000000000e+009	(-7.26879079653614e+000dB,-7.49708122087327e+001°)
3.17842000000000e+009	(-7.28149285175921e+000dB,-7.55594703764428e+001°)
3.19841000000000e+009	(-7.29470846468654e+000dB,-7.61478102994512e+001°)
3.21840000000000e+009	(-7.30843731410243e+000dB,-7.67357601060170e+001°)
3.23839000000000e+009	(-7.32267878017295e+000dB,-7.73232480477177e+001°)
3.25838000000000e+009	(-7.33743194563103e+000dB,-7.79102025676287e+001°)
3.27837000000000e+009	(-7.35269559740513e+000dB,-7.84965523680251e+001°)
3.29836000000000e+009	(-7.36846822868720e+000dB,-7.90822264774481e+001°)
3.31835000000000e+009	(-7.38474804143179e+000dB,-7.96671543169936e+001°)
3.33834000000000e+009	(-7.40153294928103e+000dB,-8.02512657656762e+001°)
3.35833000000000e+009	(-7.41882058090462e+000dB,-8.08344912247252e+001°)
3.37832000000000e+009	(-7.43660828374544e+000dB,-8.14167616806799e+001°)
3.39831000000000e+009	(-7.45489312815918e+000dB,-8.19980087671486e+001°)
3.41830000000000e+009	(-7.47367191193525e+000dB,-8.25781648251063e+001°)
3.43829000000000e+009	(-7.49294116518589e+000dB,-8.31571629616133e+001°)
3.45828000000000e+009	(-7.51269715558826e+000dB,-8.37349371068319e+001°)
3.47827000000000e+009	(-7.53293589396439e+000dB,-8.43114220692422e+001°)
3.49826000000000e+009	(-7.55365314018263e+000dB,-8.48865535889535e+001°)
3.51825000000000e+009	(-7.57484440936293e+000dB,-8.54602683890142e+001°)
3.53824000000000e+009	(-7.59650497836898e+000dB,-8.60325042246386e+001°)
3.55823000000000e+009	(-7.61862989256832e+000dB,-8.66031999302681e+001°)
3.57822000000000e+009	(-7.64121397284152e+000dB,-8.71722954644040e+001°)
3.59821000000000e+009	(-7.66425182282115e+000dB,-8.77397319521393e+001°)
3.61820000000000e+009	(-7.68773783634065e+000dB,-8.83054517253451e+001°)
3.63819000000000e+009	(-7.71166620507428e+000dB,-8.88693983604569e+001°)
3.65818000000000e+009	(-7.73603092634622e+000dB,-8.94315167138327e+001°)
3.67817000000000e+009	(-7.76082581109020e+000dB,-8.99917529546436e+001°)
3.69816000000000e+009	(-7.78604449193903e+000dB,-9.05500545952830e+001°)
3.71815000000000e+009	(-7.81168043142370e+000dB,-9.11063705192773e+001°)
3.73814000000000e+009	(-7.83772693026252e+000dB,-9.16606510066882e+001°)
3.75813000000000e+009	(-7.86417713572032e+000dB,-9.22128477570208e+001°)
3.77812000000000e+009	(-7.89102405001885e+000dB,-9.27629139096290e+001°)
3.79811000000000e+009	(-7.91826053877843e+000dB,-9.33108040616498e+001°)
3.81810000000000e+009	(-7.94587933947371e+000dB,-9.38564742834806e+001°)
3.83809000000000e+009	(-7.97387306988347e+000dB,-9.43998821318307e+001°)
3.85808000000000e+009	(-8.00223423651929e+000dB,-9.49409866603821e+001°)
3.87807000000000e+009	(-8.03095524301413e+000dB,-9.54797484281028e+001°)
3.89806000000000e+009	(-8.06002839845520e+000dB,-9.60161295052586e+001°)
3.91805000000000e+009	(-8.08944592564634e+000dB,-9.65500934771718e+001°)
3.93804000000000e+009	(-8.11919996928303e+000dB,-9.70816054457856e+001°)
3.95803000000000e+009	(-8.14928260402784e+000dB,-9.76106320290996e+001°)
3.97802000000000e+009	(-8.17968584247159e+000dB,-9.81371413585316e+001°)
3.99801000000000e+009	(-8.21040164296760e+000dB,-9.86611030742820e+001°)
4.01800000000000e+009	(-8.24142191732805e+000dB,-9.91824883187676e+001°)
4.03799000000000e+009	(-8.27273853837019e+000dB,-9.97012697282023e+001°)
4.05798000000000e+009	(-8.30434334730285e+000dB,-1.00217421422398e+002°)
4.07797000000000e+009	(-8.33622816094350e+000dB,-1.00730918992865e+002°)
4.09796000000000e+009	(-8.36838477875759e+000dB,-1.01241739489299e+002°)
4.11795000000000e+009	(-8.40080498971114e+000dB,-1.01749861404518e+002°)
4.13794000000000e+009	(-8.43348057893153e+000dB,-1.02255264657962e+002°)
4.15793000000000e+009	(-8.46640333416832e+000dB,-1.02757930577802e+002°)
4.17792000000000e+009	(-8.49956505204940e+000dB,-1.03257841881772e+002°)
4.19791000000000e+009	(-8.53295754412750e+000dB,-1.03754982656796e+002°)
4.21790000000000e+009	(-8.56657264271422e+000dB,-1.04249338337489e+002°)
4.23789000000000e+009	(-8.60040220649587e+000dB,-1.04740895683621e+002°)
4.25788000000000e+009	(-8.63443812593104e+000dB,-1.05229642756625e+002°)
4.27787000000000e+009	(-8.66867232842659e+000dB,-1.05715568895234e+002°)
4.29786000000000e+009	(-8.70309678329093e+000dB,-1.06198664690314e+002°)
4.31785000000000e+009	(-8.73770350646442e+000dB,-1.06678921958988e+002°)
4.33784000000000e+009	(-8.77248456502663e+000dB,-1.07156333718118e+002°)
4.35783000000000e+009	(-8.80743208148007e+000dB,-1.07630894157220e+002°)
4.37782000000000e+009	(-8.84253823781389e+000dB,-1.08102598610891e+002°)
4.39781000000000e+009	(-8.87779527934572e+000dB,-1.08571443530815e+002°)
4.41780000000000e+009	(-8.91319551834658e+000dB,-1.09037426457419e+002°)
4.43779000000000e+009	(-8.94873133745011e+000dB,-1.09500545991243e+002°)
4.45778000000000e+009	(-8.98439519284829e+000dB,-1.09960801764095e+002°)
4.47777000000000e+009	(-9.02017961727894e+000dB,-1.10418194410041e+002°)
4.49776000000000e+009	(-9.05607722280694e+000dB,-1.10872725536304e+002°)
4.51775000000000e+009	(-9.09208070340337e+000dB,-1.11324397694126e+002°)
4.53774000000000e+009	(-9.12818283732776e+000dB,-1.11773214349627e+002°)
4.55773000000000e+009	(-9.16437648931747e+000dB,-1.12219179854747e+002°)
4.57772000000000e+009	(-9.20065461258827e+000dB,-1.12662299418298e+002°)
4.59771000000000e+009	(-9.23701025065283e+000dB,-1.13102579077168e+002°)
4.61770000000000e+009	(-9.27343653896069e+000dB,-1.13540025667737e+002°)
4.63769000000000e+009	(-9.30992670636623e+000dB,-1.13974646797544e+002°)
4.65768000000000e+009	(-9.34647407642925e+000dB,-1.14406450817221e+002°)
4.67767000000000e+009	(-9.38307206855534e+000dB,-1.14835446792768e+002°)
4.69766000000000e+009	(-9.41971419897956e+000dB,-1.15261644478163e+002°)
4.71765000000000e+009	(-9.45639408160157e+000dB,-1.15685054288367e+002°)
4.73764000000000e+009	(-9.49310542867633e+000dB,-1.16105687272729e+002°)
4.75763000000000e+009	(-9.52984205136771e+000dB,-1.16523555088846e+002°)
4.77762000000000e+009	(-9.56659786016981e+000dB,-1.16938669976864e+002°)
4.79761000000000e+009	(-9.60336686520250e+000dB,-1.17351044734272e+002°)
4.81760000000000e+009	(-9.64014317638686e+000dB,-1.17760692691190e+002°)
4.83759000000000e+009	(-9.67692100350749e+000dB,-1.18167627686177e+002°)
4.85758000000000e+009	(-9.71369465616497e+000dB,-1.18571864042562e+002°)
4.87757000000000e+009	(-9.75045854362760e+000dB,-1.18973416545324e+002°)
4.89756000000000e+009	(-9.78720717458512e+000dB,-1.19372300418522e+002°)
4.91755000000000e+009	(-9.82393515681163e+000dB,-1.19768531303278e+002°)
4.93754000000000e+009	(-9.86063719674304e+000dB,-1.20162125236331e+002°)
4.95753000000000e+009	(-9.89730809897371e+000dB,-1.20553098629164e+002°)
4.97752000000000e+009	(-9.93394276567834e+000dB,-1.20941468247699e+002°)
4.99751000000000e+009	(-9.97053619596353e+000dB,-1.21327251192568e+002°)
5.01750000000000e+009	(-1.00070834851543e+001dB,-1.21710464879957e+002°)
5.03749000000000e+009	(-1.00435798240202e+001dB,-1.22091127023021e+002°)
5.05748000000000e+009	(-1.00800204979461e+001dB,-1.22469255613870e+002°)
5.07747000000000e+009	(-1.01164008860513e+001dB,-1.22844868906124e+002°)
5.09746000000000e+009	(-1.01527164602614e+001dB,-1.23217985398015e+002°)
5.11745000000000e+009	(-1.01889627843381e+001dB,-1.23588623816057e+002°)
5.13744000000000e+009	(-1.02251355128699e+001dB,-1.23956803099251e+002°)
5.15743000000000e+009	(-1.02612303902268e+001dB,-1.24322542383834e+002°)
5.17742000000000e+009	(-1.02972432494849e+001dB,-1.24685860988558e+002°)
5.19741000000000e+009	(-1.03331700113209e+001dB,-1.25046778400477e+002°)
5.21740000000000e+009	(-1.03690066828840e+001dB,-1.25405314261265e+002°)
5.23739000000000e+009	(-1.04047493566438e+001dB,-1.25761488354009e+002°)
5.25738000000000e+009	(-1.04403942092206e+001dB,-1.26115320590509e+002°)
5.27737000000000e+009	(-1.04759375001986e+001dB,-1.26466830999045e+002°)
5.29736000000000e+009	(-1.05113755709260e+001dB,-1.26816039712613e+002°)
5.31735000000000e+009	(-1.05467048433032e+001dB,-1.27162966957610e+002°)
5.33734000000000e+009	(-1.05819218185621e+001dB,-1.27507633042964e+002°)
5.35733000000000e+009	(-1.06170230760385e+001dB,-1.27850058349695e+002°)
5.37732000000000e+009	(-1.06520052719394e+001dB,-1.28190263320891e+002°)
5.39731000000000e+009	(-1.06868651381063e+001dB,-1.28528268452087e+002°)
5.41730000000000e+009	(-1.07215994807781e+001dB,-1.28864094282037e+002°)
5.43729000000000e+009	(-1.07562051793524e+001dB,-1.29197761383879e+002°)
5.45728000000000e+009	(-1.07906791851492e+001dB,-1.29529290356647e+002°)
