Freq.	mag(V(d_3p))
Step Information: C_d=100f  (Run: 1/10)
2.00000000000000e+007	(-1.06975736659710e+001dB,0.00000000000000e+000°)
3.99900000000000e+007	(-1.06989762269131e+001dB,0.00000000000000e+000°)
5.99800000000000e+007	(-1.06988478748768e+001dB,0.00000000000000e+000°)
7.99700000000000e+007	(-1.06986663685661e+001dB,0.00000000000000e+000°)
9.99600000000000e+007	(-1.06989732151162e+001dB,0.00000000000000e+000°)
1.19950000000000e+008	(-1.06998974344599e+001dB,0.00000000000000e+000°)
1.39940000000000e+008	(-1.07013515983855e+001dB,0.00000000000000e+000°)
1.59930000000000e+008	(-1.07031533843887e+001dB,0.00000000000000e+000°)
1.79920000000000e+008	(-1.07051036408194e+001dB,0.00000000000000e+000°)
1.99910000000000e+008	(-1.07070313777504e+001dB,0.00000000000000e+000°)
2.19900000000000e+008	(-1.07088144174870e+001dB,0.00000000000000e+000°)
2.39890000000000e+008	(-1.07103831810587e+001dB,0.00000000000000e+000°)
2.59880000000000e+008	(-1.07117139855956e+001dB,0.00000000000000e+000°)
2.79870000000000e+008	(-1.07128172300936e+001dB,0.00000000000000e+000°)
2.99860000000000e+008	(-1.07137245961926e+001dB,0.00000000000000e+000°)
3.19850000000000e+008	(-1.07144778966910e+001dB,0.00000000000000e+000°)
3.39840000000000e+008	(-1.07151207780837e+001dB,0.00000000000000e+000°)
3.59830000000000e+008	(-1.07156934151142e+001dB,0.00000000000000e+000°)
3.79820000000000e+008	(-1.07162297251290e+001dB,0.00000000000000e+000°)
3.99810000000000e+008	(-1.07167564079552e+001dB,0.00000000000000e+000°)
4.19800000000000e+008	(-1.07172931414217e+001dB,0.00000000000000e+000°)
4.39790000000000e+008	(-1.07178534007475e+001dB,0.00000000000000e+000°)
4.59780000000000e+008	(-1.07184455324376e+001dB,0.00000000000000e+000°)
4.79770000000000e+008	(-1.07190738545161e+001dB,0.00000000000000e+000°)
4.99760000000000e+008	(-1.07197396597412e+001dB,0.00000000000000e+000°)
5.19750000000000e+008	(-1.07204420680170e+001dB,0.00000000000000e+000°)
5.39740000000000e+008	(-1.07211787160132e+001dB,0.00000000000000e+000°)
5.59730000000000e+008	(-1.07219462944138e+001dB,0.00000000000000e+000°)
5.79720000000000e+008	(-1.07227409532899e+001dB,0.00000000000000e+000°)
5.99710000000000e+008	(-1.07235585989374e+001dB,0.00000000000000e+000°)
6.19700000000000e+008	(-1.07243951045401e+001dB,0.00000000000000e+000°)
6.39690000000000e+008	(-1.07252464542795e+001dB,0.00000000000000e+000°)
6.59680000000000e+008	(-1.07261088372321e+001dB,0.00000000000000e+000°)
6.79670000000000e+008	(-1.07269787041751e+001dB,0.00000000000000e+000°)
6.99660000000000e+008	(-1.07278527975676e+001dB,0.00000000000000e+000°)
7.19650000000000e+008	(-1.07287281625811e+001dB,0.00000000000000e+000°)
7.39640000000000e+008	(-1.07296021451103e+001dB,0.00000000000000e+000°)
7.59630000000000e+008	(-1.07304723811669e+001dB,0.00000000000000e+000°)
7.79620000000000e+008	(-1.07313367808746e+001dB,0.00000000000000e+000°)
7.99610000000000e+008	(-1.07321935093800e+001dB,0.00000000000000e+000°)
8.19600000000000e+008	(-1.07330409663162e+001dB,0.00000000000000e+000°)
8.39590000000000e+008	(-1.07338777649475e+001dB,0.00000000000000e+000°)
8.59580000000000e+008	(-1.07347027117541e+001dB,0.00000000000000e+000°)
8.79570000000000e+008	(-1.07355147869426e+001dB,0.00000000000000e+000°)
8.99560000000000e+008	(-1.07363131261751e+001dB,0.00000000000000e+000°)
9.19550000000000e+008	(-1.07370970036701e+001dB,0.00000000000000e+000°)
9.39540000000000e+008	(-1.07378658167332e+001dB,0.00000000000000e+000°)
9.59530000000000e+008	(-1.07386190717119e+001dB,0.00000000000000e+000°)
9.79520000000000e+008	(-1.07393563713234e+001dB,0.00000000000000e+000°)
9.99510000000000e+008	(-1.07400774032811e+001dB,0.00000000000000e+000°)
1.01950000000000e+009	(-1.07407819301269e+001dB,0.00000000000000e+000°)
1.03949000000000e+009	(-1.07414697801729e+001dB,0.00000000000000e+000°)
1.05948000000000e+009	(-1.07421408394530e+001dB,0.00000000000000e+000°)
1.07947000000000e+009	(-1.07427950445861e+001dB,0.00000000000000e+000°)
1.09946000000000e+009	(-1.07434323764598e+001dB,0.00000000000000e+000°)
1.11945000000000e+009	(-1.07440528546466e+001dB,0.00000000000000e+000°)
1.13944000000000e+009	(-1.07446565324741e+001dB,0.00000000000000e+000°)
1.15943000000000e+009	(-1.07452434926745e+001dB,0.00000000000000e+000°)
1.17942000000000e+009	(-1.07458138435487e+001dB,0.00000000000000e+000°)
1.19941000000000e+009	(-1.07463677155848e+001dB,0.00000000000000e+000°)
1.21940000000000e+009	(-1.07469052584776e+001dB,0.00000000000000e+000°)
1.23939000000000e+009	(-1.07474266385025e+001dB,0.00000000000000e+000°)
1.25938000000000e+009	(-1.07479320362007e+001dB,0.00000000000000e+000°)
1.27937000000000e+009	(-1.07484216443388e+001dB,0.00000000000000e+000°)
1.29936000000000e+009	(-1.07488956661104e+001dB,0.00000000000000e+000°)
1.31935000000000e+009	(-1.07493543135498e+001dB,0.00000000000000e+000°)
1.33934000000000e+009	(-1.07497978061327e+001dB,0.00000000000000e+000°)
1.35933000000000e+009	(-1.07502263695417e+001dB,0.00000000000000e+000°)
1.37932000000000e+009	(-1.07506402345767e+001dB,0.00000000000000e+000°)
1.39931000000000e+009	(-1.07510396361927e+001dB,0.00000000000000e+000°)
1.41930000000000e+009	(-1.07514248126498e+001dB,0.00000000000000e+000°)
1.43929000000000e+009	(-1.07517960047631e+001dB,0.00000000000000e+000°)
1.45928000000000e+009	(-1.07521534552393e+001dB,0.00000000000000e+000°)
1.47927000000000e+009	(-1.07524974080914e+001dB,0.00000000000000e+000°)
1.49926000000000e+009	(-1.07528281081211e+001dB,0.00000000000000e+000°)
1.51925000000000e+009	(-1.07531458004619e+001dB,0.00000000000000e+000°)
1.53924000000000e+009	(-1.07534507301766e+001dB,0.00000000000000e+000°)
1.55923000000000e+009	(-1.07537431419009e+001dB,0.00000000000000e+000°)
1.57922000000000e+009	(-1.07540232795310e+001dB,0.00000000000000e+000°)
1.59921000000000e+009	(-1.07542913859477e+001dB,0.00000000000000e+000°)
1.61920000000000e+009	(-1.07545477027742e+001dB,0.00000000000000e+000°)
1.63919000000000e+009	(-1.07547924701644e+001dB,0.00000000000000e+000°)
1.65918000000000e+009	(-1.07550259266170e+001dB,0.00000000000000e+000°)
1.67917000000000e+009	(-1.07552483088143e+001dB,0.00000000000000e+000°)
1.69916000000000e+009	(-1.07554598514819e+001dB,0.00000000000000e+000°)
1.71915000000000e+009	(-1.07556607872678e+001dB,0.00000000000000e+000°)
1.73914000000000e+009	(-1.07558513466387e+001dB,0.00000000000000e+000°)
1.75913000000000e+009	(-1.07560317577912e+001dB,0.00000000000000e+000°)
1.77912000000000e+009	(-1.07562022465781e+001dB,0.00000000000000e+000°)
1.79911000000000e+009	(-1.07563630364460e+001dB,0.00000000000000e+000°)
1.81910000000000e+009	(-1.07565143483850e+001dB,0.00000000000000e+000°)
1.83909000000000e+009	(-1.07566564008877e+001dB,0.00000000000000e+000°)
1.85908000000000e+009	(-1.07567894099183e+001dB,0.00000000000000e+000°)
1.87907000000000e+009	(-1.07569135888898e+001dB,0.00000000000000e+000°)
1.89906000000000e+009	(-1.07570291486476e+001dB,0.00000000000000e+000°)
1.91905000000000e+009	(-1.07571362974615e+001dB,0.00000000000000e+000°)
1.93904000000000e+009	(-1.07572352410221e+001dB,0.00000000000000e+000°)
1.95903000000000e+009	(-1.07573261824442e+001dB,0.00000000000000e+000°)
1.97902000000000e+009	(-1.07574093222739e+001dB,0.00000000000000e+000°)
1.99901000000000e+009	(-1.07574848585006e+001dB,0.00000000000000e+000°)
2.01900000000000e+009	(-1.07575529865736e+001dB,0.00000000000000e+000°)
2.03899000000000e+009	(-1.07576138994210e+001dB,0.00000000000000e+000°)
2.05898000000000e+009	(-1.07576677874730e+001dB,0.00000000000000e+000°)
2.07897000000000e+009	(-1.07577148386871e+001dB,0.00000000000000e+000°)
2.09896000000000e+009	(-1.07577552385767e+001dB,0.00000000000000e+000°)
2.11895000000000e+009	(-1.07577891702415e+001dB,0.00000000000000e+000°)
2.13894000000000e+009	(-1.07578168143998e+001dB,0.00000000000000e+000°)
2.15893000000000e+009	(-1.07578383494228e+001dB,0.00000000000000e+000°)
2.17892000000000e+009	(-1.07578539513703e+001dB,0.00000000000000e+000°)
2.19891000000000e+009	(-1.07578637940277e+001dB,0.00000000000000e+000°)
2.21890000000000e+009	(-1.07578680489443e+001dB,0.00000000000000e+000°)
2.23889000000000e+009	(-1.07578668854720e+001dB,0.00000000000000e+000°)
2.25888000000000e+009	(-1.07578604708058e+001dB,0.00000000000000e+000°)
2.27887000000000e+009	(-1.07578489700238e+001dB,0.00000000000000e+000°)
2.29886000000000e+009	(-1.07578325461280e+001dB,0.00000000000000e+000°)
2.31885000000000e+009	(-1.07578113600862e+001dB,0.00000000000000e+000°)
2.33884000000000e+009	(-1.07577855708728e+001dB,0.00000000000000e+000°)
2.35883000000000e+009	(-1.07577553355109e+001dB,0.00000000000000e+000°)
2.37882000000000e+009	(-1.07577208091133e+001dB,0.00000000000000e+000°)
2.39881000000000e+009	(-1.07576821449246e+001dB,0.00000000000000e+000°)
2.41880000000000e+009	(-1.07576394943615e+001dB,0.00000000000000e+000°)
2.43879000000000e+009	(-1.07575930070543e+001dB,0.00000000000000e+000°)
2.45878000000000e+009	(-1.07575428308868e+001dB,0.00000000000000e+000°)
2.47877000000000e+009	(-1.07574891120367e+001dB,0.00000000000000e+000°)
2.49876000000000e+009	(-1.07574319950140e+001dB,0.00000000000000e+000°)
2.51875000000000e+009	(-1.07573716227005e+001dB,0.00000000000000e+000°)
2.53874000000000e+009	(-1.07573081363868e+001dB,0.00000000000000e+000°)
2.55873000000000e+009	(-1.07572416758096e+001dB,0.00000000000000e+000°)
2.57872000000000e+009	(-1.07571723791874e+001dB,0.00000000000000e+000°)
2.59871000000000e+009	(-1.07571003832558e+001dB,0.00000000000000e+000°)
2.61870000000000e+009	(-1.07570258233009e+001dB,0.00000000000000e+000°)
2.63869000000000e+009	(-1.07569488331921e+001dB,0.00000000000000e+000°)
2.65868000000000e+009	(-1.07568695454136e+001dB,0.00000000000000e+000°)
2.67867000000000e+009	(-1.07567880910943e+001dB,0.00000000000000e+000°)
2.69866000000000e+009	(-1.07567046000363e+001dB,0.00000000000000e+000°)
2.71865000000000e+009	(-1.07566192007423e+001dB,0.00000000000000e+000°)
2.73864000000000e+009	(-1.07565320204410e+001dB,0.00000000000000e+000°)
2.75863000000000e+009	(-1.07564431851104e+001dB,0.00000000000000e+000°)
2.77862000000000e+009	(-1.07563528195006e+001dB,0.00000000000000e+000°)
2.79861000000000e+009	(-1.07562610471534e+001dB,0.00000000000000e+000°)
2.81860000000000e+009	(-1.07561679904207e+001dB,0.00000000000000e+000°)
2.83859000000000e+009	(-1.07560737704806e+001dB,0.00000000000000e+000°)
2.85858000000000e+009	(-1.07559785073514e+001dB,0.00000000000000e+000°)
2.87857000000000e+009	(-1.07558823199029e+001dB,0.00000000000000e+000°)
2.89856000000000e+009	(-1.07557853258662e+001dB,0.00000000000000e+000°)
2.91855000000000e+009	(-1.07556876418400e+001dB,0.00000000000000e+000°)
2.93854000000000e+009	(-1.07555893832952e+001dB,0.00000000000000e+000°)
2.95853000000000e+009	(-1.07554906645756e+001dB,0.00000000000000e+000°)
2.97852000000000e+009	(-1.07553915988972e+001dB,0.00000000000000e+000°)
2.99851000000000e+009	(-1.07552922983433e+001dB,0.00000000000000e+000°)
3.01850000000000e+009	(-1.07551928738568e+001dB,0.00000000000000e+000°)
3.03849000000000e+009	(-1.07550934352297e+001dB,0.00000000000000e+000°)
3.05848000000000e+009	(-1.07549940910881e+001dB,0.00000000000000e+000°)
3.07847000000000e+009	(-1.07548949488752e+001dB,0.00000000000000e+000°)
3.09846000000000e+009	(-1.07547961148288e+001dB,0.00000000000000e+000°)
3.11845000000000e+009	(-1.07546976939569e+001dB,0.00000000000000e+000°)
3.13844000000000e+009	(-1.07545997900070e+001dB,0.00000000000000e+000°)
3.15843000000000e+009	(-1.07545025054339e+001dB,0.00000000000000e+000°)
3.17842000000000e+009	(-1.07544059413606e+001dB,0.00000000000000e+000°)
3.19841000000000e+009	(-1.07543101975365e+001dB,0.00000000000000e+000°)
3.21840000000000e+009	(-1.07542153722908e+001dB,0.00000000000000e+000°)
3.23839000000000e+009	(-1.07541215624800e+001dB,0.00000000000000e+000°)
3.25838000000000e+009	(-1.07540288634319e+001dB,0.00000000000000e+000°)
3.27837000000000e+009	(-1.07539373688843e+001dB,0.00000000000000e+000°)
3.29836000000000e+009	(-1.07538471709177e+001dB,0.00000000000000e+000°)
3.31835000000000e+009	(-1.07537583598840e+001dB,0.00000000000000e+000°)
3.33834000000000e+009	(-1.07536710243291e+001dB,0.00000000000000e+000°)
3.35833000000000e+009	(-1.07535852509104e+001dB,0.00000000000000e+000°)
3.37832000000000e+009	(-1.07535011243090e+001dB,0.00000000000000e+000°)
3.39831000000000e+009	(-1.07534187271363e+001dB,0.00000000000000e+000°)
3.41830000000000e+009	(-1.07533381398351e+001dB,0.00000000000000e+000°)
3.43829000000000e+009	(-1.07532594405752e+001dB,0.00000000000000e+000°)
3.45828000000000e+009	(-1.07531827051442e+001dB,0.00000000000000e+000°)
3.47827000000000e+009	(-1.07531080068326e+001dB,0.00000000000000e+000°)
3.49826000000000e+009	(-1.07530354163137e+001dB,0.00000000000000e+000°)
3.51825000000000e+009	(-1.07529650015191e+001dB,0.00000000000000e+000°)
3.53824000000000e+009	(-1.07528968275094e+001dB,0.00000000000000e+000°)
3.55823000000000e+009	(-1.07528309563402e+001dB,0.00000000000000e+000°)
3.57822000000000e+009	(-1.07527674469247e+001dB,0.00000000000000e+000°)
3.59821000000000e+009	(-1.07527063548932e+001dB,0.00000000000000e+000°)
3.61820000000000e+009	(-1.07526477324482e+001dB,0.00000000000000e+000°)
3.63819000000000e+009	(-1.07525916282190e+001dB,0.00000000000000e+000°)
3.65818000000000e+009	(-1.07525380871137e+001dB,0.00000000000000e+000°)
3.67817000000000e+009	(-1.07524871501702e+001dB,0.00000000000000e+000°)
3.69816000000000e+009	(-1.07524388544083e+001dB,0.00000000000000e+000°)
3.71815000000000e+009	(-1.07523932326816e+001dB,0.00000000000000e+000°)
3.73814000000000e+009	(-1.07523503135327e+001dB,0.00000000000000e+000°)
3.75813000000000e+009	(-1.07523101210512e+001dB,0.00000000000000e+000°)
3.77812000000000e+009	(-1.07522726747362e+001dB,0.00000000000000e+000°)
3.79811000000000e+009	(-1.07522379893657e+001dB,0.00000000000000e+000°)
3.81810000000000e+009	(-1.07522060748729e+001dB,0.00000000000000e+000°)
3.83809000000000e+009	(-1.07521769362321e+001dB,0.00000000000000e+000°)
3.85808000000000e+009	(-1.07521505733554e+001dB,0.00000000000000e+000°)
3.87807000000000e+009	(-1.07521269810025e+001dB,0.00000000000000e+000°)
3.89806000000000e+009	(-1.07521061487050e+001dB,0.00000000000000e+000°)
3.91805000000000e+009	(-1.07520880607076e+001dB,0.00000000000000e+000°)
3.93804000000000e+009	(-1.07520726959278e+001dB,0.00000000000000e+000°)
3.95803000000000e+009	(-1.07520600279365e+001dB,0.00000000000000e+000°)
3.97802000000000e+009	(-1.07520500249615e+001dB,0.00000000000000e+000°)
3.99801000000000e+009	(-1.07520426499162e+001dB,0.00000000000000e+000°)
4.01800000000000e+009	(-1.07520378604548e+001dB,0.00000000000000e+000°)
4.03799000000000e+009	(-1.07520356090571e+001dB,0.00000000000000e+000°)
4.05798000000000e+009	(-1.07520358431442e+001dB,0.00000000000000e+000°)
4.07797000000000e+009	(-1.07520385052263e+001dB,0.00000000000000e+000°)
4.09796000000000e+009	(-1.07520435330857e+001dB,0.00000000000000e+000°)
4.11795000000000e+009	(-1.07520508599951e+001dB,0.00000000000000e+000°)
4.13794000000000e+009	(-1.07520604149729e+001dB,0.00000000000000e+000°)
4.15793000000000e+009	(-1.07520721230772e+001dB,0.00000000000000e+000°)
4.17792000000000e+009	(-1.07520859057366e+001dB,0.00000000000000e+000°)
4.19791000000000e+009	(-1.07521016811215e+001dB,0.00000000000000e+000°)
4.21790000000000e+009	(-1.07521193645533e+001dB,0.00000000000000e+000°)
4.23789000000000e+009	(-1.07521388689512e+001dB,0.00000000000000e+000°)
4.25788000000000e+009	(-1.07521601053167e+001dB,0.00000000000000e+000°)
4.27787000000000e+009	(-1.07521829832536e+001dB,0.00000000000000e+000°)
4.29786000000000e+009	(-1.07522074115208e+001dB,0.00000000000000e+000°)
4.31785000000000e+009	(-1.07522332986166e+001dB,0.00000000000000e+000°)
4.33784000000000e+009	(-1.07522605533911e+001dB,0.00000000000000e+000°)
4.35783000000000e+009	(-1.07522890856827e+001dB,0.00000000000000e+000°)
4.37782000000000e+009	(-1.07523188069748e+001dB,0.00000000000000e+000°)
4.39781000000000e+009	(-1.07523496310692e+001dB,0.00000000000000e+000°)
4.41780000000000e+009	(-1.07523814747694e+001dB,0.00000000000000e+000°)
4.43779000000000e+009	(-1.07524142585703e+001dB,0.00000000000000e+000°)
4.45778000000000e+009	(-1.07524479073476e+001dB,0.00000000000000e+000°)
4.47777000000000e+009	(-1.07524823510410e+001dB,0.00000000000000e+000°)
4.49776000000000e+009	(-1.07525175253263e+001dB,0.00000000000000e+000°)
4.51775000000000e+009	(-1.07525533722675e+001dB,0.00000000000000e+000°)
4.53774000000000e+009	(-1.07525898409464e+001dB,0.00000000000000e+000°)
4.55773000000000e+009	(-1.07526268880601e+001dB,0.00000000000000e+000°)
4.57772000000000e+009	(-1.07526644784822e+001dB,0.00000000000000e+000°)
4.59771000000000e+009	(-1.07527025857816e+001dB,0.00000000000000e+000°)
4.61770000000000e+009	(-1.07527411926938e+001dB,0.00000000000000e+000°)
4.63769000000000e+009	(-1.07527802915388e+001dB,0.00000000000000e+000°)
4.65768000000000e+009	(-1.07528198845820e+001dB,0.00000000000000e+000°)
4.67767000000000e+009	(-1.07528599843348e+001dB,0.00000000000000e+000°)
4.69766000000000e+009	(-1.07529006137905e+001dB,0.00000000000000e+000°)
4.71765000000000e+009	(-1.07529418065933e+001dB,0.00000000000000e+000°)
4.73764000000000e+009	(-1.07529836071401e+001dB,0.00000000000000e+000°)
4.75763000000000e+009	(-1.07530260706132e+001dB,0.00000000000000e+000°)
4.77762000000000e+009	(-1.07530692629434e+001dB,0.00000000000000e+000°)
4.79761000000000e+009	(-1.07531132607055e+001dB,0.00000000000000e+000°)
4.81760000000000e+009	(-1.07531581509468e+001dB,0.00000000000000e+000°)
4.83759000000000e+009	(-1.07532040309519e+001dB,0.00000000000000e+000°)
4.85758000000000e+009	(-1.07532510079452e+001dB,0.00000000000000e+000°)
4.87757000000000e+009	(-1.07532991987372e+001dB,0.00000000000000e+000°)
4.89756000000000e+009	(-1.07533487293163e+001dB,0.00000000000000e+000°)
4.91755000000000e+009	(-1.07533997343921e+001dB,0.00000000000000e+000°)
4.93754000000000e+009	(-1.07534523568961e+001dB,0.00000000000000e+000°)
4.95753000000000e+009	(-1.07535067474438e+001dB,0.00000000000000e+000°)
4.97752000000000e+009	(-1.07535630637646e+001dB,0.00000000000000e+000°)
4.99751000000000e+009	(-1.07536214701060e+001dB,0.00000000000000e+000°)
5.01750000000000e+009	(-1.07536821366164e+001dB,0.00000000000000e+000°)
5.03749000000000e+009	(-1.07537452387143e+001dB,0.00000000000000e+000°)
5.05748000000000e+009	(-1.07538109564489e+001dB,0.00000000000000e+000°)
5.07747000000000e+009	(-1.07538794738568e+001dB,0.00000000000000e+000°)
5.09746000000000e+009	(-1.07539509783213e+001dB,0.00000000000000e+000°)
5.11745000000000e+009	(-1.07540256599394e+001dB,0.00000000000000e+000°)
5.13744000000000e+009	(-1.07541037109000e+001dB,0.00000000000000e+000°)
5.15743000000000e+009	(-1.07541853248790e+001dB,0.00000000000000e+000°)
5.17742000000000e+009	(-1.07542706964539e+001dB,0.00000000000000e+000°)
5.19741000000000e+009	(-1.07543600205417e+001dB,0.00000000000000e+000°)
5.21740000000000e+009	(-1.07544534918643e+001dB,0.00000000000000e+000°)
5.23739000000000e+009	(-1.07545513044404e+001dB,0.00000000000000e+000°)
5.25738000000000e+009	(-1.07546536511105e+001dB,0.00000000000000e+000°)
5.27737000000000e+009	(-1.07547607230925e+001dB,0.00000000000000e+000°)
5.29736000000000e+009	(-1.07548727095717e+001dB,0.00000000000000e+000°)
5.31735000000000e+009	(-1.07549897973242e+001dB,0.00000000000000e+000°)
5.33734000000000e+009	(-1.07551121703747e+001dB,0.00000000000000e+000°)
5.35733000000000e+009	(-1.07552400096894e+001dB,0.00000000000000e+000°)
5.37732000000000e+009	(-1.07553734929019e+001dB,0.00000000000000e+000°)
5.39731000000000e+009	(-1.07555127940727e+001dB,0.00000000000000e+000°)
5.41730000000000e+009	(-1.07556580834819e+001dB,0.00000000000000e+000°)
5.43729000000000e+009	(-1.07558095274518e+001dB,0.00000000000000e+000°)
5.45728000000000e+009	(-1.07559672882008e+001dB,0.00000000000000e+000°)
5.47727000000000e+009	(-1.07561315237252e+001dB,0.00000000000000e+000°)
5.49726000000000e+009	(-1.07563023877085e+001dB,0.00000000000000e+000°)
5.51725000000000e+009	(-1.07564800294555e+001dB,0.00000000000000e+000°)
