Freq.	mag(V(d_3p))
Step Information: C_d=100f  (Run: 1/10)
2.00000000000000e+007	(-7.95653998506537e+000dB,0.00000000000000e+000°)
3.99900000000000e+007	(-7.96586943709727e+000dB,0.00000000000000e+000°)
5.99800000000000e+007	(-7.97036431725950e+000dB,0.00000000000000e+000°)
7.99700000000000e+007	(-7.97319452590035e+000dB,0.00000000000000e+000°)
9.99600000000000e+007	(-7.97553576596311e+000dB,0.00000000000000e+000°)
1.19950000000000e+008	(-7.97777708413959e+000dB,0.00000000000000e+000°)
1.39940000000000e+008	(-7.98004807881325e+000dB,0.00000000000000e+000°)
1.59930000000000e+008	(-7.98238304256925e+000dB,0.00000000000000e+000°)
1.79920000000000e+008	(-7.98477790718877e+000dB,0.00000000000000e+000°)
1.99910000000000e+008	(-7.98721292542030e+000dB,0.00000000000000e+000°)
2.19900000000000e+008	(-7.98966283117791e+000dB,0.00000000000000e+000°)
2.39890000000000e+008	(-7.99210176823957e+000dB,0.00000000000000e+000°)
2.59880000000000e+008	(-7.99450574709632e+000dB,0.00000000000000e+000°)
2.79870000000000e+008	(-7.99685380881479e+000dB,0.00000000000000e+000°)
2.99860000000000e+008	(-7.99912846419459e+000dB,0.00000000000000e+000°)
3.19850000000000e+008	(-8.00131571476650e+000dB,0.00000000000000e+000°)
3.39840000000000e+008	(-8.00340483642570e+000dB,0.00000000000000e+000°)
3.59830000000000e+008	(-8.00538803843598e+000dB,0.00000000000000e+000°)
3.79820000000000e+008	(-8.00726006959674e+000dB,0.00000000000000e+000°)
3.99810000000000e+008	(-8.00901781681071e+000dB,0.00000000000000e+000°)
4.19800000000000e+008	(-8.01065992339138e+000dB,0.00000000000000e+000°)
4.39790000000000e+008	(-8.01218644226761e+000dB,0.00000000000000e+000°)
4.59780000000000e+008	(-8.01359853107397e+000dB,0.00000000000000e+000°)
4.79770000000000e+008	(-8.01489819080213e+000dB,0.00000000000000e+000°)
4.99760000000000e+008	(-8.01608804641546e+000dB,0.00000000000000e+000°)
5.19750000000000e+008	(-8.01717116597280e+000dB,0.00000000000000e+000°)
5.39740000000000e+008	(-8.01815091391777e+000dB,0.00000000000000e+000°)
5.59730000000000e+008	(-8.01903083392390e+000dB,0.00000000000000e+000°)
5.79720000000000e+008	(-8.01981455681002e+000dB,0.00000000000000e+000°)
5.99710000000000e+008	(-8.02050572938094e+000dB,0.00000000000000e+000°)
6.19700000000000e+008	(-8.02110796049824e+000dB,0.00000000000000e+000°)
6.39690000000000e+008	(-8.02162478116937e+000dB,0.00000000000000e+000°)
6.59680000000000e+008	(-8.02205961591750e+000dB,0.00000000000000e+000°)
6.79670000000000e+008	(-8.02241576313492e+000dB,0.00000000000000e+000°)
6.99660000000000e+008	(-8.02269638251382e+000dB,0.00000000000000e+000°)
7.19650000000000e+008	(-8.02290448799258e+000dB,0.00000000000000e+000°)
7.39640000000000e+008	(-8.02304294494600e+000dB,0.00000000000000e+000°)
7.59630000000000e+008	(-8.02311447059454e+000dB,0.00000000000000e+000°)
7.79620000000000e+008	(-8.02312163681215e+000dB,0.00000000000000e+000°)
7.99610000000000e+008	(-8.02306687467999e+000dB,0.00000000000000e+000°)
8.19600000000000e+008	(-8.02295248027083e+000dB,0.00000000000000e+000°)
8.39590000000000e+008	(-8.02278062126159e+000dB,0.00000000000000e+000°)
8.59580000000000e+008	(-8.02255334406015e+000dB,0.00000000000000e+000°)
8.79570000000000e+008	(-8.02227258120505e+000dB,0.00000000000000e+000°)
8.99560000000000e+008	(-8.02194015885525e+000dB,0.00000000000000e+000°)
9.19550000000000e+008	(-8.02155780423197e+000dB,0.00000000000000e+000°)
9.39540000000000e+008	(-8.02112715291065e+000dB,0.00000000000000e+000°)
9.59530000000000e+008	(-8.02064975589050e+000dB,0.00000000000000e+000°)
9.79520000000000e+008	(-8.02012708639069e+000dB,0.00000000000000e+000°)
9.99510000000000e+008	(-8.01956054633919e+000dB,0.00000000000000e+000°)
1.01950000000000e+009	(-8.01895147253435e+000dB,0.00000000000000e+000°)
1.03949000000000e+009	(-8.01830114246906e+000dB,0.00000000000000e+000°)
1.05948000000000e+009	(-8.01761077981496e+000dB,0.00000000000000e+000°)
1.07947000000000e+009	(-8.01688155957004e+000dB,0.00000000000000e+000°)
1.09946000000000e+009	(-8.01611461287683e+000dB,0.00000000000000e+000°)
1.11945000000000e+009	(-8.01531103152243e+000dB,0.00000000000000e+000°)
1.13944000000000e+009	(-8.01447187213160e+000dB,0.00000000000000e+000°)
1.15943000000000e+009	(-8.01359816006795e+000dB,0.00000000000000e+000°)
1.17942000000000e+009	(-8.01269089305693e+000dB,0.00000000000000e+000°)
1.19941000000000e+009	(-8.01175104454570e+000dB,0.00000000000000e+000°)
1.21940000000000e+009	(-8.01077956681518e+000dB,0.00000000000000e+000°)
1.23939000000000e+009	(-8.00977739385845e+000dB,0.00000000000000e+000°)
1.25938000000000e+009	(-8.00874544403997e+000dB,0.00000000000000e+000°)
1.27937000000000e+009	(-8.00768462254949e+000dB,0.00000000000000e+000°)
1.29936000000000e+009	(-8.00659582366394e+000dB,0.00000000000000e+000°)
1.31935000000000e+009	(-8.00547993282961e+000dB,0.00000000000000e+000°)
1.33934000000000e+009	(-8.00433782857687e+000dB,0.00000000000000e+000°)
1.35933000000000e+009	(-8.00317038427831e+000dB,0.00000000000000e+000°)
1.37932000000000e+009	(-8.00197846976129e+000dB,0.00000000000000e+000°)
1.39931000000000e+009	(-8.00076295278451e+000dB,0.00000000000000e+000°)
1.41930000000000e+009	(-7.99952470038797e+000dB,0.00000000000000e+000°)
1.43929000000000e+009	(-7.99826458012540e+000dB,0.00000000000000e+000°)
1.45928000000000e+009	(-7.99698346118630e+000dB,0.00000000000000e+000°)
1.47927000000000e+009	(-7.99568221541632e+000dB,0.00000000000000e+000°)
1.49926000000000e+009	(-7.99436171824226e+000dB,0.00000000000000e+000°)
1.51925000000000e+009	(-7.99302284950837e+000dB,0.00000000000000e+000°)
1.53924000000000e+009	(-7.99166649423003e+000dB,0.00000000000000e+000°)
1.55923000000000e+009	(-7.99029354327066e+000dB,0.00000000000000e+000°)
1.57922000000000e+009	(-7.98890489394669e+000dB,0.00000000000000e+000°)
1.59921000000000e+009	(-7.98750145056598e+000dB,0.00000000000000e+000°)
1.61920000000000e+009	(-7.98608412490352e+000dB,0.00000000000000e+000°)
1.63919000000000e+009	(-7.98465383661948e+000dB,0.00000000000000e+000°)
1.65918000000000e+009	(-7.98321151362222e+000dB,0.00000000000000e+000°)
1.67917000000000e+009	(-7.98175809238151e+000dB,0.00000000000000e+000°)
1.69916000000000e+009	(-7.98029451819354e+000dB,0.00000000000000e+000°)
1.71915000000000e+009	(-7.97882174540226e+000dB,0.00000000000000e+000°)
1.73914000000000e+009	(-7.97734073757891e+000dB,0.00000000000000e+000°)
1.75913000000000e+009	(-7.97585246766305e+000dB,0.00000000000000e+000°)
1.77912000000000e+009	(-7.97435791806709e+000dB,0.00000000000000e+000°)
1.79911000000000e+009	(-7.97285808074687e+000dB,0.00000000000000e+000°)
1.81910000000000e+009	(-7.97135395724038e+000dB,0.00000000000000e+000°)
1.83909000000000e+009	(-7.96984655867658e+000dB,0.00000000000000e+000°)
1.85908000000000e+009	(-7.96833690575577e+000dB,0.00000000000000e+000°)
1.87907000000000e+009	(-7.96682602870408e+000dB,0.00000000000000e+000°)
1.89906000000000e+009	(-7.96531496720264e+000dB,0.00000000000000e+000°)
1.91905000000000e+009	(-7.96380477029357e+000dB,0.00000000000000e+000°)
1.93904000000000e+009	(-7.96229649626393e+000dB,0.00000000000000e+000°)
1.95903000000000e+009	(-7.96079121250879e+000dB,0.00000000000000e+000°)
1.97902000000000e+009	(-7.95928999537498e+000dB,0.00000000000000e+000°)
1.99901000000000e+009	(-7.95779392998592e+000dB,0.00000000000000e+000°)
2.01900000000000e+009	(-7.95630411004938e+000dB,0.00000000000000e+000°)
2.03899000000000e+009	(-7.95482163764851e+000dB,0.00000000000000e+000°)
2.05898000000000e+009	(-7.95334762301709e+000dB,0.00000000000000e+000°)
2.07897000000000e+009	(-7.95188318430046e+000dB,0.00000000000000e+000°)
2.09896000000000e+009	(-7.95042944730189e+000dB,0.00000000000000e+000°)
2.11895000000000e+009	(-7.94898754521598e+000dB,0.00000000000000e+000°)
2.13894000000000e+009	(-7.94755861834922e+000dB,0.00000000000000e+000°)
2.15893000000000e+009	(-7.94614381382880e+000dB,0.00000000000000e+000°)
2.17892000000000e+009	(-7.94474428529987e+000dB,0.00000000000000e+000°)
2.19891000000000e+009	(-7.94336119261199e+000dB,0.00000000000000e+000°)
2.21890000000000e+009	(-7.94199570149558e+000dB,0.00000000000000e+000°)
2.23889000000000e+009	(-7.94064898322796e+000dB,0.00000000000000e+000°)
2.25888000000000e+009	(-7.93932221429106e+000dB,0.00000000000000e+000°)
2.27887000000000e+009	(-7.93801657601926e+000dB,0.00000000000000e+000°)
2.29886000000000e+009	(-7.93673325423962e+000dB,0.00000000000000e+000°)
2.31885000000000e+009	(-7.93547343890372e+000dB,0.00000000000000e+000°)
2.33884000000000e+009	(-7.93423832371189e+000dB,0.00000000000000e+000°)
2.35883000000000e+009	(-7.93302910573051e+000dB,0.00000000000000e+000°)
2.37882000000000e+009	(-7.93184698500204e+000dB,0.00000000000000e+000°)
2.39881000000000e+009	(-7.93069316414891e+000dB,0.00000000000000e+000°)
2.41880000000000e+009	(-7.92956884797091e+000dB,0.00000000000000e+000°)
2.43879000000000e+009	(-7.92847524303699e+000dB,0.00000000000000e+000°)
2.45878000000000e+009	(-7.92741355727139e+000dB,0.00000000000000e+000°)
2.47877000000000e+009	(-7.92638499953440e+000dB,0.00000000000000e+000°)
2.49876000000000e+009	(-7.92539077919850e+000dB,0.00000000000000e+000°)
2.51875000000000e+009	(-7.92443210571953e+000dB,0.00000000000000e+000°)
2.53874000000000e+009	(-7.92351018820376e+000dB,0.00000000000000e+000°)
2.55873000000000e+009	(-7.92262623497070e+000dB,0.00000000000000e+000°)
2.57872000000000e+009	(-7.92178145311223e+000dB,0.00000000000000e+000°)
2.59871000000000e+009	(-7.92097704804800e+000dB,0.00000000000000e+000°)
2.61870000000000e+009	(-7.92021422307790e+000dB,0.00000000000000e+000°)
2.63869000000000e+009	(-7.91949417893121e+000dB,0.00000000000000e+000°)
2.65868000000000e+009	(-7.91881811331326e+000dB,0.00000000000000e+000°)
2.67867000000000e+009	(-7.91818722044948e+000dB,0.00000000000000e+000°)
2.69866000000000e+009	(-7.91760269062732e+000dB,0.00000000000000e+000°)
2.71865000000000e+009	(-7.91706570973618e+000dB,0.00000000000000e+000°)
2.73864000000000e+009	(-7.91657745880580e+000dB,0.00000000000000e+000°)
2.75863000000000e+009	(-7.91613911354310e+000dB,0.00000000000000e+000°)
2.77862000000000e+009	(-7.91575184386787e+000dB,0.00000000000000e+000°)
2.79861000000000e+009	(-7.91541681344766e+000dB,0.00000000000000e+000°)
2.81860000000000e+009	(-7.91513517923219e+000dB,0.00000000000000e+000°)
2.83859000000000e+009	(-7.91490809098686e+000dB,0.00000000000000e+000°)
2.85858000000000e+009	(-7.91473669082692e+000dB,0.00000000000000e+000°)
2.87857000000000e+009	(-7.91462211275120e+000dB,0.00000000000000e+000°)
2.89856000000000e+009	(-7.91456548217666e+000dB,0.00000000000000e+000°)
2.91855000000000e+009	(-7.91456791547341e+000dB,0.00000000000000e+000°)
2.93854000000000e+009	(-7.91463051950086e+000dB,0.00000000000000e+000°)
2.95853000000000e+009	(-7.91475439114521e+000dB,0.00000000000000e+000°)
2.97852000000000e+009	(-7.91494061685818e+000dB,0.00000000000000e+000°)
2.99851000000000e+009	(-7.91519027219773e+000dB,0.00000000000000e+000°)
3.01850000000000e+009	(-7.91550442137099e+000dB,0.00000000000000e+000°)
3.03849000000000e+009	(-7.91588411677921e+000dB,0.00000000000000e+000°)
3.05848000000000e+009	(-7.91633039856562e+000dB,0.00000000000000e+000°)
3.07847000000000e+009	(-7.91684429416607e+000dB,0.00000000000000e+000°)
3.09846000000000e+009	(-7.91742681786289e+000dB,0.00000000000000e+000°)
3.11845000000000e+009	(-7.91807897034216e+000dB,0.00000000000000e+000°)
3.13844000000000e+009	(-7.91880173825482e+000dB,0.00000000000000e+000°)
3.15843000000000e+009	(-7.91959609378167e+000dB,0.00000000000000e+000°)
3.17842000000000e+009	(-7.92046299420289e+000dB,0.00000000000000e+000°)
3.19841000000000e+009	(-7.92140338147172e+000dB,0.00000000000000e+000°)
3.21840000000000e+009	(-7.92241818179350e+000dB,0.00000000000000e+000°)
3.23839000000000e+009	(-7.92350830520946e+000dB,0.00000000000000e+000°)
3.25838000000000e+009	(-7.92467464518614e+000dB,0.00000000000000e+000°)
3.27837000000000e+009	(-7.92591807821015e+000dB,0.00000000000000e+000°)
3.29836000000000e+009	(-7.92723946338952e+000dB,0.00000000000000e+000°)
3.31835000000000e+009	(-7.92863964206044e+000dB,0.00000000000000e+000°)
3.33834000000000e+009	(-7.93011943740119e+000dB,0.00000000000000e+000°)
3.35833000000000e+009	(-7.93167965405238e+000dB,0.00000000000000e+000°)
3.37832000000000e+009	(-7.93332107774447e+000dB,0.00000000000000e+000°)
3.39831000000000e+009	(-7.93504447493234e+000dB,0.00000000000000e+000°)
3.41830000000000e+009	(-7.93685059243753e+000dB,0.00000000000000e+000°)
3.43829000000000e+009	(-7.93874015709831e+000dB,0.00000000000000e+000°)
3.45828000000000e+009	(-7.94071387542741e+000dB,0.00000000000000e+000°)
3.47827000000000e+009	(-7.94277243327865e+000dB,0.00000000000000e+000°)
3.49826000000000e+009	(-7.94491649552138e+000dB,0.00000000000000e+000°)
3.51825000000000e+009	(-7.94714670572421e+000dB,0.00000000000000e+000°)
3.53824000000000e+009	(-7.94946368584726e+000dB,0.00000000000000e+000°)
3.55823000000000e+009	(-7.95186803594410e+000dB,0.00000000000000e+000°)
3.57822000000000e+009	(-7.95436033387247e+000dB,0.00000000000000e+000°)
3.59821000000000e+009	(-7.95694113501513e+000dB,0.00000000000000e+000°)
3.61820000000000e+009	(-7.95961097201041e+000dB,0.00000000000000e+000°)
3.63819000000000e+009	(-7.96237035449244e+000dB,0.00000000000000e+000°)
3.65818000000000e+009	(-7.96521976884195e+000dB,0.00000000000000e+000°)
3.67817000000000e+009	(-7.96815967794741e+000dB,0.00000000000000e+000°)
3.69816000000000e+009	(-7.97119052097644e+000dB,0.00000000000000e+000°)
3.71815000000000e+009	(-7.97431271315824e+000dB,0.00000000000000e+000°)
3.73814000000000e+009	(-7.97752664557676e+000dB,0.00000000000000e+000°)
3.75813000000000e+009	(-7.98083268497475e+000dB,0.00000000000000e+000°)
3.77812000000000e+009	(-7.98423117356938e+000dB,0.00000000000000e+000°)
3.79811000000000e+009	(-7.98772242887856e+000dB,0.00000000000000e+000°)
3.81810000000000e+009	(-7.99130674355919e+000dB,0.00000000000000e+000°)
3.83809000000000e+009	(-7.99498438525663e+000dB,0.00000000000000e+000°)
3.85808000000000e+009	(-7.99875559646600e+000dB,0.00000000000000e+000°)
3.87807000000000e+009	(-8.00262059440480e+000dB,0.00000000000000e+000°)
3.89806000000000e+009	(-8.00657957089789e+000dB,0.00000000000000e+000°)
3.91805000000000e+009	(-8.01063269227383e+000dB,0.00000000000000e+000°)
3.93804000000000e+009	(-8.01478009927338e+000dB,0.00000000000000e+000°)
3.95803000000000e+009	(-8.01902190697006e+000dB,0.00000000000000e+000°)
3.97802000000000e+009	(-8.02335820470247e+000dB,0.00000000000000e+000°)
3.99801000000000e+009	(-8.02778905601883e+000dB,0.00000000000000e+000°)
4.01800000000000e+009	(-8.03231449863364e+000dB,0.00000000000000e+000°)
4.03799000000000e+009	(-8.03693454439624e+000dB,0.00000000000000e+000°)
4.05798000000000e+009	(-8.04164917927153e+000dB,0.00000000000000e+000°)
4.07797000000000e+009	(-8.04645836333282e+000dB,0.00000000000000e+000°)
4.09796000000000e+009	(-8.05136203076660e+000dB,0.00000000000000e+000°)
4.11795000000000e+009	(-8.05636008988946e+000dB,0.00000000000000e+000°)
4.13794000000000e+009	(-8.06145242317671e+000dB,0.00000000000000e+000°)
4.15793000000000e+009	(-8.06663888730328e+000dB,0.00000000000000e+000°)
4.17792000000000e+009	(-8.07191931319602e+000dB,0.00000000000000e+000°)
4.19791000000000e+009	(-8.07729350609832e+000dB,0.00000000000000e+000°)
4.21790000000000e+009	(-8.08276124564569e+000dB,0.00000000000000e+000°)
4.23789000000000e+009	(-8.08832228595372e+000dB,0.00000000000000e+000°)
4.25788000000000e+009	(-8.09397635571688e+000dB,0.00000000000000e+000°)
4.27787000000000e+009	(-8.09972315831891e+000dB,0.00000000000000e+000°)
4.29786000000000e+009	(-8.10556237195457e+000dB,0.00000000000000e+000°)
4.31785000000000e+009	(-8.11149364976234e+000dB,0.00000000000000e+000°)
4.33784000000000e+009	(-8.11751661996807e+000dB,0.00000000000000e+000°)
4.35783000000000e+009	(-8.12363088603946e+000dB,0.00000000000000e+000°)
4.37782000000000e+009	(-8.12983602685122e+000dB,0.00000000000000e+000°)
4.39781000000000e+009	(-8.13613159686074e+000dB,0.00000000000000e+000°)
4.41780000000000e+009	(-8.14251712629374e+000dB,0.00000000000000e+000°)
4.43779000000000e+009	(-8.14899212134054e+000dB,0.00000000000000e+000°)
4.45778000000000e+009	(-8.15555606436165e+000dB,0.00000000000000e+000°)
4.47777000000000e+009	(-8.16220841410365e+000dB,0.00000000000000e+000°)
4.49776000000000e+009	(-8.16894860592403e+000dB,0.00000000000000e+000°)
4.51775000000000e+009	(-8.17577605202564e+000dB,0.00000000000000e+000°)
4.53774000000000e+009	(-8.18269014169998e+000dB,0.00000000000000e+000°)
4.55773000000000e+009	(-8.18969024157964e+000dB,0.00000000000000e+000°)
4.57772000000000e+009	(-8.19677569589874e+000dB,0.00000000000000e+000°)
4.59771000000000e+009	(-8.20394582676232e+000dB,0.00000000000000e+000°)
4.61770000000000e+009	(-8.21119993442347e+000dB,0.00000000000000e+000°)
4.63769000000000e+009	(-8.21853729756832e+000dB,0.00000000000000e+000°)
4.65768000000000e+009	(-8.22595717360873e+000dB,0.00000000000000e+000°)
4.67767000000000e+009	(-8.23345879898218e+000dB,0.00000000000000e+000°)
4.69766000000000e+009	(-8.24104138945873e+000dB,0.00000000000000e+000°)
4.71765000000000e+009	(-8.24870414045479e+000dB,0.00000000000000e+000°)
4.73764000000000e+009	(-8.25644622735358e+000dB,0.00000000000000e+000°)
4.75763000000000e+009	(-8.26426680583117e+000dB,0.00000000000000e+000°)
4.77762000000000e+009	(-8.27216501218943e+000dB,0.00000000000000e+000°)
4.79761000000000e+009	(-8.28013996369383e+000dB,0.00000000000000e+000°)
4.81760000000000e+009	(-8.28819075891702e+000dB,0.00000000000000e+000°)
4.83759000000000e+009	(-8.29631647808750e+000dB,0.00000000000000e+000°)
4.85758000000000e+009	(-8.30451618344300e+000dB,0.00000000000000e+000°)
4.87757000000000e+009	(-8.31278891958853e+000dB,0.00000000000000e+000°)
4.89756000000000e+009	(-8.32113371385845e+000dB,0.00000000000000e+000°)
4.91755000000000e+009	(-8.32954957668283e+000dB,0.00000000000000e+000°)
4.93754000000000e+009	(-8.33803550195738e+000dB,0.00000000000000e+000°)
4.95753000000000e+009	(-8.34659046741650e+000dB,0.00000000000000e+000°)
4.97752000000000e+009	(-8.35521343500996e+000dB,0.00000000000000e+000°)
4.99751000000000e+009	(-8.36390335128213e+000dB,0.00000000000000e+000°)
5.01750000000000e+009	(-8.37265914775389e+000dB,0.00000000000000e+000°)
5.03749000000000e+009	(-8.38147974130646e+000dB,0.00000000000000e+000°)
5.05748000000000e+009	(-8.39036403456828e+000dB,0.00000000000000e+000°)
5.07747000000000e+009	(-8.39931091630252e+000dB,0.00000000000000e+000°)
5.09746000000000e+009	(-8.40831926179660e+000dB,0.00000000000000e+000°)
5.11745000000000e+009	(-8.41738793325326e+000dB,0.00000000000000e+000°)
5.13744000000000e+009	(-8.42651578018240e+000dB,0.00000000000000e+000°)
5.15743000000000e+009	(-8.43570163979327e+000dB,0.00000000000000e+000°)
5.17742000000000e+009	(-8.44494433738805e+000dB,0.00000000000000e+000°)
5.19741000000000e+009	(-8.45424268675509e+000dB,0.00000000000000e+000°)
5.21740000000000e+009	(-8.46359549056246e+000dB,0.00000000000000e+000°)
5.23739000000000e+009	(-8.47300154075123e+000dB,0.00000000000000e+000°)
5.25738000000000e+009	(-8.48245961892862e+000dB,0.00000000000000e+000°)
5.27737000000000e+009	(-8.49196849676043e+000dB,0.00000000000000e+000°)
5.29736000000000e+009	(-8.50152693636227e+000dB,0.00000000000000e+000°)
5.31735000000000e+009	(-8.51113369069053e+000dB,0.00000000000000e+000°)
5.33734000000000e+009	(-8.52078750393153e+000dB,0.00000000000000e+000°)
5.35733000000000e+009	(-8.53048711188943e+000dB,0.00000000000000e+000°)
5.37732000000000e+009	(-8.54023124237247e+000dB,0.00000000000000e+000°)
5.39731000000000e+009	(-8.55001861557748e+000dB,0.00000000000000e+000°)
5.41730000000000e+009	(-8.55984794447217e+000dB,0.00000000000000e+000°)
5.43729000000000e+009	(-8.56971793517491e+000dB,0.00000000000000e+000°)
5.45728000000000e+009	(-8.57962728733266e+000dB,0.00000000000000e+000°)
5.47727000000000e+009	(-8.58957469449577e+000dB,0.00000000000000e+000°)
5.49726000000000e+009	(-8.59955884449002e+000dB,0.00000000000000e+000°)
5.51725000000000e+009	(-8.60957841978521e+000dB,0.00000000000000e+000°)
