Freq.	V(d_3p)
2.00000000000000e+007	(-7.98120408681684e+000dB,-7.04252895874286e-001°)
3.99900000000000e+007	(-7.98392412392229e+000dB,-1.36984659376377e+000°)
5.99800000000000e+007	(-7.98605754822595e+000dB,-2.03674577269478e+000°)
7.99700000000000e+007	(-7.98828276872769e+000dB,-2.70300602508113e+000°)
9.99600000000000e+007	(-7.99073934459593e+000dB,-3.36733846733732e+000°)
1.19950000000000e+008	(-7.99340841907427e+000dB,-4.02889783262412e+000°)
1.39940000000000e+008	(-7.99621661900042e+000dB,-4.68718008416794e+000°)
1.59930000000000e+008	(-7.99907228059366e+000dB,-5.34193113380032e+000°)
1.79920000000000e+008	(-8.00188074916464e+000dB,-5.99308491400855e+000°)
1.99910000000000e+008	(-8.00455192961522e+000dB,-6.64071839136361e+000°)
2.19900000000000e+008	(-8.00700424893838e+000dB,-7.28501593477967e+000°)
2.39890000000000e+008	(-8.00916661446640e+000dB,-7.92623989541896e+000°)
2.59880000000000e+008	(-8.01097912413235e+000dB,-8.56470617547323e+000°)
2.79870000000000e+008	(-8.01239297139784e+000dB,-9.20076420657901e+000°)
2.99860000000000e+008	(-8.01336983972158e+000dB,-9.83478090791154e+000°)
3.19850000000000e+008	(-8.01388099474827e+000dB,-1.04671281903345e+001°)
3.39840000000000e+008	(-8.01390622298918e+000dB,-1.10981735451900e+001°)
3.59830000000000e+008	(-8.01343272174013e+000dB,-1.17282732452018e+001°)
3.79820000000000e+008	(-8.01245401142924e+000dB,-1.23577676978320e+001°)
3.99810000000000e+008	(-8.01096891604725e+000dB,-1.29869785242523e+001°)
4.19800000000000e+008	(-8.00898063818344e+000dB,-1.36162069829979e+001°)
4.39790000000000e+008	(-8.00649594126066e+000dB,-1.42457334097823e+001°)
4.59780000000000e+008	(-8.00352444178917e+000dB,-1.48758173986201e+001°)
4.79770000000000e+008	(-8.00007800795568e+000dB,-1.55066985005978e+001°)
4.99760000000000e+008	(-7.99617025684435e+000dB,-1.61385972630126e+001°)
5.19750000000000e+008	(-7.99181614040574e+000dB,-1.67717164719745e+001°)
5.39740000000000e+008	(-7.98703160940563e+000dB,-1.74062424955584e+001°)
5.59730000000000e+008	(-7.98183334458522e+000dB,-1.80423466524302e+001°)
5.79720000000000e+008	(-7.97623854481595e+000dB,-1.86801865530777e+001°)
5.99710000000000e+008	(-7.97026476290829e+000dB,-1.93199073781012e+001°)
6.19700000000000e+008	(-7.96392978076108e+000dB,-1.99616430712120e+001°)
6.39690000000000e+008	(-7.95725151660656e+000dB,-2.06055174344134e+001°)
6.59680000000000e+008	(-7.95024795814039e+000dB,-2.12516451199644e+001°)
6.79670000000000e+008	(-7.94293711628747e+000dB,-2.19001325187499e+001°)
6.99660000000000e+008	(-7.93533699521445e+000dB,-2.25510785480813e+001°)
7.19650000000000e+008	(-7.92746557495977e+000dB,-2.32045753441453e+001°)
7.39640000000000e+008	(-7.91934080370303e+000dB,-2.38607088656144e+001°)
7.59630000000000e+008	(-7.91098059724974e+000dB,-2.45195594155797e+001°)
7.79620000000000e+008	(-7.90240284377431e+000dB,-2.51812020891721e+001°)
7.99610000000000e+008	(-7.89362541225106e+000dB,-2.58457071541281e+001°)
8.19600000000000e+008	(-7.88466616332133e+000dB,-2.65131403712454e+001°)
8.39590000000000e+008	(-7.87554296160565e+000dB,-2.71835632612542e+001°)
8.59580000000000e+008	(-7.86627368868449e+000dB,-2.78570333241319e+001°)
8.79570000000000e+008	(-7.85687625613869e+000dB,-2.85336042163754e+001°)
8.99560000000000e+008	(-7.84736861818188e+000dB,-2.92133258912320e+001°)
9.19550000000000e+008	(-7.83776878352509e+000dB,-2.98962447063959e+001°)
9.39540000000000e+008	(-7.82809482620057e+000dB,-3.05824035032106e+001°)
9.59530000000000e+008	(-7.81836489514328e+000dB,-3.12718416609955e+001°)
9.79520000000000e+008	(-7.80859722238048e+000dB,-3.19645951297242e+001°)
9.99510000000000e+008	(-7.79881012972317e+000dB,-3.26606964439342e+001°)
1.01950000000000e+009	(-7.78902203388585e+000dB,-3.33601747204389e+001°)
1.03949000000000e+009	(-7.77925144998689e+000dB,-3.40630556421391e+001°)
1.05948000000000e+009	(-7.76951699340087e+000dB,-3.47693614299909e+001°)
1.07947000000000e+009	(-7.75983737995018e+000dB,-3.54791108049782e+001°)
1.09946000000000e+009	(-7.75023142443413e+000dB,-3.61923189417572e+001°)
1.11945000000000e+009	(-7.74071803750243e+000dB,-3.69089974154844e+001°)
1.13944000000000e+009	(-7.73131622088726e+000dB,-3.76291541431980e+001°)
1.15943000000000e+009	(-7.72204506101368e+000dB,-3.83527933210205e+001°)
1.17942000000000e+009	(-7.71292372101266e+000dB,-3.90799153583380e+001°)
1.19941000000000e+009	(-7.70397143116235e+000dB,-3.98105168100333e+001°)
1.21940000000000e+009	(-7.69520747779122e+000dB,-4.05445903077805e+001°)
1.23939000000000e+009	(-7.68665119067445e+000dB,-4.12821244913395e+001°)
1.25938000000000e+009	(-7.67832192896145e+000dB,-4.20231039407465e+001°)
1.27937000000000e+009	(-7.67023906567406e+000dB,-4.27675091102386e+001°)
1.29936000000000e+009	(-7.66242197081805e+000dB,-4.35153162647219e+001°)
1.31935000000000e+009	(-7.65488999315451e+000dB,-4.42664974195542e+001°)
1.33934000000000e+009	(-7.64766244068022e+000dB,-4.50210202843743e+001°)
1.35933000000000e+009	(-7.64075855987161e+000dB,-4.57788482116948e+001°)
1.37932000000000e+009	(-7.63419751374884e+000dB,-4.65399401509334e+001°)
1.39931000000000e+009	(-7.62799835882279e+000dB,-4.73042506085450e+001°)
1.41930000000000e+009	(-7.62218002099118e+000dB,-4.80717296148697e+001°)
1.43929000000000e+009	(-7.61676127045507e+000dB,-4.88423226983136e+001°)
1.45928000000000e+009	(-7.61176069573218e+000dB,-4.96159708674201e+001°)
1.47927000000000e+009	(-7.60719667684777e+000dB,-5.03926106013811e+001°)
1.49926000000000e+009	(-7.60308735779000e+000dB,-5.11721738494941e+001°)
1.51925000000000e+009	(-7.59945061832072e+000dB,-5.19545880400413e+001°)
1.53924000000000e+009	(-7.59630404523802e+000dB,-5.27397760990277e+001°)
1.55923000000000e+009	(-7.59366490319135e+000dB,-5.35276564791726e+001°)
1.57922000000000e+009	(-7.59155010515698e+000dB,-5.43181431995117e+001°)
1.59921000000000e+009	(-7.58997618268117e+000dB,-5.51111458959174e+001°)
1.61920000000000e+009	(-7.58895925600799e+000dB,-5.59065698827891e+001°)
1.63919000000000e+009	(-7.58851500420859e+000dB,-5.67043162261300e+001°)
1.65918000000000e+009	(-7.58865863543329e+000dB,-5.75042818281497e+001°)
1.67917000000000e+009	(-7.58940485741034e+000dB,-5.83063595234960e+001°)
1.69916000000000e+009	(-7.59076784831822e+000dB,-5.91104381871396e+001°)
1.71915000000000e+009	(-7.59276122815644e+000dB,-5.99164028538879e+001°)
1.73914000000000e+009	(-7.59539803074596e+000dB,-6.07241348494338e+001°)
1.75913000000000e+009	(-7.59869067648374e+000dB,-6.15335119327788e+001°)
1.77912000000000e+009	(-7.60265094598120e+000dB,-6.23444084498042e+001°)
1.79911000000000e+009	(-7.60728995470936e+000dB,-6.31566954977079e+001°)
1.81910000000000e+009	(-7.61261812877538e+000dB,-6.39702410999358e+001°)
1.83909000000000e+009	(-7.61864518194740e+000dB,-6.47849103911965e+001°)
1.85908000000000e+009	(-7.62538009404421e+000dB,-6.56005658120702e+001°)
1.87907000000000e+009	(-7.63283109079810e+000dB,-6.64170673126574e+001°)
1.89906000000000e+009	(-7.64100562529463e+000dB,-6.72342725646661e+001°)
1.91905000000000e+009	(-7.64991036108653e+000dB,-6.80520371812689e+001°)
1.93904000000000e+009	(-7.65955115706871e+000dB,-6.88702149440146e+001°)
1.95903000000000e+009	(-7.66993305419745e+000dB,-6.96886580360292e+001°)
1.97902000000000e+009	(-7.68106026412302e+000dB,-7.05072172806941e+001°)
1.99901000000000e+009	(-7.69293615979820e+000dB,-7.13257423849560e+001°)
2.01900000000000e+009	(-7.70556326811492e+000dB,-7.21440821863896e+001°)
2.03899000000000e+009	(-7.71894326460849e+000dB,-7.29620849031023e+001°)
2.05898000000000e+009	(-7.73307697026092e+000dB,-7.37795983855554e+001°)
2.07897000000000e+009	(-7.74796435042033e+000dB,-7.45964703693606e+001°)
2.09896000000000e+009	(-7.76360451584567e+000dB,-7.54125487280976e+001°)
2.11895000000000e+009	(-7.77999572587041e+000dB,-7.62276817252140e+001°)
2.13894000000000e+009	(-7.79713539367198e+000dB,-7.70417182640510e+001°)
2.15893000000000e+009	(-7.81502009361802e+000dB,-7.78545081350734e+001°)
2.17892000000000e+009	(-7.83364557065300e+000dB,-7.86659022593902e+001°)
2.19891000000000e+009	(-7.85300675167647e+000dB,-7.94757529276790e+001°)
2.21890000000000e+009	(-7.87309775885427e+000dB,-8.02839140336615e+001°)
2.23889000000000e+009	(-7.89391192479395e+000dB,-8.10902413013140e+001°)
2.25888000000000e+009	(-7.91544180950840e+000dB,-8.18945925050418e+001°)
2.27887000000000e+009	(-7.93767921908054e+000dB,-8.26968276820844e+001°)
2.29886000000000e+009	(-7.96061522593584e+000dB,-8.34968093364851e+001°)
2.31885000000000e+009	(-7.98424019062417e+000dB,-8.42944026340007e+001°)
2.33884000000000e+009	(-8.00854378500235e+000dB,-8.50894755873972e+001°)
2.35883000000000e+009	(-8.03351501670783e+000dB,-8.58818992316223e+001°)
2.37882000000000e+009	(-8.05914225480730e+000dB,-8.66715477884316e+001°)
2.39881000000000e+009	(-8.08541325650160e+000dB,-8.74582988200896e+001°)
2.41880000000000e+009	(-8.11231519476482e+000dB,-8.82420333718356e+001°)
2.43879000000000e+009	(-8.13983468679614e+000dB,-8.90226361028919e+001°)
2.45878000000000e+009	(-8.16795782315959e+000dB,-8.97999954058122e+001°)
2.47877000000000e+009	(-8.19667019748916e+000dB,-9.05740035140860e+001°)
2.49876000000000e+009	(-8.22595693663678e+000dB,-9.13445565979281e+001°)
2.51875000000000e+009	(-8.25580273114292e+000dB,-9.21115548482787e+001°)
2.53874000000000e+009	(-8.28619186591145e+000dB,-9.28749025490812e+001°)
2.55873000000000e+009	(-8.31710825097440e+000dB,-9.36345081379533e+001°)
2.57872000000000e+009	(-8.34853545223586e+000dB,-9.43902842554495e+001°)
2.59871000000000e+009	(-8.38045672208783e+000dB,-9.51421477831134e+001°)
2.61870000000000e+009	(-8.41285502979724e+000dB,-9.58900198706234e+001°)
2.63869000000000e+009	(-8.44571309156724e+000dB,-9.66338259523164e+001°)
2.65868000000000e+009	(-8.47901340018186e+000dB,-9.73734957534583e+001°)
2.67867000000000e+009	(-8.51273825415065e+000dB,-9.81089632866401e+001°)
2.69866000000000e+009	(-8.54686978627250e+000dB,-9.88401668387083e+001°)
2.71865000000000e+009	(-8.58138999154918e+000dB,-9.95670489486795e+001°)
2.73864000000000e+009	(-8.61628075438047e+000dB,-1.00289556377088e+002°)
2.75863000000000e+009	(-8.65152387498293e+000dB,-1.01007640067247e+002°)
2.77862000000000e+009	(-8.68710109498061e+000dB,-1.01721255098923e+002°)
2.79861000000000e+009	(-8.72299412211859e+000dB,-1.02430360634908e+002°)
2.81860000000000e+009	(-8.75918465406343e+000dB,-1.03134919861007e+002°)
2.83859000000000e+009	(-8.79565440125327e+000dB,-1.03834899919950e+002°)
2.85858000000000e+009	(-8.83238510877342e+000dB,-1.04530271839732e+002°)
2.87857000000000e+009	(-8.86935857723294e+000dB,-1.05221010456889e+002°)
2.89856000000000e+009	(-8.90655668262858e+000dB,-1.05907094335210e+002°)
2.91855000000000e+009	(-8.94396139518421e+000dB,-1.06588505680378e+002°)
2.93854000000000e+009	(-8.98155479716079e+000dB,-1.07265230251007e+002°)
2.95853000000000e+009	(-9.01931909963582e+000dB,-1.07937257266563e+002°)
2.97852000000000e+009	(-9.05723665825684e+000dB,-1.08604579312601e+002°)
2.99851000000000e+009	(-9.09528998797562e+000dB,-1.09267192243754e+002°)
3.01850000000000e+009	(-9.13346177677606e+000dB,-1.09925095084907e+002°)
3.03849000000000e+009	(-9.17173489841083e+000dB,-1.10578289930932e+002°)
3.05848000000000e+009	(-9.21009242416368e+000dB,-1.11226781845370e+002°)
3.07847000000000e+009	(-9.24851763366028e+000dB,-1.11870578758421e+002°)
3.09846000000000e+009	(-9.28699402474931e+000dB,-1.12509691364565e+002°)
3.11845000000000e+009	(-9.32550532248034e+000dB,-1.13144133020132e+002°)
3.13844000000000e+009	(-9.36403548720364e+000dB,-1.13773919641121e+002°)
3.15843000000000e+009	(-9.40256872182316e+000dB,-1.14399069601519e+002°)
3.17842000000000e+009	(-9.44108947822781e+000dB,-1.15019603632402e+002°)
3.19841000000000e+009	(-9.47958246293612e+000dB,-1.15635544722024e+002°)
3.21840000000000e+009	(-9.51803264198088e+000dB,-1.16246918017116e+002°)
3.23839000000000e+009	(-9.55642524506816e+000dB,-1.16853750725609e+002°)
3.25838000000000e+009	(-9.59474576904109e+000dB,-1.17456072020938e+002°)
3.27837000000000e+009	(-9.63297998068292e+000dB,-1.18053912948110e+002°)
3.29836000000000e+009	(-9.67111391888829e+000dB,-1.18647306331670e+002°)
3.31835000000000e+009	(-9.70913389623977e+000dB,-1.19236286685714e+002°)
3.33834000000000e+009	(-9.74702650002005e+000dB,-1.19820890126051e+002°)
3.35833000000000e+009	(-9.78477859269308e+000dB,-1.20401154284621e+002°)
3.37832000000000e+009	(-9.82237731188800e+000dB,-1.20977118226264e+002°)
3.39831000000000e+009	(-9.85981006991692e+000dB,-1.21548822367878e+002°)
3.41830000000000e+009	(-9.89706455285741e+000dB,-1.22116308400068e+002°)
3.43829000000000e+009	(-9.93412871923379e+000dB,-1.22679619211286e+002°)
3.45828000000000e+009	(-9.97099079832287e+000dB,-1.23238798814511e+002°)
3.47827000000000e+009	(-1.00076392881156e+001dB,-1.23793892276480e+002°)
3.49826000000000e+009	(-1.00440629529620e+001dB,-1.24344945649477e+002°)
3.51825000000000e+009	(-1.00802508209248e+001dB,-1.24892005905683e+002°)
3.53824000000000e+009	(-1.01161921808679e+001dB,-1.25435120874059e+002°)
3.55823000000000e+009	(-1.01518765793024e+001dB,-1.25974339179765e+002°)
3.57822000000000e+009	(-1.01872938170158e+001dB,-1.26509710186073e+002°)
3.59821000000000e+009	(-1.02224339455020e+001dB,-1.27041283938761e+002°)
3.61820000000000e+009	(-1.02572872632159e+001dB,-1.27569111112934e+002°)
3.63819000000000e+009	(-1.02918443116696e+001dB,-1.28093242962257e+002°)
3.65818000000000e+009	(-1.03260958713917e+001dB,-1.28613731270540e+002°)
3.67817000000000e+009	(-1.03600329577620e+001dB,-1.29130628305638e+002°)
3.69816000000000e+009	(-1.03936468167438e+001dB,-1.29643986775625e+002°)
3.71815000000000e+009	(-1.04269289205249e+001dB,-1.30153859787178e+002°)
3.73814000000000e+009	(-1.04598709630830e+001dB,-1.30660300806139e+002°)
3.75813000000000e+009	(-1.04924648556905e+001dB,-1.31163363620184e+002°)
3.77812000000000e+009	(-1.05247027223694e+001dB,-1.31663102303562e+002°)
3.79811000000000e+009	(-1.05565768953095e+001dB,-1.32159571183837e+002°)
3.81810000000000e+009	(-1.05880799102612e+001dB,-1.32652824810585e+002°)
3.83809000000000e+009	(-1.06192045019124e+001dB,-1.33142917925988e+002°)
3.85808000000000e+009	(-1.06499435992596e+001dB,-1.33629905437273e+002°)
3.87807000000000e+009	(-1.06802903209826e+001dB,-1.34113842390929e+002°)
3.89806000000000e+009	(-1.07102379708311e+001dB,-1.34594783948670e+002°)
3.91805000000000e+009	(-1.07397800330302e+001dB,-1.35072785365053e+002°)
3.93804000000000e+009	(-1.07689101677119e+001dB,-1.35547901966740e+002°)
3.95803000000000e+009	(-1.07976222063810e+001dB,-1.36020189133313e+002°)
3.97802000000000e+009	(-1.08259101474184e+001dB,-1.36489702279611e+002°)
3.99801000000000e+009	(-1.08537681516303e+001dB,-1.36956496839524e+002°)
4.01800000000000e+009	(-1.08811905378455e+001dB,-1.37420628251215e+002°)
4.03799000000000e+009	(-1.09081717785682e+001dB,-1.37882151943683e+002°)
4.05798000000000e+009	(-1.09347064956882e+001dB,-1.38341123324664e+002°)
4.07797000000000e+009	(-1.09607894562530e+001dB,-1.38797597769779e+002°)
4.09796000000000e+009	(-1.09864155683063e+001dB,-1.39251630612917e+002°)
4.11795000000000e+009	(-1.10115798767936e+001dB,-1.39703277137796e+002°)
4.13794000000000e+009	(-1.10362775595402e+001dB,-1.40152592570644e+002°)
4.15793000000000e+009	(-1.10605039233023e+001dB,-1.40599632073991e+002°)
4.17792000000000e+009	(-1.10842543998939e+001dB,-1.41044450741498e+002°)
4.19791000000000e+009	(-1.11075245423915e+001dB,-1.41487103593809e+002°)
4.21790000000000e+009	(-1.11303100214187e+001dB,-1.41927645575372e+002°)
4.23789000000000e+009	(-1.11526066215104e+001dB,-1.42366131552204e+002°)
4.25788000000000e+009	(-1.11744102375608e+001dB,-1.42802616310559e+002°)
4.27787000000000e+009	(-1.11957168713539e+001dB,-1.43237154556468e+002°)
4.29786000000000e+009	(-1.12165226281776e+001dB,-1.43669800916119e+002°)
4.31785000000000e+009	(-1.12368237135236e+001dB,-1.44100609937047e+002°)
4.33784000000000e+009	(-1.12566164298732e+001dB,-1.44529636090102e+002°)
4.35783000000000e+009	(-1.12758971735681e+001dB,-1.44956933772174e+002°)
4.37782000000000e+009	(-1.12946624317691e+001dB,-1.45382557309641e+002°)
4.39781000000000e+009	(-1.13129087795007e+001dB,-1.45806560962518e+002°)
4.41780000000000e+009	(-1.13306328767838e+001dB,-1.46228998929287e+002°)
4.43779000000000e+009	(-1.13478314658553e+001dB,-1.46649925352378e+002°)
4.45778000000000e+009	(-1.13645013684752e+001dB,-1.47069394324286e+002°)
4.47777000000000e+009	(-1.13806394833219e+001dB,-1.47487459894301e+002°)
4.49776000000000e+009	(-1.13962427834749e+001dB,-1.47904176075834e+002°)
4.51775000000000e+009	(-1.14113083139854e+001dB,-1.48319596854319e+002°)
4.53774000000000e+009	(-1.14258331895343e+001dB,-1.48733776195675e+002°)
4.55773000000000e+009	(-1.14398145921789e+001dB,-1.49146768055317e+002°)
4.57772000000000e+009	(-1.14532497691869e+001dB,-1.49558626387692e+002°)
4.59771000000000e+009	(-1.14661360309580e+001dB,-1.49969405156342e+002°)
4.61770000000000e+009	(-1.14784707490352e+001dB,-1.50379158344458e+002°)
4.63769000000000e+009	(-1.14902513542016e+001dB,-1.50787939965948e+002°)
4.65768000000000e+009	(-1.15014753346679e+001dB,-1.51195804076968e+002°)
4.67767000000000e+009	(-1.15121402343470e+001dB,-1.51602804787945e+002°)
4.69766000000000e+009	(-1.15222436512180e+001dB,-1.52008996276057e+002°)
4.71765000000000e+009	(-1.15317832357786e+001dB,-1.52414432798173e+002°)
4.73764000000000e+009	(-1.15407566895874e+001dB,-1.52819168704250e+002°)
4.75763000000000e+009	(-1.15491617638966e+001dB,-1.53223258451172e+002°)
4.77762000000000e+009	(-1.15569962583738e+001dB,-1.53626756617031e+002°)
4.79761000000000e+009	(-1.15642580199162e+001dB,-1.54029717915846e+002°)
4.81760000000000e+009	(-1.15709449415561e+001dB,-1.54432197212720e+002°)
4.83759000000000e+009	(-1.15770549614597e+001dB,-1.54834249539419e+002°)
4.85758000000000e+009	(-1.15825860620186e+001dB,-1.55235930110391e+002°)
4.87757000000000e+009	(-1.15875362690376e+001dB,-1.55637294339203e+002°)
4.89756000000000e+009	(-1.15919036510177e+001dB,-1.56038397855411e+002°)
4.91755000000000e+009	(-1.15956863185368e+001dB,-1.56439296521856e+002°)
4.93754000000000e+009	(-1.15988824237297e+001dB,-1.56840046452383e+002°)
4.95753000000000e+009	(-1.16014901598694e+001dB,-1.57240704029992e+002°)
4.97752000000000e+009	(-1.16035077610501e+001dB,-1.57641325925418e+002°)
4.99751000000000e+009	(-1.16049335019761e+001dB,-1.58041969116141e+002°)
5.01750000000000e+009	(-1.16057656978571e+001dB,-1.58442690905826e+002°)
5.03749000000000e+009	(-1.16060027044131e+001dB,-1.58843548944204e+002°)
5.05748000000000e+009	(-1.16056429179926e+001dB,-1.59244601247390e+002°)
5.07747000000000e+009	(-1.16046847758045e+001dB,-1.59645906218638e+002°)
5.09746000000000e+009	(-1.16031267562692e+001dB,-1.60047522669551e+002°)
5.11745000000000e+009	(-1.16009673794913e+001dB,-1.60449509841725e+002°)
5.13744000000000e+009	(-1.15982052078575e+001dB,-1.60851927428862e+002°)
5.15743000000000e+009	(-1.15948388467637e+001dB,-1.61254835599326e+002°)
5.17742000000000e+009	(-1.15908669454761e+001dB,-1.61658295019164e+002°)
5.19741000000000e+009	(-1.15862881981294e+001dB,-1.62062366875589e+002°)
5.21740000000000e+009	(-1.15811013448687e+001dB,-1.62467112900935e+002°)
5.23739000000000e+009	(-1.15753051731388e+001dB,-1.62872595397072e+002°)
5.25738000000000e+009	(-1.15688985191268e+001dB,-1.63278877260309e+002°)
5.27737000000000e+009	(-1.15618802693649e+001dB,-1.63686022006759e+002°)
5.29736000000000e+009	(-1.15542493624975e+001dB,-1.64094093798195e+002°)
5.31735000000000e+009	(-1.15460047912217e+001dB,-1.64503157468382e+002°)
5.33734000000000e+009	(-1.15371456044061e+001dB,-1.64913278549890e+002°)
5.35733000000000e+009	(-1.15276709093976e+001dB,-1.65324523301393e+002°)
5.37732000000000e+009	(-1.15175798745219e+001dB,-1.65736958735451e+002°)
5.39731000000000e+009	(-1.15068717317879e+001dB,-1.66150652646772e+002°)
5.41730000000000e+009	(-1.14955457798050e+001dB,-1.66565673640956e+002°)
5.43729000000000e+009	(-1.14836013869217e+001dB,-1.66982091163713e+002°)
5.45728000000000e+009	(-1.14710379945970e+001dB,-1.67399975530556e+002°)
