Freq.	V(d_3p)
2.00000000000000e+007	(-7.93537286370035e+000dB,-4.28737913184959e-001°)
3.99900000000000e+007	(-7.93706159261941e+000dB,-8.30907024462283e-001°)
5.99800000000000e+007	(-7.93854166317630e+000dB,-1.23720936533988e+000°)
7.99700000000000e+007	(-7.94041413831305e+000dB,-1.64211133836099e+000°)
9.99600000000000e+007	(-7.94259165059128e+000dB,-2.04419630106190e+000°)
1.19950000000000e+008	(-7.94496613724017e+000dB,-2.44281833848361e+000°)
1.39940000000000e+008	(-7.94741824255570e+000dB,-2.83761669074865e+000°)
1.59930000000000e+008	(-7.94982180204667e+000dB,-3.22843035123932e+000°)
1.79920000000000e+008	(-7.95204542500871e+000dB,-3.61527089081038e+000°)
1.99910000000000e+008	(-7.95395136355873e+000dB,-3.99833542164946e+000°)
2.19900000000000e+008	(-7.95539598620314e+000dB,-4.37807586715983e+000°)
2.39890000000000e+008	(-7.95624186094035e+000dB,-4.75532659157086e+000°)
2.59880000000000e+008	(-7.95639577829060e+000dB,-5.13141382717423e+000°)
2.79870000000000e+008	(-7.95587389818089e+000dB,-5.50802649095144e+000°)
2.99860000000000e+008	(-7.95484766669722e+000dB,-5.88662523389799e+000°)
3.19850000000000e+008	(-7.95359016349953e+000dB,-6.26764688743665e+000°)
3.39840000000000e+008	(-7.95232862065946e+000dB,-6.65030615015043e+000°)
3.59830000000000e+008	(-7.95113846862432e+000dB,-7.03327545136868e+000°)
3.79820000000000e+008	(-7.94996265962167e+000dB,-7.41550284183518e+000°)
3.99810000000000e+008	(-7.94869309102079e+000dB,-7.79651810005815e+000°)
4.19800000000000e+008	(-7.94723116485328e+000dB,-8.17631035143830e+000°)
4.39790000000000e+008	(-7.94550890115271e+000dB,-8.55510363818634e+000°)
4.59780000000000e+008	(-7.94348737762714e+000dB,-8.93319604606497e+000°)
4.79770000000000e+008	(-7.94114849433738e+000dB,-9.31087885324110e+000°)
4.99760000000000e+008	(-7.93848722274479e+000dB,-9.68840647576555e+000°)
5.19750000000000e+008	(-7.93550609282835e+000dB,-1.00659909301125e+001°)
5.39740000000000e+008	(-7.93221170207215e+000dB,-1.04438058633376e+001°)
5.59730000000000e+008	(-7.92861263336951e+000dB,-1.08219932137960e+001°)
5.79720000000000e+008	(-7.92471825915170e+000dB,-1.12006697473971e+001°)
5.99710000000000e+008	(-7.92053807675007e+000dB,-1.15799325944476e+001°)
6.19700000000000e+008	(-7.91608135447743e+000dB,-1.19598636644821e+001°)
6.39690000000000e+008	(-7.91135695684998e+000dB,-1.23405330736031e+001°)
6.59680000000000e+008	(-7.90637327184638e+000dB,-1.27220017769088e+001°)
6.79670000000000e+008	(-7.90113819535244e+000dB,-1.31043235854965e+001°)
6.99660000000000e+008	(-7.89565914676728e+000dB,-1.34875467149125e+001°)
7.19650000000000e+008	(-7.88994310069906e+000dB,-1.38717149788000e+001°)
7.39640000000000e+008	(-7.88399662605311e+000dB,-1.42568687136853e+001°)
7.59630000000000e+008	(-7.87782592754248e+000dB,-1.46430454991963e+001°)
7.79620000000000e+008	(-7.87143688683671e+000dB,-1.50302807217140e+001°)
7.99610000000000e+008	(-7.86483510184957e+000dB,-1.54186080173872e+001°)
8.19600000000000e+008	(-7.85802592342336e+000dB,-1.58080596215523e+001°)
8.39590000000000e+008	(-7.85101448910535e+000dB,-1.61986666450309e+001°)
8.59580000000000e+008	(-7.84380575397015e+000dB,-1.65904592929336e+001°)
8.79570000000000e+008	(-7.83640451857903e+000dB,-1.69834670379728e+001°)
8.99560000000000e+008	(-7.82881545424715e+000dB,-1.73777187575847e+001°)
9.19550000000000e+008	(-7.82104312581923e+000dB,-1.77732428421069e+001°)
9.39540000000000e+008	(-7.81309201216927e+000dB,-1.81700672796994e+001°)
9.59530000000000e+008	(-7.80496652463620e+000dB,-1.85682197225013e+001°)
9.79520000000000e+008	(-7.79667102359701e+000dB,-1.89677275375908e+001°)
9.99510000000000e+008	(-7.78820983336571e+000dB,-1.93686178455925e+001°)
1.01950000000000e+009	(-7.77958725559088e+000dB,-1.97709175492163e+001°)
1.03949000000000e+009	(-7.77080758130791e+000dB,-2.01746533535626e+001°)
1.05948000000000e+009	(-7.76187510178811e+000dB,-2.05798517796790e+001°)
1.07947000000000e+009	(-7.75279411831168e+000dB,-2.09865391725692e+001°)
1.09946000000000e+009	(-7.74356895097794e+000dB,-2.13947417046319e+001°)
1.11945000000000e+009	(-7.73420394665408e+000dB,-2.18044853753224e+001°)
1.13944000000000e+009	(-7.72470348615290e+000dB,-2.22157960076852e+001°)
1.15943000000000e+009	(-7.71507199071966e+000dB,-2.26286992422871e+001°)
1.17942000000000e+009	(-7.70531392789984e+000dB,-2.30432205289810e+001°)
1.19941000000000e+009	(-7.69543381684945e+000dB,-2.34593851168524e+001°)
1.21940000000000e+009	(-7.68543623314571e+000dB,-2.38772180426365e+001°)
1.23939000000000e+009	(-7.67532581314673e+000dB,-2.42967441178413e+001°)
1.25938000000000e+009	(-7.66510725794332e+000dB,-2.47179879147657e+001°)
1.27937000000000e+009	(-7.65478533694287e+000dB,-2.51409737515671e+001°)
1.29936000000000e+009	(-7.64436489111824e+000dB,-2.55657256765062e+001°)
1.31935000000000e+009	(-7.63385083595238e+000dB,-2.59922674514684e+001°)
1.33934000000000e+009	(-7.62324816410409e+000dB,-2.64206225348422e+001°)
1.35933000000000e+009	(-7.61256194781903e+000dB,-2.68508140638211e+001°)
1.37932000000000e+009	(-7.60179734110499e+000dB,-2.72828648361805e+001°)
1.39931000000000e+009	(-7.59095958168946e+000dB,-2.77167972915684e+001°)
1.41930000000000e+009	(-7.58005399277442e+000dB,-2.81526334923422e+001°)
1.43929000000000e+009	(-7.56908598460138e+000dB,-2.85903951039781e+001°)
1.45928000000000e+009	(-7.55806105583789e+000dB,-2.90301033750693e+001°)
1.47927000000000e+009	(-7.54698479479416e+000dB,-2.94717791169292e+001°)
1.49926000000000e+009	(-7.53586288047898e+000dB,-2.99154426828098e+001°)
1.51925000000000e+009	(-7.52470108349984e+000dB,-3.03611139467449e+001°)
1.53924000000000e+009	(-7.51350526681401e+000dB,-3.08088122820239e+001°)
1.55923000000000e+009	(-7.50228138633291e+000dB,-3.12585565393014e+001°)
1.57922000000000e+009	(-7.49103549138511e+000dB,-3.17103650243498e+001°)
1.59921000000000e+009	(-7.47977372503759e+000dB,-3.21642554754569e+001°)
1.61920000000000e+009	(-7.46850232427881e+000dB,-3.26202450404746e+001°)
1.63919000000000e+009	(-7.45722762006310e+000dB,-3.30783502535265e+001°)
1.65918000000000e+009	(-7.44595603721611e+000dB,-3.35385870113760e+001°)
1.67917000000000e+009	(-7.43469409420157e+000dB,-3.40009705494682e+001°)
1.69916000000000e+009	(-7.42344840274780e+000dB,-3.44655154176499e+001°)
1.71915000000000e+009	(-7.41222566733170e+000dB,-3.49322354555803e+001°)
1.73914000000000e+009	(-7.40103268451954e+000dB,-3.54011437678465e+001°)
1.75913000000000e+009	(-7.38987634216052e+000dB,-3.58722526987932e+001°)
1.77912000000000e+009	(-7.37876361843221e+000dB,-3.63455738070875e+001°)
1.79911000000000e+009	(-7.36770158073250e+000dB,-3.68211178400351e+001°)
1.81910000000000e+009	(-7.35669738441773e+000dB,-3.72988947076682e+001°)
1.83909000000000e+009	(-7.34575827138084e+000dB,-3.77789134566283e+001°)
1.85908000000000e+009	(-7.33489156846762e+000dB,-3.82611822438716e+001°)
1.87907000000000e+009	(-7.32410468572725e+000dB,-3.87457083102203e+001°)
1.89906000000000e+009	(-7.31340511449243e+000dB,-3.92324979537956e+001°)
1.91905000000000e+009	(-7.30280042528667e+000dB,-3.97215565033610e+001°)
1.93904000000000e+009	(-7.29229826555360e+000dB,-4.02128882916149e+001°)
1.95903000000000e+009	(-7.28190635720597e+000dB,-4.07064966284705e+001°)
1.97902000000000e+009	(-7.27163249398926e+000dB,-4.12023837743620e+001°)
1.99901000000000e+009	(-7.26148453865761e+000dB,-4.17005509136241e+001°)
2.01900000000000e+009	(-7.25147041995803e+000dB,-4.22009981279905e+001°)
2.03899000000000e+009	(-7.24159812941925e+000dB,-4.27037243702597e+001°)
2.05898000000000e+009	(-7.23187571794387e+000dB,-4.32087274381832e+001°)
2.07897000000000e+009	(-7.22231129219853e+000dB,-4.37160039486267e+001°)
2.09896000000000e+009	(-7.21291301080245e+000dB,-4.42255493120659e+001°)
2.11895000000000e+009	(-7.20368908030978e+000dB,-4.47373577074758e+001°)
2.13894000000000e+009	(-7.19464775098586e+000dB,-4.52514220576742e+001°)
2.15893000000000e+009	(-7.18579731237493e+000dB,-4.57677340051871e+001°)
2.17892000000000e+009	(-7.17714608865846e+000dB,-4.62862838887008e+001°)
2.19891000000000e+009	(-7.16870243380435e+000dB,-4.68070607201724e+001°)
2.21890000000000e+009	(-7.16047472650644e+000dB,-4.73300521626677e+001°)
2.23889000000000e+009	(-7.15247136491446e+000dB,-4.78552445090023e+001°)
2.25888000000000e+009	(-7.14470076115736e+000dB,-4.83826226612602e+001°)
2.27887000000000e+009	(-7.13717133565951e+000dB,-4.89121701112633e+001°)
2.29886000000000e+009	(-7.12989151125328e+000dB,-4.94438689220745e+001°)
2.31885000000000e+009	(-7.12286970709185e+000dB,-4.99776997106106e+001°)
2.33884000000000e+009	(-7.11611433236381e+000dB,-5.05136416314442e+001°)
2.35883000000000e+009	(-7.10963377981625e+000dB,-5.10516723618767e+001°)
2.37882000000000e+009	(-7.10343641909011e+000dB,-5.15917680883602e+001°)
2.39881000000000e+009	(-7.09753058987407e+000dB,-5.21339034943526e+001°)
2.41880000000000e+009	(-7.09192459488349e+000dB,-5.26780517496809e+001°)
2.43879000000000e+009	(-7.08662669267293e+000dB,-5.32241845014989e+001°)
2.45878000000000e+009	(-7.08164509028858e+000dB,-5.37722718669096e+001°)
2.47877000000000e+009	(-7.07698793577156e+000dB,-5.43222824273377e+001°)
2.49876000000000e+009	(-7.07266331052079e+000dB,-5.48741832247206e+001°)
2.51875000000000e+009	(-7.06867922152719e+000dB,-5.54279397595963e+001°)
2.53874000000000e+009	(-7.06504359348908e+000dB,-5.59835159911547e+001°)
2.55873000000000e+009	(-7.06176426082325e+000dB,-5.65408743393241e+001°)
2.57872000000000e+009	(-7.05884895958315e+000dB,-5.70999756889554e+001°)
2.59871000000000e+009	(-7.05630531929855e+000dB,-5.76607793961623e+001°)
2.61870000000000e+009	(-7.05414085475170e+000dB,-5.82232432968810e+001°)
2.63869000000000e+009	(-7.05236295770524e+000dB,-5.87873237176950e+001°)
2.65868000000000e+009	(-7.05097888859738e+000dB,-5.93529754889755e+001°)
2.67867000000000e+009	(-7.04999576822179e+000dB,-5.99201519603791e+001°)
2.69866000000000e+009	(-7.04942056940903e+000dB,-6.04888050187381e+001°)
2.71865000000000e+009	(-7.04926010872852e+000dB,-6.10588851083759e+001°)
2.73864000000000e+009	(-7.04952103822733e+000dB,-6.16303412538709e+001°)
2.75863000000000e+009	(-7.05020983722703e+000dB,-6.22031210852805e+001°)
2.77862000000000e+009	(-7.05133280419697e+000dB,-6.27771708658481e+001°)
2.79861000000000e+009	(-7.05289604872327e+000dB,-6.33524355221806e+001°)
2.81860000000000e+009	(-7.05490548359397e+000dB,-6.39288586769059e+001°)
2.83859000000000e+009	(-7.05736681702075e+000dB,-6.45063826837862e+001°)
2.85858000000000e+009	(-7.06028554501646e+000dB,-6.50849486652764e+001°)
2.87857000000000e+009	(-7.06366694395015e+000dB,-6.56644965524911e+001°)
2.89856000000000e+009	(-7.06751606329848e+000dB,-6.62449651275496e+001°)
2.91855000000000e+009	(-7.07183771861482e+000dB,-6.68262920682500e+001°)
2.93854000000000e+009	(-7.07663648473544e+000dB,-6.74084139950208e+001°)
2.95853000000000e+009	(-7.08191668924208e+000dB,-6.79912665200866e+001°)
2.97852000000000e+009	(-7.08768240620128e+000dB,-6.85747842987803e+001°)
2.99851000000000e+009	(-7.09393745019732e+000dB,-6.91589010829209e+001°)
3.01850000000000e+009	(-7.10068537067941e+000dB,-6.97435497761714e+001°)
3.03849000000000e+009	(-7.10792944663860e+000dB,-7.03286624912844e+001°)
3.05848000000000e+009	(-7.11567268163206e+000dB,-7.09141706091298e+001°)
3.07847000000000e+009	(-7.12391779917094e+000dB,-7.15000048393993e+001°)
3.09846000000000e+009	(-7.13266723848590e+000dB,-7.20860952828706e+001°)
3.11845000000000e+009	(-7.14192315068601e+000dB,-7.26723714951054e+001°)
3.13844000000000e+009	(-7.15168739532172e+000dB,-7.32587625514576e+001°)
3.15843000000000e+009	(-7.16196153736637e+000dB,-7.38451971132523e+001°)
3.17842000000000e+009	(-7.17274684462432e+000dB,-7.44316034949973e+001°)
3.19841000000000e+009	(-7.18404428557733e+000dB,-7.50179097324864e+001°)
3.21840000000000e+009	(-7.19585452767563e+000dB,-7.56040436516352e+001°)
3.23839000000000e+009	(-7.20817793608177e+000dB,-7.61899329379110e+001°)
3.25838000000000e+009	(-7.22101457287094e+000dB,-7.67755052061888e+001°)
3.27837000000000e+009	(-7.23436419669358e+000dB,-7.73606880708862e+001°)
3.29836000000000e+009	(-7.24822626290154e+000dB,-7.79454092162075e+001°)
3.31835000000000e+009	(-7.26259992413845e+000dB,-7.85295964663468e+001°)
3.33834000000000e+009	(-7.27748403139499e+000dB,-7.91131778554838e+001°)
3.35833000000000e+009	(-7.29287713552646e+000dB,-7.96960816974111e+001°)
3.37832000000000e+009	(-7.30877748922872e+000dB,-8.02782366546399e+001°)
3.39831000000000e+009	(-7.32518304946872e+000dB,-8.08595718068196e+001°)
3.41830000000000e+009	(-7.34209148036188e+000dB,-8.14400167183192e+001°)
3.43829000000000e+009	(-7.35950015648999e+000dB,-8.20195015048228e+001°)
3.45828000000000e+009	(-7.37740616664955e+000dB,-8.25979568987805e+001°)
3.47827000000000e+009	(-7.39580631802025e+000dB,-8.31753143135802e+001°)
3.49826000000000e+009	(-7.41469714074243e+000dB,-8.37515059062978e+001°)
3.51825000000000e+009	(-7.43407489288944e+000dB,-8.43264646388883e+001°)
3.53824000000000e+009	(-7.45393556582226e+000dB,-8.49001243376952e+001°)
3.55823000000000e+009	(-7.47427488991012e+000dB,-8.54724197511506e+001°)
3.57822000000000e+009	(-7.49508834060151e+000dB,-8.60432866055575e+001°)
3.59821000000000e+009	(-7.51637114482803e+000dB,-8.66126616588422e+001°)
3.61820000000000e+009	(-7.53811828772326e+000dB,-8.71804827521747e+001°)
3.63819000000000e+009	(-7.56032451963887e+000dB,-8.77466888593689e+001°)
3.65818000000000e+009	(-7.58298436343684e+000dB,-8.83112201339791e+001°)
3.67817000000000e+009	(-7.60609212203891e+000dB,-8.88740179540082e+001°)
3.69816000000000e+009	(-7.62964188621321e+000dB,-8.94350249641724e+001°)
3.71815000000000e+009	(-7.65362754257587e+000dB,-8.99941851156530e+001°)
3.73814000000000e+009	(-7.67804278178760e+000dB,-9.05514437032878e+001°)
3.75813000000000e+009	(-7.70288110692315e+000dB,-9.11067474001675e+001°)
3.77812000000000e+009	(-7.72813584199259e+000dB,-9.16600442895904e+001°)
3.79811000000000e+009	(-7.75380014059230e+000dB,-9.22112838943647e+001°)
3.81810000000000e+009	(-7.77986699466479e+000dB,-9.27604172034351e+001°)
3.83809000000000e+009	(-7.80632924334494e+000dB,-9.33073966958268e+001°)
3.85808000000000e+009	(-7.83317958187289e+000dB,-9.38521763619082e+001°)
3.87807000000000e+009	(-7.86041057055126e+000dB,-9.43947117219854e+001°)
3.89806000000000e+009	(-7.88801464372663e+000dB,-9.49349598422373e+001°)
3.91805000000000e+009	(-7.91598411877602e+000dB,-9.54728793480206e+001°)
3.93804000000000e+009	(-7.94431120507669e+000dB,-9.60084304345724e+001°)
3.95803000000000e+009	(-7.97298801294263e+000dB,-9.65415748751546e+001°)
3.97802000000000e+009	(-8.00200656250709e+000dB,-9.70722760266744e+001°)
3.99801000000000e+009	(-8.03135879253460e+000dB,-9.76004988328413e+001°)
4.01800000000000e+009	(-8.06103656914500e+000dB,-9.81262098249104e+001°)
4.03799000000000e+009	(-8.09103169443304e+000dB,-9.86493771200773e+001°)
4.05798000000000e+009	(-8.12133591496757e+000dB,-9.91699704175873e+001°)
4.07797000000000e+009	(-8.15194093015639e+000dB,-9.96879609926352e+001°)
4.09796000000000e+009	(-8.18283840046237e+000dB,-1.00203321688124e+002°)
4.11795000000000e+009	(-8.21401995545653e+000dB,-1.00716026904370e+002°)
4.13794000000000e+009	(-8.24547720169863e+000dB,-1.01226052586828e+002°)
4.15793000000000e+009	(-8.27720173043103e+000dB,-1.01733376211927e+002°)
4.17792000000000e+009	(-8.30918512507683e+000dB,-1.02237976771101e+002°)
4.19791000000000e+009	(-8.34141896853231e+000dB,-1.02739834753107e+002°)
4.21790000000000e+009	(-8.37389485024595e+000dB,-1.03238932124720e+002°)
4.23789000000000e+009	(-8.40660437307401e+000dB,-1.03735252309895e+002°)
4.25788000000000e+009	(-8.43953915990837e+000dB,-1.04228780167497e+002°)
4.27787000000000e+009	(-8.47269086006889e+000dB,-1.04719501967682e+002°)
4.29786000000000e+009	(-8.50605115545542e+000dB,-1.05207405367035e+002°)
4.31785000000000e+009	(-8.53961176645566e+000dB,-1.05692479382551e+002°)
4.33784000000000e+009	(-8.57336445760497e+000dB,-1.06174714364553e+002°)
4.35783000000000e+009	(-8.60730104299465e+000dB,-1.06654101968648e+002°)
4.37782000000000e+009	(-8.64141339142896e+000dB,-1.07130635126804e+002°)
4.39781000000000e+009	(-8.67569343132662e+000dB,-1.07604308017637e+002°)
4.41780000000000e+009	(-8.71013315536880e+000dB,-1.08075116036017e+002°)
4.43779000000000e+009	(-8.74472462489285e+000dB,-1.08543055762054e+002°)
4.45778000000000e+009	(-8.77945997403185e+000dB,-1.09008124929564e+002°)
4.47777000000000e+009	(-8.81433141360327e+000dB,-1.09470322394102e+002°)
4.49776000000000e+009	(-8.84933123474726e+000dB,-1.09929648100637e+002°)
4.51775000000000e+009	(-8.88445181231748e+000dB,-1.10386103050948e+002°)
4.53774000000000e+009	(-8.91968560802856e+000dB,-1.10839689270815e+002°)
4.55773000000000e+009	(-8.95502517336280e+000dB,-1.11290409777091e+002°)
4.57772000000000e+009	(-8.99046315224041e+000dB,-1.11738268544717e+002°)
4.59771000000000e+009	(-9.02599228345869e+000dB,-1.12183270473736e+002°)
4.61770000000000e+009	(-9.06160540290408e+000dB,-1.12625421356404e+002°)
4.63769000000000e+009	(-9.09729544554282e+000dB,-1.13064727844422e+002°)
4.65768000000000e+009	(-9.13305544719598e+000dB,-1.13501197416378e+002°)
4.67767000000000e+009	(-9.16887854610504e+000dB,-1.13934838345438e+002°)
4.69766000000000e+009	(-9.20475798429314e+000dB,-1.14365659667340e+002°)
4.71765000000000e+009	(-9.24068710873008e+000dB,-1.14793671148756e+002°)
4.73764000000000e+009	(-9.27665937230610e+000dB,-1.15218883256042e+002°)
4.75763000000000e+009	(-9.31266833462303e+000dB,-1.15641307124444e+002°)
4.77762000000000e+009	(-9.34870766260802e+000dB,-1.16060954527788e+002°)
4.79761000000000e+009	(-9.38477113095823e+000dB,-1.16477837848687e+002°)
4.81760000000000e+009	(-9.42085262242286e+000dB,-1.16891970049317e+002°)
4.83759000000000e+009	(-9.45694612793114e+000dB,-1.17303364642767e+002°)
4.85758000000000e+009	(-9.49304574657129e+000dB,-1.17712035665014e+002°)
4.87757000000000e+009	(-9.52914568543056e+000dB,-1.18117997647532e+002°)
4.89756000000000e+009	(-9.56524025930136e+000dB,-1.18521265590574e+002°)
4.91755000000000e+009	(-9.60132389026180e+000dB,-1.18921854937121e+002°)
4.93754000000000e+009	(-9.63739110713863e+000dB,-1.19319781547540e+002°)
4.95753000000000e+009	(-9.67343654485782e+000dB,-1.19715061674955e+002°)
4.97752000000000e+009	(-9.70945494369204e+000dB,-1.20107711941333e+002°)
4.99751000000000e+009	(-9.74544114841064e+000dB,-1.20497749314312e+002°)
5.01750000000000e+009	(-9.78139010733939e+000dB,-1.20885191084762e+002°)
5.03749000000000e+009	(-9.81729687133714e+000dB,-1.21270054845092e+002°)
5.05748000000000e+009	(-9.85315659269542e+000dB,-1.21652358468301e+002°)
5.07747000000000e+009	(-9.88896452396830e+000dB,-1.22032120087782e+002°)
5.09746000000000e+009	(-9.92471601673703e+000dB,-1.22409358077854e+002°)
5.11745000000000e+009	(-9.96040652031806e+000dB,-1.22784091035056e+002°)
5.13744000000000e+009	(-9.99603158041843e+000dB,-1.23156337760151e+002°)
5.15743000000000e+009	(-1.00315868377451e+001dB,-1.23526117240881e+002°)
5.17742000000000e+009	(-1.00670680265734e+001dB,-1.23893448635428e+002°)
5.19741000000000e+009	(-1.01024709732795e+001dB,-1.24258351256577e+002°)
5.21740000000000e+009	(-1.01377915948439e+001dB,-1.24620844556601e+002°)
5.23739000000000e+009	(-1.01730258973280e+001dB,-1.24980948112802e+002°)
5.25738000000000e+009	(-1.02081699743303e+001dB,-1.25338681613747e+002°)
5.27737000000000e+009	(-1.02432200054266e+001dB,-1.25694064846148e+002°)
5.29736000000000e+009	(-1.02781722545969e+001dB,-1.26047117682386e+002°)
5.31735000000000e+009	(-1.03130230686447e+001dB,-1.26397860068661e+002°)
5.33734000000000e+009	(-1.03477688756116e+001dB,-1.26746312013750e+002°)
5.35733000000000e+009	(-1.03824061831905e+001dB,-1.27092493578357e+002°)
5.37732000000000e+009	(-1.04169315771414e+001dB,-1.27436424865035e+002°)
5.39731000000000e+009	(-1.04513417197113e+001dB,-1.27778126008660e+002°)
5.41730000000000e+009	(-1.04856333480642e+001dB,-1.28117617167440e+002°)
5.43729000000000e+009	(-1.05198032727189e+001dB,-1.28454918514447e+002°)
5.45728000000000e+009	(-1.05538483760024e+001dB,-1.28790050229641e+002°)
