Freq.	mag(V(d_3p))
Step Information: R_s=10  (Run: 1/10)
2.00000000000000e+007	(-7.90482630507034e+000dB,0.00000000000000e+000°)
3.99900000000000e+007	(-7.90639448207617e+000dB,0.00000000000000e+000°)
5.99800000000000e+007	(-7.90636212145986e+000dB,0.00000000000000e+000°)
7.99700000000000e+007	(-7.90631541406979e+000dB,0.00000000000000e+000°)
9.99600000000000e+007	(-7.90682458178115e+000dB,0.00000000000000e+000°)
1.19950000000000e+008	(-7.90801587601656e+000dB,0.00000000000000e+000°)
1.39940000000000e+008	(-7.90978291733178e+000dB,0.00000000000000e+000°)
1.59930000000000e+008	(-7.91191813988507e+000dB,0.00000000000000e+000°)
1.79920000000000e+008	(-7.91419748786470e+000dB,0.00000000000000e+000°)
1.99910000000000e+008	(-7.91642926770037e+000dB,0.00000000000000e+000°)
2.19900000000000e+008	(-7.91847648084277e+000dB,0.00000000000000e+000°)
2.39890000000000e+008	(-7.92026073291022e+000dB,0.00000000000000e+000°)
2.59880000000000e+008	(-7.92175467950841e+000dB,0.00000000000000e+000°)
2.79870000000000e+008	(-7.92296890046028e+000dB,0.00000000000000e+000°)
2.99860000000000e+008	(-7.92393772614303e+000dB,0.00000000000000e+000°)
3.19850000000000e+008	(-7.92470689936740e+000dB,0.00000000000000e+000°)
3.39840000000000e+008	(-7.92532439061809e+000dB,0.00000000000000e+000°)
3.59830000000000e+008	(-7.92583451321548e+000dB,0.00000000000000e+000°)
3.79820000000000e+008	(-7.92627481679202e+000dB,0.00000000000000e+000°)
3.99810000000000e+008	(-7.92667499489307e+000dB,0.00000000000000e+000°)
4.19800000000000e+008	(-7.92705706987968e+000dB,0.00000000000000e+000°)
4.39790000000000e+008	(-7.92743627010582e+000dB,0.00000000000000e+000°)
4.59780000000000e+008	(-7.92782219267684e+000dB,0.00000000000000e+000°)
4.79770000000000e+008	(-7.92822000012120e+000dB,0.00000000000000e+000°)
4.99760000000000e+008	(-7.92863151446217e+000dB,0.00000000000000e+000°)
5.19750000000000e+008	(-7.92905614868460e+000dB,0.00000000000000e+000°)
5.39740000000000e+008	(-7.92949166163663e+000dB,0.00000000000000e+000°)
5.59730000000000e+008	(-7.92993474717323e+000dB,0.00000000000000e+000°)
5.79720000000000e+008	(-7.93038147955216e+000dB,0.00000000000000e+000°)
5.99710000000000e+008	(-7.93082764034640e+000dB,0.00000000000000e+000°)
6.19700000000000e+008	(-7.93126895115681e+000dB,0.00000000000000e+000°)
6.39690000000000e+008	(-7.93170123348309e+000dB,0.00000000000000e+000°)
6.59680000000000e+008	(-7.93212051356361e+000dB,0.00000000000000e+000°)
6.79670000000000e+008	(-7.93252308650513e+000dB,0.00000000000000e+000°)
6.99660000000000e+008	(-7.93290555091932e+000dB,0.00000000000000e+000°)
7.19650000000000e+008	(-7.93326482267569e+000dB,0.00000000000000e+000°)
7.39640000000000e+008	(-7.93359813426399e+000dB,0.00000000000000e+000°)
7.59630000000000e+008	(-7.93390302458985e+000dB,0.00000000000000e+000°)
7.79620000000000e+008	(-7.93417732273362e+000dB,0.00000000000000e+000°)
7.99610000000000e+008	(-7.93441912821536e+000dB,0.00000000000000e+000°)
8.19600000000000e+008	(-7.93462678956622e+000dB,0.00000000000000e+000°)
8.39590000000000e+008	(-7.93479888245043e+000dB,0.00000000000000e+000°)
8.59580000000000e+008	(-7.93493418817730e+000dB,0.00000000000000e+000°)
8.79570000000000e+008	(-7.93503167314266e+000dB,0.00000000000000e+000°)
8.99560000000000e+008	(-7.93509046952801e+000dB,0.00000000000000e+000°)
9.19550000000000e+008	(-7.93510985743102e+000dB,0.00000000000000e+000°)
9.39540000000000e+008	(-7.93508924849852e+000dB,0.00000000000000e+000°)
9.59530000000000e+008	(-7.93502817105935e+000dB,0.00000000000000e+000°)
9.79520000000000e+008	(-7.93492625670816e+000dB,0.00000000000000e+000°)
9.99510000000000e+008	(-7.93478322826207e+000dB,0.00000000000000e+000°)
1.01950000000000e+009	(-7.93459888899451e+000dB,0.00000000000000e+000°)
1.03949000000000e+009	(-7.93437311304290e+000dB,0.00000000000000e+000°)
1.05948000000000e+009	(-7.93410583688545e+000dB,0.00000000000000e+000°)
1.07947000000000e+009	(-7.93379705178383e+000dB,0.00000000000000e+000°)
1.09946000000000e+009	(-7.93344679709369e+000dB,0.00000000000000e+000°)
1.11945000000000e+009	(-7.93305515435040e+000dB,0.00000000000000e+000°)
1.13944000000000e+009	(-7.93262224204585e+000dB,0.00000000000000e+000°)
1.15943000000000e+009	(-7.93214821101781e+000dB,0.00000000000000e+000°)
1.17942000000000e+009	(-7.93163324038317e+000dB,0.00000000000000e+000°)
1.19941000000000e+009	(-7.93107753394973e+000dB,0.00000000000000e+000°)
1.21940000000000e+009	(-7.93048131705229e+000dB,0.00000000000000e+000°)
1.23939000000000e+009	(-7.92984483376162e+000dB,0.00000000000000e+000°)
1.25938000000000e+009	(-7.92916834442160e+000dB,0.00000000000000e+000°)
1.27937000000000e+009	(-7.92845212347607e+000dB,0.00000000000000e+000°)
1.29936000000000e+009	(-7.92769645754946e+000dB,0.00000000000000e+000°)
1.31935000000000e+009	(-7.92690164375198e+000dB,0.00000000000000e+000°)
1.33934000000000e+009	(-7.92606798818083e+000dB,0.00000000000000e+000°)
1.35933000000000e+009	(-7.92519580459560e+000dB,0.00000000000000e+000°)
1.37932000000000e+009	(-7.92428541324580e+000dB,0.00000000000000e+000°)
1.39931000000000e+009	(-7.92333713983312e+000dB,0.00000000000000e+000°)
1.41930000000000e+009	(-7.92235131459204e+000dB,0.00000000000000e+000°)
1.43929000000000e+009	(-7.92132827147556e+000dB,0.00000000000000e+000°)
1.45928000000000e+009	(-7.92026834743350e+000dB,0.00000000000000e+000°)
1.47927000000000e+009	(-7.91917188177201e+000dB,0.00000000000000e+000°)
1.49926000000000e+009	(-7.91803921558679e+000dB,0.00000000000000e+000°)
1.51925000000000e+009	(-7.91687069125955e+000dB,0.00000000000000e+000°)
1.53924000000000e+009	(-7.91566665201277e+000dB,0.00000000000000e+000°)
1.55923000000000e+009	(-7.91442744151417e+000dB,0.00000000000000e+000°)
1.57922000000000e+009	(-7.91315340352794e+000dB,0.00000000000000e+000°)
1.59921000000000e+009	(-7.91184488160518e+000dB,0.00000000000000e+000°)
1.61920000000000e+009	(-7.91050221881145e+000dB,0.00000000000000e+000°)
1.63919000000000e+009	(-7.90912575748655e+000dB,0.00000000000000e+000°)
1.65918000000000e+009	(-7.90771583903306e+000dB,0.00000000000000e+000°)
1.67917000000000e+009	(-7.90627280373138e+000dB,0.00000000000000e+000°)
1.69916000000000e+009	(-7.90479699057852e+000dB,0.00000000000000e+000°)
1.71915000000000e+009	(-7.90328873714719e+000dB,0.00000000000000e+000°)
1.73914000000000e+009	(-7.90174837946529e+000dB,0.00000000000000e+000°)
1.75913000000000e+009	(-7.90017625191136e+000dB,0.00000000000000e+000°)
1.77912000000000e+009	(-7.89857268712694e+000dB,0.00000000000000e+000°)
1.79911000000000e+009	(-7.89693801594176e+000dB,0.00000000000000e+000°)
1.81910000000000e+009	(-7.89527256731319e+000dB,0.00000000000000e+000°)
1.83909000000000e+009	(-7.89357666827597e+000dB,0.00000000000000e+000°)
1.85908000000000e+009	(-7.89185064390345e+000dB,0.00000000000000e+000°)
1.87907000000000e+009	(-7.89009481727801e+000dB,0.00000000000000e+000°)
1.89906000000000e+009	(-7.88830950947016e+000dB,0.00000000000000e+000°)
1.91905000000000e+009	(-7.88649503952586e+000dB,0.00000000000000e+000°)
1.93904000000000e+009	(-7.88465172446052e+000dB,0.00000000000000e+000°)
1.95903000000000e+009	(-7.88277987926006e+000dB,0.00000000000000e+000°)
1.97902000000000e+009	(-7.88087981688757e+000dB,0.00000000000000e+000°)
1.99901000000000e+009	(-7.87895184829510e+000dB,0.00000000000000e+000°)
2.01900000000000e+009	(-7.87699628244128e+000dB,0.00000000000000e+000°)
2.03899000000000e+009	(-7.87501342631178e+000dB,0.00000000000000e+000°)
2.05898000000000e+009	(-7.87300358494546e+000dB,0.00000000000000e+000°)
2.07897000000000e+009	(-7.87096706146246e+000dB,0.00000000000000e+000°)
2.09896000000000e+009	(-7.86890415709687e+000dB,0.00000000000000e+000°)
2.11895000000000e+009	(-7.86681517123129e+000dB,0.00000000000000e+000°)
2.13894000000000e+009	(-7.86470040143435e+000dB,0.00000000000000e+000°)
2.15893000000000e+009	(-7.86256014350078e+000dB,0.00000000000000e+000°)
2.17892000000000e+009	(-7.86039469149260e+000dB,0.00000000000000e+000°)
2.19891000000000e+009	(-7.85820433778307e+000dB,0.00000000000000e+000°)
2.21890000000000e+009	(-7.85598937310148e+000dB,0.00000000000000e+000°)
2.23889000000000e+009	(-7.85375008657929e+000dB,0.00000000000000e+000°)
2.25888000000000e+009	(-7.85148676579793e+000dB,0.00000000000000e+000°)
2.27887000000000e+009	(-7.84919969683667e+000dB,0.00000000000000e+000°)
2.29886000000000e+009	(-7.84688916432168e+000dB,0.00000000000000e+000°)
2.31885000000000e+009	(-7.84455545147588e+000dB,0.00000000000000e+000°)
2.33884000000000e+009	(-7.84219884016836e+000dB,0.00000000000000e+000°)
2.35883000000000e+009	(-7.83981961096496e+000dB,0.00000000000000e+000°)
2.37882000000000e+009	(-7.83741804317838e+000dB,0.00000000000000e+000°)
2.39881000000000e+009	(-7.83499441491845e+000dB,0.00000000000000e+000°)
2.41880000000000e+009	(-7.83254900314202e+000dB,0.00000000000000e+000°)
2.43879000000000e+009	(-7.83008208370304e+000dB,0.00000000000000e+000°)
2.45878000000000e+009	(-7.82759393140166e+000dB,0.00000000000000e+000°)
2.47877000000000e+009	(-7.82508482003313e+000dB,0.00000000000000e+000°)
2.49876000000000e+009	(-7.82255502243584e+000dB,0.00000000000000e+000°)
2.51875000000000e+009	(-7.82000481053919e+000dB,0.00000000000000e+000°)
2.53874000000000e+009	(-7.81743445540958e+000dB,0.00000000000000e+000°)
2.55873000000000e+009	(-7.81484422729644e+000dB,0.00000000000000e+000°)
2.57872000000000e+009	(-7.81223439567675e+000dB,0.00000000000000e+000°)
2.59871000000000e+009	(-7.80960522929824e+000dB,0.00000000000000e+000°)
2.61870000000000e+009	(-7.80695699622162e+000dB,0.00000000000000e+000°)
2.63869000000000e+009	(-7.80428996386150e+000dB,0.00000000000000e+000°)
2.65868000000000e+009	(-7.80160439902536e+000dB,0.00000000000000e+000°)
2.67867000000000e+009	(-7.79890056795150e+000dB,0.00000000000000e+000°)
2.69866000000000e+009	(-7.79617873634489e+000dB,0.00000000000000e+000°)
2.71865000000000e+009	(-7.79343916941172e+000dB,0.00000000000000e+000°)
2.73864000000000e+009	(-7.79068213189153e+000dB,0.00000000000000e+000°)
2.75863000000000e+009	(-7.78790788808734e+000dB,0.00000000000000e+000°)
2.77862000000000e+009	(-7.78511670189436e+000dB,0.00000000000000e+000°)
2.79861000000000e+009	(-7.78230883682564e+000dB,0.00000000000000e+000°)
2.81860000000000e+009	(-7.77948455603568e+000dB,0.00000000000000e+000°)
2.83859000000000e+009	(-7.77664412234187e+000dB,0.00000000000000e+000°)
2.85858000000000e+009	(-7.77378779824268e+000dB,0.00000000000000e+000°)
2.87857000000000e+009	(-7.77091584593371e+000dB,0.00000000000000e+000°)
2.89856000000000e+009	(-7.76802852732031e+000dB,0.00000000000000e+000°)
2.91855000000000e+009	(-7.76512610402758e+000dB,0.00000000000000e+000°)
2.93854000000000e+009	(-7.76220883740726e+000dB,0.00000000000000e+000°)
2.95853000000000e+009	(-7.75927698854077e+000dB,0.00000000000000e+000°)
2.97852000000000e+009	(-7.75633081823943e+000dB,0.00000000000000e+000°)
2.99851000000000e+009	(-7.75337058704042e+000dB,0.00000000000000e+000°)
3.01850000000000e+009	(-7.75039655519940e+000dB,0.00000000000000e+000°)
3.03849000000000e+009	(-7.74740898267907e+000dB,0.00000000000000e+000°)
3.05848000000000e+009	(-7.74440812913328e+000dB,0.00000000000000e+000°)
3.07847000000000e+009	(-7.74139425388725e+000dB,0.00000000000000e+000°)
3.09846000000000e+009	(-7.73836761591285e+000dB,0.00000000000000e+000°)
3.11845000000000e+009	(-7.73532847379977e+000dB,0.00000000000000e+000°)
3.13844000000000e+009	(-7.73227708572105e+000dB,0.00000000000000e+000°)
3.15843000000000e+009	(-7.72921370939456e+000dB,0.00000000000000e+000°)
3.17842000000000e+009	(-7.72613860203808e+000dB,0.00000000000000e+000°)
3.19841000000000e+009	(-7.72305202032008e+000dB,0.00000000000000e+000°)
3.21840000000000e+009	(-7.71995422030415e+000dB,0.00000000000000e+000°)
3.23839000000000e+009	(-7.71684545738808e+000dB,0.00000000000000e+000°)
3.25838000000000e+009	(-7.71372598623690e+000dB,0.00000000000000e+000°)
3.27837000000000e+009	(-7.71059606070979e+000dB,0.00000000000000e+000°)
3.29836000000000e+009	(-7.70745593378106e+000dB,0.00000000000000e+000°)
3.31835000000000e+009	(-7.70430585745437e+000dB,0.00000000000000e+000°)
3.33834000000000e+009	(-7.70114608267090e+000dB,0.00000000000000e+000°)
3.35833000000000e+009	(-7.69797685921082e+000dB,0.00000000000000e+000°)
3.37832000000000e+009	(-7.69479843558830e+000dB,0.00000000000000e+000°)
3.39831000000000e+009	(-7.69161105893961e+000dB,0.00000000000000e+000°)
3.41830000000000e+009	(-7.68841497490522e+000dB,0.00000000000000e+000°)
3.43829000000000e+009	(-7.68521042750443e+000dB,0.00000000000000e+000°)
3.45828000000000e+009	(-7.68199765900463e+000dB,0.00000000000000e+000°)
3.47827000000000e+009	(-7.67877690978328e+000dB,0.00000000000000e+000°)
3.49826000000000e+009	(-7.67554841818427e+000dB,0.00000000000000e+000°)
3.51825000000000e+009	(-7.67231242036809e+000dB,0.00000000000000e+000°)
3.53824000000000e+009	(-7.66906915015668e+000dB,0.00000000000000e+000°)
3.55823000000000e+009	(-7.66581883887275e+000dB,0.00000000000000e+000°)
3.57822000000000e+009	(-7.66256171517490e+000dB,0.00000000000000e+000°)
3.59821000000000e+009	(-7.65929800488793e+000dB,0.00000000000000e+000°)
3.61820000000000e+009	(-7.65602793082990e+000dB,0.00000000000000e+000°)
3.63819000000000e+009	(-7.65275171263679e+000dB,0.00000000000000e+000°)
3.65818000000000e+009	(-7.64946956658458e+000dB,0.00000000000000e+000°)
3.67817000000000e+009	(-7.64618170541071e+000dB,0.00000000000000e+000°)
3.69816000000000e+009	(-7.64288833813570e+000dB,0.00000000000000e+000°)
3.71815000000000e+009	(-7.63958966988601e+000dB,0.00000000000000e+000°)
3.73814000000000e+009	(-7.63628590171940e+000dB,0.00000000000000e+000°)
3.75813000000000e+009	(-7.63297723045470e+000dB,0.00000000000000e+000°)
3.77812000000000e+009	(-7.62966384850687e+000dB,0.00000000000000e+000°)
3.79811000000000e+009	(-7.62634594372986e+000dB,0.00000000000000e+000°)
3.81810000000000e+009	(-7.62302369926858e+000dB,0.00000000000000e+000°)
3.83809000000000e+009	(-7.61969729342167e+000dB,0.00000000000000e+000°)
3.85808000000000e+009	(-7.61636689951824e+000dB,0.00000000000000e+000°)
3.87807000000000e+009	(-7.61303268580977e+000dB,0.00000000000000e+000°)
3.89806000000000e+009	(-7.60969481537942e+000dB,0.00000000000000e+000°)
3.91805000000000e+009	(-7.60635344607234e+000dB,0.00000000000000e+000°)
3.93804000000000e+009	(-7.60300873044766e+000dB,0.00000000000000e+000°)
3.95803000000000e+009	(-7.59966081575631e+000dB,0.00000000000000e+000°)
3.97802000000000e+009	(-7.59630984394605e+000dB,0.00000000000000e+000°)
3.99801000000000e+009	(-7.59295595169657e+000dB,0.00000000000000e+000°)
4.01800000000000e+009	(-7.58959927048752e+000dB,0.00000000000000e+000°)
4.03799000000000e+009	(-7.58623992670103e+000dB,0.00000000000000e+000°)
4.05798000000000e+009	(-7.58287804176198e+000dB,0.00000000000000e+000°)
4.07797000000000e+009	(-7.57951373231716e+000dB,0.00000000000000e+000°)
4.09796000000000e+009	(-7.57614711045646e+000dB,0.00000000000000e+000°)
4.11795000000000e+009	(-7.57277828397588e+000dB,0.00000000000000e+000°)
4.13794000000000e+009	(-7.56940735668642e+000dB,0.00000000000000e+000°)
4.15793000000000e+009	(-7.56603442876775e+000dB,0.00000000000000e+000°)
4.17792000000000e+009	(-7.56265959716779e+000dB,0.00000000000000e+000°)
4.19791000000000e+009	(-7.55928295604904e+000dB,0.00000000000000e+000°)
4.21790000000000e+009	(-7.55590459728184e+000dB,0.00000000000000e+000°)
4.23789000000000e+009	(-7.55252461098173e+000dB,0.00000000000000e+000°)
4.25788000000000e+009	(-7.54914308609227e+000dB,0.00000000000000e+000°)
4.27787000000000e+009	(-7.54576011100992e+000dB,0.00000000000000e+000°)
4.29786000000000e+009	(-7.54237577424843e+000dB,0.00000000000000e+000°)
4.31785000000000e+009	(-7.53899016514055e+000dB,0.00000000000000e+000°)
4.33784000000000e+009	(-7.53560337457292e+000dB,0.00000000000000e+000°)
4.35783000000000e+009	(-7.53221549574938e+000dB,0.00000000000000e+000°)
4.37782000000000e+009	(-7.52882662497891e+000dB,0.00000000000000e+000°)
4.39781000000000e+009	(-7.52543686248159e+000dB,0.00000000000000e+000°)
4.41780000000000e+009	(-7.52204631320721e+000dB,0.00000000000000e+000°)
4.43779000000000e+009	(-7.51865508766021e+000dB,0.00000000000000e+000°)
4.45778000000000e+009	(-7.51526330272349e+000dB,0.00000000000000e+000°)
4.47777000000000e+009	(-7.51187108247477e+000dB,0.00000000000000e+000°)
4.49776000000000e+009	(-7.50847855898762e+000dB,0.00000000000000e+000°)
4.51775000000000e+009	(-7.50508587310926e+000dB,0.00000000000000e+000°)
4.53774000000000e+009	(-7.50169317520872e+000dB,0.00000000000000e+000°)
4.55773000000000e+009	(-7.49830062588713e+000dB,0.00000000000000e+000°)
4.57772000000000e+009	(-7.49490839664257e+000dB,0.00000000000000e+000°)
4.59771000000000e+009	(-7.49151667048385e+000dB,0.00000000000000e+000°)
4.61770000000000e+009	(-7.48812564248562e+000dB,0.00000000000000e+000°)
4.63769000000000e+009	(-7.48473552027895e+000dB,0.00000000000000e+000°)
4.65768000000000e+009	(-7.48134652447303e+000dB,0.00000000000000e+000°)
4.67767000000000e+009	(-7.47795888900267e+000dB,0.00000000000000e+000°)
4.69766000000000e+009	(-7.47457286139751e+000dB,0.00000000000000e+000°)
4.71765000000000e+009	(-7.47118870297152e+000dB,0.00000000000000e+000°)
4.73764000000000e+009	(-7.46780668892916e+000dB,0.00000000000000e+000°)
4.75763000000000e+009	(-7.46442710838880e+000dB,0.00000000000000e+000°)
4.77762000000000e+009	(-7.46105026432234e+000dB,0.00000000000000e+000°)
4.79761000000000e+009	(-7.45767647341234e+000dB,0.00000000000000e+000°)
4.81760000000000e+009	(-7.45430606582873e+000dB,0.00000000000000e+000°)
4.83759000000000e+009	(-7.45093938492832e+000dB,0.00000000000000e+000°)
4.85758000000000e+009	(-7.44757678687945e+000dB,0.00000000000000e+000°)
4.87757000000000e+009	(-7.44421864021825e+000dB,0.00000000000000e+000°)
4.89756000000000e+009	(-7.44086532533972e+000dB,0.00000000000000e+000°)
4.91755000000000e+009	(-7.43751723393072e+000dB,0.00000000000000e+000°)
4.93754000000000e+009	(-7.43417476835054e+000dB,0.00000000000000e+000°)
4.95753000000000e+009	(-7.43083834096607e+000dB,0.00000000000000e+000°)
4.97752000000000e+009	(-7.42750837344794e+000dB,0.00000000000000e+000°)
4.99751000000000e+009	(-7.42418529603556e+000dB,0.00000000000000e+000°)
5.01750000000000e+009	(-7.42086954677712e+000dB,0.00000000000000e+000°)
5.03749000000000e+009	(-7.41756157075291e+000dB,0.00000000000000e+000°)
5.05748000000000e+009	(-7.41426181928802e+000dB,0.00000000000000e+000°)
5.07747000000000e+009	(-7.41097074916162e+000dB,0.00000000000000e+000°)
5.09746000000000e+009	(-7.40768882181865e+000dB,0.00000000000000e+000°)
5.11745000000000e+009	(-7.40441650259095e+000dB,0.00000000000000e+000°)
5.13744000000000e+009	(-7.40115425993282e+000dB,0.00000000000000e+000°)
5.15743000000000e+009	(-7.39790256467586e+000dB,0.00000000000000e+000°)
5.17742000000000e+009	(-7.39466188930821e+000dB,0.00000000000000e+000°)
5.19741000000000e+009	(-7.39143270728202e+000dB,0.00000000000000e+000°)
5.21740000000000e+009	(-7.38821549235324e+000dB,0.00000000000000e+000°)
5.23739000000000e+009	(-7.38501071795468e+000dB,0.00000000000000e+000°)
5.25738000000000e+009	(-7.38181885660784e+000dB,0.00000000000000e+000°)
5.27737000000000e+009	(-7.37864037937193e+000dB,0.00000000000000e+000°)
5.29736000000000e+009	(-7.37547575533462e+000dB,0.00000000000000e+000°)
5.31735000000000e+009	(-7.37232545114228e+000dB,0.00000000000000e+000°)
5.33734000000000e+009	(-7.36918993057277e+000dB,0.00000000000000e+000°)
5.35733000000000e+009	(-7.36606965414862e+000dB,0.00000000000000e+000°)
5.37732000000000e+009	(-7.36296507879144e+000dB,0.00000000000000e+000°)
5.39731000000000e+009	(-7.35987665751607e+000dB,0.00000000000000e+000°)
5.41730000000000e+009	(-7.35680483916397e+000dB,0.00000000000000e+000°)
5.43729000000000e+009	(-7.35375006817355e+000dB,0.00000000000000e+000°)
5.45728000000000e+009	(-7.35071278438713e+000dB,0.00000000000000e+000°)
5.47727000000000e+009	(-7.34769342289154e+000dB,0.00000000000000e+000°)
5.49726000000000e+009	(-7.34469241389144e+000dB,0.00000000000000e+000°)
5.51725000000000e+009	(-7.34171018261263e+000dB,0.00000000000000e+000°)
