Freq.	V(d_3p)
2.00000000000000e+007	(-7.91532278968683e+000dB,-2.94020163725320e-001°)
3.99900000000000e+007	(-7.92406455794506e+000dB,-4.71674220134340e-001°)
5.99800000000000e+007	(-7.92642804775861e+000dB,-6.48664586026492e-001°)
7.99700000000000e+007	(-7.92686577378634e+000dB,-8.36368205351930e-001°)
9.99600000000000e+007	(-7.92700986722470e+000dB,-1.03125896272061e+000°)
1.19950000000000e+008	(-7.92737978383880e+000dB,-1.22932352253771e+000°)
1.39940000000000e+008	(-7.92804667817984e+000dB,-1.42767099049519e+000°)
1.59930000000000e+008	(-7.92889877698833e+000dB,-1.62460328789266e+000°)
1.79920000000000e+008	(-7.92976997378578e+000dB,-1.81939838032354e+000°)
1.99910000000000e+008	(-7.93050533739545e+000dB,-2.01202813221082e+000°)
2.19900000000000e+008	(-7.93099104296239e+000dB,-2.20288588506822e+000°)
2.39890000000000e+008	(-7.93116257246886e+000dB,-2.39255831607168e+000°)
2.59880000000000e+008	(-7.93100004863486e+000dB,-2.58165751716411e+000°)
2.79870000000000e+008	(-7.93051722648802e+000dB,-2.77071587271919e+000°)
2.99860000000000e+008	(-7.92974888731410e+000dB,-2.96013574946635e+000°)
3.19850000000000e+008	(-7.92873962566426e+000dB,-3.15017973478249e+000°)
3.39840000000000e+008	(-7.92753543369006e+000dB,-3.34098579100450e+000°)
3.59830000000000e+008	(-7.92617831300471e+000dB,-3.53259401686398e+000°)
3.79820000000000e+008	(-7.92470346901909e+000dB,-3.72497569885322e+000°)
3.99810000000000e+008	(-7.92313838692415e+000dB,-3.91805930644828e+000°)
4.19800000000000e+008	(-7.92150310033951e+000dB,-4.11175114370814e+000°)
4.39790000000000e+008	(-7.91981110107644e+000dB,-4.30595031470610e+000°)
4.59780000000000e+008	(-7.91807050532433e+000dB,-4.50055867284428e+000°)
4.79770000000000e+008	(-7.91628523830302e+000dB,-4.69548680394132e+000°)
4.99760000000000e+008	(-7.91445610900940e+000dB,-4.89065711151517e+000°)
5.19750000000000e+008	(-7.91258171966995e+000dB,-5.08600492291051e+000°)
5.39740000000000e+008	(-7.91065919841763e+000dB,-5.28147833310610e+000°)
5.59730000000000e+008	(-7.90868476724164e+000dB,-5.47703730893983e+000°)
5.79720000000000e+008	(-7.90665416777111e+000dB,-5.67265241464709e+000°)
5.99710000000000e+008	(-7.90456297033824e+000dB,-5.86830339543162e+000°)
6.19700000000000e+008	(-7.90240679059799e+000dB,-6.06397776582417e+000°)
6.39690000000000e+008	(-7.90018143497163e+000dB,-6.25966948727155e+000°)
6.59680000000000e+008	(-7.89788299259644e+000dB,-6.45537777793501e+000°)
6.79670000000000e+008	(-7.89550788796806e+000dB,-6.65110607119037e+000°)
6.99660000000000e+008	(-7.89305290536166e+000dB,-6.84686112320559e+000°)
7.19650000000000e+008	(-7.89051519351948e+000dB,-7.04265226080906e+000°)
7.39640000000000e+008	(-7.88789225698628e+000dB,-7.23849075621586e+000°)
7.59630000000000e+008	(-7.88518193881624e+000dB,-7.43438931337408e+000°)
7.79620000000000e+008	(-7.88238239809005e+000dB,-7.63036165059136e+000°)
7.99610000000000e+008	(-7.87949208470291e+000dB,-7.82642216496521e+000°)
8.19600000000000e+008	(-7.87650971314824e+000dB,-8.02258566548897e+000°)
8.39590000000000e+008	(-7.87343423647538e+000dB,-8.21886716324552e+000°)
8.59580000000000e+008	(-7.87026482119794e+000dB,-8.41528170865662e+000°)
8.79570000000000e+008	(-7.86700082363681e+000dB,-8.61184426722377e+000°)
8.99560000000000e+008	(-7.86364176797462e+000dB,-8.80856962653474e+000°)
9.19550000000000e+008	(-7.86018732615057e+000dB,-9.00547232848940e+000°)
9.39540000000000e+008	(-7.85663729962268e+000dB,-9.20256662172411e+000°)
9.59530000000000e+008	(-7.85299160295785e+000dB,-9.39986643009125e+000°)
9.79520000000000e+008	(-7.84925024916518e+000dB,-9.59738533379301e+000°)
9.99510000000000e+008	(-7.84541333666294e+000dB,-9.79513656039261e+000°)
1.01950000000000e+009	(-7.84148103775390e+000dB,-9.99313298344424e+000°)
1.03949000000000e+009	(-7.83745358848102e+000dB,-1.01913871269176e+001°)
1.05948000000000e+009	(-7.83333127973316e+000dB,-1.03899111739454e+001°)
1.07947000000000e+009	(-7.82911444947707e+000dB,-1.05887169787166e+001°)
1.09946000000000e+009	(-7.82480347599733e+000dB,-1.07878160805782e+001°)
1.11945000000000e+009	(-7.82039877203480e+000dB,-1.09872197196031e+001°)
1.13944000000000e+009	(-7.81590077972240e+000dB,-1.11869388530401e+001°)
1.15943000000000e+009	(-7.81130996622635e+000dB,-1.13869841721931e+001°)
1.17942000000000e+009	(-7.80662682000990e+000dB,-1.15873661193799e+001°)
1.19941000000000e+009	(-7.80185184764409e+000dB,-1.17880949047031e+001°)
1.21940000000000e+009	(-7.79698557109957e+000dB,-1.19891805224370e+001°)
1.23939000000000e+009	(-7.79202852545895e+000dB,-1.21906327668839e+001°)
1.25938000000000e+009	(-7.78698125699735e+000dB,-1.23924612475989e+001°)
1.27937000000000e+009	(-7.78184432158393e+000dB,-1.25946754039154e+001°)
1.29936000000000e+009	(-7.77661828336348e+000dB,-1.27972845187275e+001°)
1.31935000000000e+009	(-7.77130371368089e+000dB,-1.30002977315111e+001°)
1.33934000000000e+009	(-7.76590119021726e+000dB,-1.32037240505765e+001°)
1.35933000000000e+009	(-7.76041129630889e+000dB,-1.34075723645593e+001°)
1.37932000000000e+009	(-7.75483462042463e+000dB,-1.36118514531664e+001°)
1.39931000000000e+009	(-7.74917175578032e+000dB,-1.38165699971982e+001°)
1.41930000000000e+009	(-7.74342330007074e+000dB,-1.40217365878747e+001°)
1.43929000000000e+009	(-7.73758985530375e+000dB,-1.42273597354954e+001°)
1.45928000000000e+009	(-7.73167202772049e+000dB,-1.44334478774640e+001°)
1.47927000000000e+009	(-7.72567042779094e+000dB,-1.46400093857117e+001°)
1.49926000000000e+009	(-7.71958567027286e+000dB,-1.48470525735518e+001°)
1.51925000000000e+009	(-7.71341837432474e+000dB,-1.50545857019980e+001°)
1.53924000000000e+009	(-7.70716916366479e+000dB,-1.52626169855789e+001°)
1.55923000000000e+009	(-7.70083866676886e+000dB,-1.54711545976793e+001°)
1.57922000000000e+009	(-7.69442751710055e+000dB,-1.56802066754380e+001°)
1.59921000000000e+009	(-7.68793635336913e+000dB,-1.58897813242312e+001°)
1.61920000000000e+009	(-7.68136581980960e+000dB,-1.60998866217677e+001°)
1.63919000000000e+009	(-7.67471656648176e+000dB,-1.63105306218219e+001°)
1.65918000000000e+009	(-7.66798924958403e+000dB,-1.65217213576274e+001°)
1.67917000000000e+009	(-7.66118453178022e+000dB,-1.67334668449561e+001°)
1.69916000000000e+009	(-7.65430308253540e+000dB,-1.69457750849008e+001°)
1.71915000000000e+009	(-7.64734557845969e+000dB,-1.71586540663838e+001°)
1.73914000000000e+009	(-7.64031270365763e+000dB,-1.73721117684064e+001°)
1.75913000000000e+009	(-7.63320515008185e+000dB,-1.75861561620603e+001°)
1.77912000000000e+009	(-7.62602361788937e+000dB,-1.78007952123128e+001°)
1.79911000000000e+009	(-7.61876881579985e+000dB,-1.80160368795825e+001°)
1.81910000000000e+009	(-7.61144146145411e+000dB,-1.82318891211181e+001°)
1.83909000000000e+009	(-7.60404228177353e+000dB,-1.84483598921936e+001°)
1.85908000000000e+009	(-7.59657201331753e+000dB,-1.86654571471290e+001°)
1.87907000000000e+009	(-7.58903140264089e+000dB,-1.88831888401503e+001°)
1.89906000000000e+009	(-7.58142120664870e+000dB,-1.91015629260952e+001°)
1.91905000000000e+009	(-7.57374219294953e+000dB,-1.93205873609754e+001°)
1.93904000000000e+009	(-7.56599514020615e+000dB,-1.95402701024029e+001°)
1.95903000000000e+009	(-7.55818083848380e+000dB,-1.97606191098873e+001°)
1.97902000000000e+009	(-7.55030008959544e+000dB,-1.99816423450116e+001°)
1.99901000000000e+009	(-7.54235370744448e+000dB,-2.02033477714921e+001°)
2.01900000000000e+009	(-7.53434251836395e+000dB,-2.04257433551277e+001°)
2.03899000000000e+009	(-7.52626736145324e+000dB,-2.06488370636452e+001°)
2.05898000000000e+009	(-7.51812908891107e+000dB,-2.08726368664427e+001°)
2.07897000000000e+009	(-7.50992856636578e+000dB,-2.10971507342377e+001°)
2.09896000000000e+009	(-7.50166667320215e+000dB,-2.13223866386221e+001°)
2.11895000000000e+009	(-7.49334430288519e+000dB,-2.15483525515282e+001°)
2.13894000000000e+009	(-7.48496236328053e+000dB,-2.17750564446080e+001°)
2.15893000000000e+009	(-7.47652177697190e+000dB,-2.20025062885297e+001°)
2.17892000000000e+009	(-7.46802348157513e+000dB,-2.22307100521925e+001°)
2.19891000000000e+009	(-7.45946843004923e+000dB,-2.24596757018621e+001°)
2.21890000000000e+009	(-7.45085759100424e+000dB,-2.26894112002298e+001°)
2.23889000000000e+009	(-7.44219194900569e+000dB,-2.29199245053953e+001°)
2.25888000000000e+009	(-7.43347250487631e+000dB,-2.31512235697756e+001°)
2.27887000000000e+009	(-7.42470027599414e+000dB,-2.33833163389408e+001°)
2.29886000000000e+009	(-7.41587629658787e+000dB,-2.36162107503782e+001°)
2.31885000000000e+009	(-7.40700161802853e+000dB,-2.38499147321843e+001°)
2.33884000000000e+009	(-7.39807730911823e+000dB,-2.40844362016875e+001°)
2.35883000000000e+009	(-7.38910445637562e+000dB,-2.43197830639998e+001°)
2.37882000000000e+009	(-7.38008416431780e+000dB,-2.45559632104993e+001°)
2.39881000000000e+009	(-7.37101755573901e+000dB,-2.47929845172435e+001°)
2.41880000000000e+009	(-7.36190577198572e+000dB,-2.50308548433127e+001°)
2.43879000000000e+009	(-7.35274997322821e+000dB,-2.52695820290852e+001°)
2.45878000000000e+009	(-7.34355133872840e+000dB,-2.55091738944422e+001°)
2.47877000000000e+009	(-7.33431106710394e+000dB,-2.57496382369042e+001°)
2.49876000000000e+009	(-7.32503037658831e+000dB,-2.59909828296975e+001°)
2.51875000000000e+009	(-7.31571050528674e+000dB,-2.62332154197501e+001°)
2.53874000000000e+009	(-7.30635271142820e+000dB,-2.64763437256195e+001°)
2.55873000000000e+009	(-7.29695827361247e+000dB,-2.67203754353469e+001°)
2.57872000000000e+009	(-7.28752849105305e+000dB,-2.69653182042434e+001°)
2.59871000000000e+009	(-7.27806468381479e+000dB,-2.72111796526023e+001°)
2.61870000000000e+009	(-7.26856819304678e+000dB,-2.74579673633414e+001°)
2.63869000000000e+009	(-7.25904038120965e+000dB,-2.77056888795708e+001°)
2.65868000000000e+009	(-7.24948263229738e+000dB,-2.79543517020898e+001°)
2.67867000000000e+009	(-7.23989635205323e+000dB,-2.82039632868087e+001°)
2.69866000000000e+009	(-7.23028296817928e+000dB,-2.84545310420975e+001°)
2.71865000000000e+009	(-7.22064393053963e+000dB,-2.87060623260594e+001°)
2.73864000000000e+009	(-7.21098071135665e+000dB,-2.89585644437299e+001°)
2.75863000000000e+009	(-7.20129480539984e+000dB,-2.92120446442006e+001°)
2.77862000000000e+009	(-7.19158773016713e+000dB,-2.94665101176660e+001°)
2.79861000000000e+009	(-7.18186102605811e+000dB,-2.97219679923956e+001°)
2.81860000000000e+009	(-7.17211625653875e+000dB,-2.99784253316288e+001°)
2.83859000000000e+009	(-7.16235500829696e+000dB,-3.02358891303933e+001°)
2.85858000000000e+009	(-7.15257889138902e+000dB,-3.04943663122468e+001°)
2.87857000000000e+009	(-7.14278953937574e+000dB,-3.07538637259421e+001°)
2.89856000000000e+009	(-7.13298860944823e+000dB,-3.10143881420153e+001°)
2.91855000000000e+009	(-7.12317778254263e+000dB,-3.12759462492974e+001°)
2.93854000000000e+009	(-7.11335876344328e+000dB,-3.15385446513509e+001°)
2.95853000000000e+009	(-7.10353328087353e+000dB,-3.18021898628299e+001°)
2.97852000000000e+009	(-7.09370308757364e+000dB,-3.20668883057654e+001°)
2.99851000000000e+009	(-7.08386996036551e+000dB,-3.23326463057776e+001°)
3.01850000000000e+009	(-7.07403570020289e+000dB,-3.25994700882147e+001°)
3.03849000000000e+009	(-7.06420213220681e+000dB,-3.28673657742202e+001°)
3.05848000000000e+009	(-7.05437110568560e+000dB,-3.31363393767307e+001°)
3.07847000000000e+009	(-7.04454449413857e+000dB,-3.34063967964058e+001°)
3.09846000000000e+009	(-7.03472419524242e+000dB,-3.36775438174921e+001°)
3.11845000000000e+009	(-7.02491213082012e+000dB,-3.39497861036228e+001°)
3.13844000000000e+009	(-7.01511024679101e+000dB,-3.42231291935583e+001°)
3.15843000000000e+009	(-7.00532051310151e+000dB,-3.44975784968681e+001°)
3.17842000000000e+009	(-6.99554492363596e+000dB,-3.47731392895595e+001°)
3.19841000000000e+009	(-6.98578549610593e+000dB,-3.50498167096556e+001°)
3.21840000000000e+009	(-6.97604427191803e+000dB,-3.53276157527285e+001°)
3.23839000000000e+009	(-6.96632331601916e+000dB,-3.56065412673913e+001°)
3.25838000000000e+009	(-6.95662471671803e+000dB,-3.58865979507537e+001°)
3.27837000000000e+009	(-6.94695058548260e+000dB,-3.61677903438503e+001°)
3.29836000000000e+009	(-6.93730305671263e+000dB,-3.64501228270428e+001°)
3.31835000000000e+009	(-6.92768428748606e+000dB,-3.67335996154082e+001°)
3.33834000000000e+009	(-6.91809645727914e+000dB,-3.70182247541164e+001°)
3.35833000000000e+009	(-6.90854176765920e+000dB,-3.73040021138079e+001°)
3.37832000000000e+009	(-6.89902244194958e+000dB,-3.75909353859795e+001°)
3.39831000000000e+009	(-6.88954072486601e+000dB,-3.78790280783867e+001°)
3.41830000000000e+009	(-6.88009888212379e+000dB,-3.81682835104734e+001°)
3.43829000000000e+009	(-6.87069920001579e+000dB,-3.84587048088401e+001°)
3.45828000000000e+009	(-6.86134398496011e+000dB,-3.87502949027603e+001°)
3.47827000000000e+009	(-6.85203556301783e+000dB,-3.90430565197589e+001°)
3.49826000000000e+009	(-6.84277627938035e+000dB,-3.93369921812637e+001°)
3.51825000000000e+009	(-6.83356849782605e+000dB,-3.96321041983429e+001°)
3.53824000000000e+009	(-6.82441460014672e+000dB,-3.99283946675453e+001°)
3.55823000000000e+009	(-6.81531698554398e+000dB,-4.02258654668526e+001°)
3.57822000000000e+009	(-6.80627806999560e+000dB,-4.05245182517638e+001°)
3.59821000000000e+009	(-6.79730028559295e+000dB,-4.08243544515223e+001°)
3.61820000000000e+009	(-6.78838607985001e+000dB,-4.11253752655055e+001°)
3.63819000000000e+009	(-6.77953791498471e+000dB,-4.14275816597885e+001°)
3.65818000000000e+009	(-6.77075826717442e+000dB,-4.17309743639018e+001°)
3.67817000000000e+009	(-6.76204962578645e+000dB,-4.20355538677964e+001°)
3.69816000000000e+009	(-6.75341449258581e+000dB,-4.23413204190338e+001°)
3.71815000000000e+009	(-6.74485538092164e+000dB,-4.26482740202151e+001°)
3.73814000000000e+009	(-6.73637481489526e+000dB,-4.29564144266661e+001°)
3.75813000000000e+009	(-6.72797532851182e+000dB,-4.32657411443917e+001°)
3.77812000000000e+009	(-6.71965946481870e+000dB,-4.35762534283136e+001°)
3.79811000000000e+009	(-6.71142977503396e+000dB,-4.38879502808048e+001°)
3.81810000000000e+009	(-6.70328881766804e+000dB,-4.42008304505313e+001°)
3.83809000000000e+009	(-6.69523915764254e+000dB,-4.45148924316099e+001°)
3.85808000000000e+009	(-6.68728336541053e+000dB,-4.48301344630937e+001°)
3.87807000000000e+009	(-6.67942401608209e+000dB,-4.51465545287841e+001°)
3.89806000000000e+009	(-6.67166368856027e+000dB,-4.54641503573804e+001°)
3.91805000000000e+009	(-6.66400496469204e+000dB,-4.57829194229608e+001°)
3.93804000000000e+009	(-6.65645042843935e+000dB,-4.61028589457955e+001°)
3.95803000000000e+009	(-6.64900266507555e+000dB,-4.64239658934853e+001°)
3.97802000000000e+009	(-6.64166426041231e+000dB,-4.67462369824136e+001°)
3.99801000000000e+009	(-6.63443780006280e+000dB,-4.70696686795022e+001°)
4.01800000000000e+009	(-6.62732586874623e+000dB,-4.73942572042480e+001°)
4.03799000000000e+009	(-6.62033104963895e+000dB,-4.77199985310217e+001°)
4.05798000000000e+009	(-6.61345592377784e+000dB,-4.80468883916005e+001°)
4.07797000000000e+009	(-6.60670306952042e+000dB,-4.83749222779027e+001°)
4.09796000000000e+009	(-6.60007506206645e+000dB,-4.87040954448879e+001°)
4.11795000000000e+009	(-6.59357447304513e+000dB,-4.90344029135829e+001°)
4.13794000000000e+009	(-6.58720387017210e+000dB,-4.93658394741867e+001°)
4.15793000000000e+009	(-6.58096581697833e+000dB,-4.96983996892052e+001°)
4.17792000000000e+009	(-6.57486287261420e+000dB,-5.00320778965616e+001°)
4.19791000000000e+009	(-6.56889759172989e+000dB,-5.03668682126261e+001°)
4.21790000000000e+009	(-6.56307252443212e+000dB,-5.07027645351014e+001°)
4.23789000000000e+009	(-6.55739021631819e+000dB,-5.10397605457057e+001°)
4.25788000000000e+009	(-6.55185320858403e+000dB,-5.13778497125836e+001°)
4.27787000000000e+009	(-6.54646403820504e+000dB,-5.17170252923828e+001°)
4.29786000000000e+009	(-6.54122523818488e+000dB,-5.20572803319282e+001°)
4.31785000000000e+009	(-6.53613933786747e+000dB,-5.23986076694317e+001°)
4.33784000000000e+009	(-6.53120886330533e+000dB,-5.27409999351721e+001°)
4.35783000000000e+009	(-6.52643633767682e+000dB,-5.30844495515877e+001°)
4.37782000000000e+009	(-6.52182428174296e+000dB,-5.34289487327267e+001°)
4.39781000000000e+009	(-6.51737521433380e+000dB,-5.37744894830051e+001°)
4.41780000000000e+009	(-6.51309165285245e+000dB,-5.41210635952296e+001°)
4.43779000000000e+009	(-6.50897611378519e+000dB,-5.44686626478526e+001°)
4.45778000000000e+009	(-6.50503111320327e+000dB,-5.48172780014303e+001°)
4.47777000000000e+009	(-6.50125916724337e+000dB,-5.51669007942729e+001°)
4.49776000000000e+009	(-6.49766279255112e+000dB,-5.55175219372746e+001°)
4.51775000000000e+009	(-6.49424450667325e+000dB,-5.58691321079382e+001°)
4.53774000000000e+009	(-6.49100682838326e+000dB,-5.62217217436051e+001°)
4.55773000000000e+009	(-6.48795227792503e+000dB,-5.65752810339246e+001°)
4.57772000000000e+009	(-6.48508337716038e+000dB,-5.69297999126049e+001°)
4.59771000000000e+009	(-6.48240264960532e+000dB,-5.72852680484986e+001°)
4.61770000000000e+009	(-6.47991262034319e+000dB,-5.76416748360902e+001°)
4.63769000000000e+009	(-6.47761581580092e+000dB,-5.79990093854639e+001°)
4.65768000000000e+009	(-6.47551476337830e+000dB,-5.83572605118349e+001°)
4.67767000000000e+009	(-6.47361199092039e+000dB,-5.87164167247459e+001°)
4.69766000000000e+009	(-6.47191002602532e+000dB,-5.90764662170299e+001°)
4.71765000000000e+009	(-6.47041139518163e+000dB,-5.94373968536509e+001°)
4.73764000000000e+009	(-6.46911862273071e+000dB,-5.97991961605376e+001°)
4.75763000000000e+009	(-6.46803422965221e+000dB,-6.01618513135293e+001°)
4.77762000000000e+009	(-6.46716073217341e+000dB,-6.05253491275544e+001°)
4.79761000000000e+009	(-6.46650064020300e+000dB,-6.08896760461597e+001°)
4.81760000000000e+009	(-6.46605645559505e+000dB,-6.12548181315096e+001°)
4.83759000000000e+009	(-6.46583067024815e+000dB,-6.16207610549674e+001°)
4.85758000000000e+009	(-6.46582576404861e+000dB,-6.19874900883693e+001°)
4.87757000000000e+009	(-6.46604420266656e+000dB,-6.23549900960883e+001°)
4.89756000000000e+009	(-6.46648843521739e+000dB,-6.27232455279849e+001°)
4.91755000000000e+009	(-6.46716089180041e+000dB,-6.30922404133270e+001°)
4.93754000000000e+009	(-6.46806398092931e+000dB,-6.34619583557504e+001°)
4.95753000000000e+009	(-6.46920008686894e+000dB,-6.38323825293237e+001°)
4.97752000000000e+009	(-6.47057156689435e+000dB,-6.42034956757678e+001°)
4.99751000000000e+009	(-6.47218074848838e+000dB,-6.45752801028677e+001°)
5.01750000000000e+009	(-6.47402992649392e+000dB,-6.49477176841040e+001°)
5.03749000000000e+009	(-6.47612136023742e+000dB,-6.53207898595173e+001°)
5.05748000000000e+009	(-6.47845727064089e+000dB,-6.56944776378102e+001°)
5.07747000000000e+009	(-6.48103983733663e+000dB,-6.60687615996784e+001°)
5.09746000000000e+009	(-6.48387119580226e+000dB,-6.64436219023512e+001°)
5.11745000000000e+009	(-6.48695343452894e+000dB,-6.68190382853158e+001°)
5.13744000000000e+009	(-6.49028859223801e+000dB,-6.71949900771878e+001°)
5.15743000000000e+009	(-6.49387865515807e+000dB,-6.75714562036813e+001°)
5.17742000000000e+009	(-6.49772555437538e+000dB,-6.79484151966330e+001°)
5.19741000000000e+009	(-6.50183116326734e+000dB,-6.83258452040183e+001°)
5.21740000000000e+009	(-6.50619729502941e+000dB,-6.87037240008997e+001°)
5.23739000000000e+009	(-6.51082570030350e+000dB,-6.90820290012449e+001°)
5.25738000000000e+009	(-6.51571806491536e+000dB,-6.94607372705443e+001°)
5.27737000000000e+009	(-6.52087600772691e+000dB,-6.98398255391599e+001°)
5.29736000000000e+009	(-6.52630107860820e+000dB,-7.02192702163350e+001°)
5.31735000000000e+009	(-6.53199475653332e+000dB,-7.05990474047982e+001°)
5.33734000000000e+009	(-6.53795844780276e+000dB,-7.09791329158867e+001°)
5.35733000000000e+009	(-6.54419348439406e+000dB,-7.13595022851278e+001°)
5.37732000000000e+009	(-6.55070112244154e+000dB,-7.17401307882078e+001°)
5.39731000000000e+009	(-6.55748254084557e+000dB,-7.21209934572691e+001°)
5.41730000000000e+009	(-6.56453884001054e+000dB,-7.25020650974724e+001°)
5.43729000000000e+009	(-6.57187104071010e+000dB,-7.28833203037675e+001°)
5.45728000000000e+009	(-6.57948008307769e+000dB,-7.32647334778195e+001°)
