Freq.	V(d_3p)
2.00000000000000e+007	(-7.94590718254499e+000dB,-5.00106888649389e-001°)
3.99900000000000e+007	(-7.95487839248712e+000dB,-8.93414791642734e-001°)
5.99800000000000e+007	(-7.95895344261569e+000dB,-1.28327761473216e+000°)
7.99700000000000e+007	(-7.96160796176242e+000dB,-1.67619583292472e+000°)
9.99600000000000e+007	(-7.96381599632841e+000dB,-2.07025826908817e+000°)
1.19950000000000e+008	(-7.96585765499579e+000dB,-2.46376402774801e+000°)
1.39940000000000e+008	(-7.96778471045008e+000dB,-2.85563615678637e+000°)
1.59930000000000e+008	(-7.96956071115774e+000dB,-3.24524152530173e+000°)
1.79920000000000e+008	(-7.97110745591363e+000dB,-3.63225809034697e+000°)
1.99910000000000e+008	(-7.97232097468985e+000dB,-4.01662946199171e+000°)
2.19900000000000e+008	(-7.97307959889549e+000dB,-4.39860489405426e+000°)
2.39890000000000e+008	(-7.97326001736660e+000dB,-4.77885218679089e+000°)
2.59880000000000e+008	(-7.97277771595928e+000dB,-5.15855907073707e+000°)
2.79870000000000e+008	(-7.97165374050854e+000dB,-5.53929882804604e+000°)
2.99860000000000e+008	(-7.97006170839228e+000dB,-5.92243548696896e+000°)
3.19850000000000e+008	(-7.96827489201666e+000dB,-6.30832556985861e+000°)
3.39840000000000e+008	(-7.96651930843888e+000dB,-6.69611814107652e+000°)
3.59830000000000e+008	(-7.96486829956332e+000dB,-7.08443326749021e+000°)
3.79820000000000e+008	(-7.96326231310289e+000dB,-7.47217801910125e+000°)
3.99810000000000e+008	(-7.96159063050399e+000dB,-7.85885040073947e+000°)
4.19800000000000e+008	(-7.95975209129388e+000dB,-8.24441503120403e+000°)
4.39790000000000e+008	(-7.95767629078172e+000dB,-8.62907719892802e+000°)
4.59780000000000e+008	(-7.95532206600137e+000dB,-9.01312082833191e+000°)
4.79770000000000e+008	(-7.95266928660540e+000dB,-9.39682671045587e+000°)
4.99760000000000e+008	(-7.94971111659372e+000dB,-9.78044169986256e+000°)
5.19750000000000e+008	(-7.94644850383959e+000dB,-1.01641725591372e+001°)
5.39740000000000e+008	(-7.94288668381166e+000dB,-1.05481894785867e+001°)
5.59730000000000e+008	(-7.93903308683864e+000dB,-1.09326323175364e+001°)
5.79720000000000e+008	(-7.93489612815565e+000dB,-1.13176167983859e+001°)
5.99710000000000e+008	(-7.93048452725243e+000dB,-1.17032397663323e+001°)
6.19700000000000e+008	(-7.92580693712750e+000dB,-1.20895833814661e+001°)
6.39690000000000e+008	(-7.92087175266190e+000dB,-1.24767183684772e+001°)
6.59680000000000e+008	(-7.91568702154177e+000dB,-1.28647065085977e+001°)
6.79670000000000e+008	(-7.91026041321928e+000dB,-1.32536025465494e+001°)
6.99660000000000e+008	(-7.90459922008797e+000dB,-1.36434556537399e+001°)
7.19650000000000e+008	(-7.89871037590068e+000dB,-1.40343105567790e+001°)
7.39640000000000e+008	(-7.89260048276355e+000dB,-1.44262084133903e+001°)
7.59630000000000e+008	(-7.88627584172066e+000dB,-1.48191874968265e+001°)
7.79620000000000e+008	(-7.87974248409945e+000dB,-1.52132837341796e+001°)
7.99610000000000e+008	(-7.87300620205299e+000dB,-1.56085311323787e+001°)
8.19600000000000e+008	(-7.86607257748121e+000dB,-1.60049621171728e+001°)
8.39590000000000e+008	(-7.85894700894931e+000dB,-1.64026078041545e+001°)
8.59580000000000e+008	(-7.85163473647564e+000dB,-1.68014982162971e+001°)
8.79570000000000e+008	(-7.84414086420321e+000dB,-1.72016624590756e+001°)
8.99560000000000e+008	(-7.83647038105041e+000dB,-1.76031288617136e+001°)
9.19550000000000e+008	(-7.82862817947349e+000dB,-1.80059250911967e+001°)
9.39540000000000e+008	(-7.82061907249041e+000dB,-1.84100782442489e+001°)
9.59530000000000e+008	(-7.81244780911894e+000dB,-1.88156149213753e+001°)
9.79520000000000e+008	(-7.80411908837673e+000dB,-1.92225612862247e+001°)
9.99510000000000e+008	(-7.79563757198205e+000dB,-1.96309431128741e+001°)
1.01950000000000e+009	(-7.78700789588325e+000dB,-2.00407858231223e+001°)
1.03949000000000e+009	(-7.77823468073439e+000dB,-2.04521145154826e+001°)
1.05948000000000e+009	(-7.76932254142193e+000dB,-2.08649539872403e+001°)
1.07947000000000e+009	(-7.76027609573779e+000dB,-2.12793287506945e+001°)
1.09946000000000e+009	(-7.75109997228367e+000dB,-2.16952630444955e+001°)
1.11945000000000e+009	(-7.74179881768224e+000dB,-2.21127808408283e+001°)
1.13944000000000e+009	(-7.73237730316284e+000dB,-2.25319058490614e+001°)
1.15943000000000e+009	(-7.72284013058153e+000dB,-2.29526615163714e+001°)
1.17942000000000e+009	(-7.71319203792908e+000dB,-2.33750710257669e+001°)
1.19941000000000e+009	(-7.70343780437340e+000dB,-2.37991572918645e+001°)
1.21940000000000e+009	(-7.69358225487930e+000dB,-2.42249429547092e+001°)
1.23939000000000e+009	(-7.68363026444168e+000dB,-2.46524503718850e+001°)
1.25938000000000e+009	(-7.67358676196548e+000dB,-2.50817016091185e+001°)
1.27937000000000e+009	(-7.66345673382092e+000dB,-2.55127184295490e+001°)
1.29936000000000e+009	(-7.65324522710002e+000dB,-2.59455222818068e+001°)
1.31935000000000e+009	(-7.64295735259624e+000dB,-2.63801342870220e+001°)
1.33934000000000e+009	(-7.63259828752752e+000dB,-2.68165752248646e+001°)
1.35933000000000e+009	(-7.62217327801953e+000dB,-2.72548655187024e+001°)
1.37932000000000e+009	(-7.61168764136442e+000dB,-2.76950252199487e+001°)
1.39931000000000e+009	(-7.60114676806823e+000dB,-2.81370739916628e+001°)
1.41930000000000e+009	(-7.59055612369798e+000dB,-2.85810310914538e+001°)
1.43929000000000e+009	(-7.57992125053882e+000dB,-2.90269153537362e+001°)
1.45928000000000e+009	(-7.56924776906857e+000dB,-2.94747451713722e+001°)
1.47927000000000e+009	(-7.55854137925751e+000dB,-2.99245384767382e+001°)
1.49926000000000e+009	(-7.54780786169912e+000dB,-3.03763127222441e+001°)
1.51925000000000e+009	(-7.53705307857607e+000dB,-3.08300848603317e+001°)
1.53924000000000e+009	(-7.52628297446592e+000dB,-3.12858713229773e+001°)
1.55923000000000e+009	(-7.51550357698925e+000dB,-3.17436880007214e+001°)
1.57922000000000e+009	(-7.50472099730216e+000dB,-3.22035502212444e+001°)
1.59921000000000e+009	(-7.49394143043550e+000dB,-3.26654727275118e+001°)
1.61920000000000e+009	(-7.48317115548068e+000dB,-3.31294696555059e+001°)
1.63919000000000e+009	(-7.47241653562310e+000dB,-3.35955545115650e+001°)
1.65918000000000e+009	(-7.46168401802256e+000dB,-3.40637401493497e+001°)
1.67917000000000e+009	(-7.45098013354076e+000dB,-3.45340387464579e+001°)
1.69916000000000e+009	(-7.44031149631347e+000dB,-3.50064617807062e+001°)
1.71915000000000e+009	(-7.42968480316769e+000dB,-3.54810200061051e+001°)
1.73914000000000e+009	(-7.41910683288040e+000dB,-3.59577234285462e+001°)
1.75913000000000e+009	(-7.40858444527830e+000dB,-3.64365812812296e+001°)
1.77912000000000e+009	(-7.39812458017534e+000dB,-3.69176019998553e+001°)
1.79911000000000e+009	(-7.38773425614615e+000dB,-3.74007931976082e+001°)
1.81910000000000e+009	(-7.37742056913245e+000dB,-3.78861616399643e+001°)
1.83909000000000e+009	(-7.36719069088046e+000dB,-3.83737132193523e+001°)
1.85908000000000e+009	(-7.35705186720521e+000dB,-3.88634529296997e+001°)
1.87907000000000e+009	(-7.34701141608055e+000dB,-3.93553848409033e+001°)
1.89906000000000e+009	(-7.33707672555072e+000dB,-3.98495120732589e+001°)
1.91905000000000e+009	(-7.32725525146135e+000dB,-4.03458367718896e+001°)
1.93904000000000e+009	(-7.31755451500696e+000dB,-4.08443600812167e+001°)
1.95903000000000e+009	(-7.30798210009229e+000dB,-4.13450821195154e+001°)
1.97902000000000e+009	(-7.29854565050489e+000dB,-4.18480019536023e+001°)
1.99901000000000e+009	(-7.28925286689682e+000dB,-4.23531175737035e+001°)
2.01900000000000e+009	(-7.28011150357265e+000dB,-4.28604258685540e+001°)
2.03899000000000e+009	(-7.27112936508277e+000dB,-4.33699226007816e+001°)
2.05898000000000e+009	(-7.26231430261925e+000dB,-4.38816023826307e+001°)
2.07897000000000e+009	(-7.25367421021362e+000dB,-4.43954586520834e+001°)
2.09896000000000e+009	(-7.24521702073509e+000dB,-4.49114836494375e+001°)
2.11895000000000e+009	(-7.23695070168852e+000dB,-4.54296683944041e+001°)
2.13894000000000e+009	(-7.22888325081179e+000dB,-4.59500026637860e+001°)
2.15893000000000e+009	(-7.22102269147286e+000dB,-4.64724749698047e+001°)
2.17892000000000e+009	(-7.21337706786658e+000dB,-4.69970725391428e+001°)
2.19891000000000e+009	(-7.20595444001273e+000dB,-4.75237812927683e+001°)
2.21890000000000e+009	(-7.19876287855661e+000dB,-4.80525858266143e+001°)
2.23889000000000e+009	(-7.19181045937401e+000dB,-4.85834693931824e+001°)
2.25888000000000e+009	(-7.18510525798379e+000dB,-4.91164138841449e+001°)
2.27887000000000e+009	(-7.17865534377063e+000dB,-4.96513998140160e+001°)
2.29886000000000e+009	(-7.17246877402228e+000dB,-5.01884063049691e+001°)
2.31885000000000e+009	(-7.16655358778545e+000dB,-5.07274110728721e+001°)
2.33884000000000e+009	(-7.16091779954588e+000dB,-5.12683904146162e+001°)
2.35883000000000e+009	(-7.15556939273810e+000dB,-5.18113191968124e+001°)
2.37882000000000e+009	(-7.15051631309160e+000dB,-5.23561708459293e+001°)
2.39881000000000e+009	(-7.14576646182056e+000dB,-5.29029173399447e+001°)
2.41880000000000e+009	(-7.14132768866523e+000dB,-5.34515292015859e+001°)
2.43879000000000e+009	(-7.13720778479356e+000dB,-5.40019754932249e+001°)
2.45878000000000e+009	(-7.13341447557259e+000dB,-5.45542238135020e+001°)
2.47877000000000e+009	(-7.12995541321979e+000dB,-5.51082402957427e+001°)
2.49876000000000e+009	(-7.12683816934525e+000dB,-5.56639896082323e+001°)
2.51875000000000e+009	(-7.12407022739611e+000dB,-5.62214349564115e+001°)
2.53874000000000e+009	(-7.12165897501628e+000dB,-5.67805380870511e+001°)
2.55873000000000e+009	(-7.11961169633361e+000dB,-5.73412592944609e+001°)
2.57872000000000e+009	(-7.11793556418885e+000dB,-5.79035574287865e+001°)
2.59871000000000e+009	(-7.11663763232068e+000dB,-5.84673899064379e+001°)
2.61870000000000e+009	(-7.11572482752160e+000dB,-5.90327127226961e+001°)
2.63869000000000e+009	(-7.11520394178057e+000dB,-5.95994804665344e+001°)
2.65868000000000e+009	(-7.11508162442854e+000dB,-6.01676463376875e+001°)
2.67867000000000e+009	(-7.11536437430326e+000dB,-6.07371621659952e+001°)
2.69866000000000e+009	(-7.11605853195089e+000dB,-6.13079784330430e+001°)
2.71865000000000e+009	(-7.11717027188190e+000dB,-6.18800442961141e+001°)
2.73864000000000e+009	(-7.11870559489904e+000dB,-6.24533076144622e+001°)
2.75863000000000e+009	(-7.12067032051583e+000dB,-6.30277149779078e+001°)
2.77862000000000e+009	(-7.12307007948388e+000dB,-6.36032117377517e+001°)
2.79861000000000e+009	(-7.12591030644803e+000dB,-6.41797420399944e+001°)
2.81860000000000e+009	(-7.12919623274755e+000dB,-6.47572488608445e+001°)
2.83859000000000e+009	(-7.13293287938289e+000dB,-6.53356740444860e+001°)
2.85858000000000e+009	(-7.13712505016618e+000dB,-6.59149583430724e+001°)
2.87857000000000e+009	(-7.14177732507452e+000dB,-6.64950414589064e+001°)
2.89856000000000e+009	(-7.14689405382427e+000dB,-6.70758620887541e+001°)
2.91855000000000e+009	(-7.15247934968490e+000dB,-6.76573579702380e+001°)
2.93854000000000e+009	(-7.15853708354979e+000dB,-6.82394659302450e+001°)
2.95853000000000e+009	(-7.16507087828169e+000dB,-6.88221219352747e+001°)
2.97852000000000e+009	(-7.17208410334977e+000dB,-6.94052611436516e+001°)
2.99851000000000e+009	(-7.17957986977435e+000dB,-6.99888179595124e+001°)
3.01850000000000e+009	(-7.18756102539511e+000dB,-7.05727260884764e+001°)
3.03849000000000e+009	(-7.19603015047755e+000dB,-7.11569185948975e+001°)
3.05848000000000e+009	(-7.20498955367187e+000dB,-7.17413279605914e+001°)
3.07847000000000e+009	(-7.21444126833746e+000dB,-7.23258861449254e+001°)
3.09846000000000e+009	(-7.22438704924479e+000dB,-7.29105246461541e+001°)
3.11845000000000e+009	(-7.23482836966658e+000dB,-7.34951745638701e+001°)
3.13844000000000e+009	(-7.24576641886759e+000dB,-7.40797666624522e+001°)
3.15843000000000e+009	(-7.25720210000256e+000dB,-7.46642314353667e+001°)
3.17842000000000e+009	(-7.26913602842973e+000dB,-7.52484991701923e+001°)
3.19841000000000e+009	(-7.28156853044659e+000dB,-7.58325000142244e+001°)
3.21840000000000e+009	(-7.29449964245275e+000dB,-7.64161640405170e+001°)
3.23839000000000e+009	(-7.30792911054490e+000dB,-7.69994213142168e+001°)
3.25838000000000e+009	(-7.32185639054484e+000dB,-7.75822019590397e+001°)
3.27837000000000e+009	(-7.33628064846355e+000dB,-7.81644362237464e+001°)
3.29836000000000e+009	(-7.35120076140025e+000dB,-7.87460545484624e+001°)
3.31835000000000e+009	(-7.36661531887503e+000dB,-7.93269876306997e+001°)
3.33834000000000e+009	(-7.38252262459268e+000dB,-7.99071664909257e+001°)
3.35833000000000e+009	(-7.39892069863354e+000dB,-8.04865225375410e+001°)
3.37832000000000e+009	(-7.41580728006543e+000dB,-8.10649876311135e+001°)
3.39831000000000e+009	(-7.43317982997079e+000dB,-8.16424941477325e+001°)
3.41830000000000e+009	(-7.45103553487995e+000dB,-8.22189750413397e+001°)
3.43829000000000e+009	(-7.46937131060248e+000dB,-8.27943639049074e+001°)
3.45828000000000e+009	(-7.48818380644507e+000dB,-8.33685950303261e+001°)
3.47827000000000e+009	(-7.50746940980535e+000dB,-8.39416034668812e+001°)
3.49826000000000e+009	(-7.52722425112830e+000dB,-8.45133250781947e+001°)
3.51825000000000e+009	(-7.54744420921208e+000dB,-8.50836965975146e+001°)
3.53824000000000e+009	(-7.56812491684829e+000dB,-8.56526556812496e+001°)
3.55823000000000e+009	(-7.58926176678174e+000dB,-8.62201409606361e+001°)
3.57822000000000e+009	(-7.61084991797268e+000dB,-8.67860920914515e+001°)
3.59821000000000e+009	(-7.63288430214512e+000dB,-8.73504498016753e+001°)
3.61820000000000e+009	(-7.65535963060319e+000dB,-8.79131559370232e+001°)
3.63819000000000e+009	(-7.67827040129736e+000dB,-8.84741535042755e+001°)
3.65818000000000e+009	(-7.70161090612179e+000dB,-8.90333867123348e+001°)
3.67817000000000e+009	(-7.72537523842354e+000dB,-8.95908010109542e+001°)
3.69816000000000e+009	(-7.74955730070422e+000dB,-9.01463431270831e+001°)
3.71815000000000e+009	(-7.77415081249429e+000dB,-9.06999610987907e+001°)
3.73814000000000e+009	(-7.79914931837994e+000dB,-9.12516043067286e+001°)
3.75813000000000e+009	(-7.82454619616283e+000dB,-9.18012235031093e+001°)
3.77812000000000e+009	(-7.85033466513215e+000dB,-9.23487708381745e+001°)
3.79811000000000e+009	(-7.87650779442976e+000dB,-9.28941998841521e+001°)
3.81810000000000e+009	(-7.90305851148779e+000dB,-9.34374656566873e+001°)
3.83809000000000e+009	(-7.92997961051968e+000dB,-9.39785246337574e+001°)
3.85808000000000e+009	(-7.95726376104508e+000dB,-9.45173347720811e+001°)
3.87807000000000e+009	(-7.98490351642963e+000dB,-9.50538555210355e+001°)
3.89806000000000e+009	(-8.01289132242095e+000dB,-9.55880478341112e+001°)
3.91805000000000e+009	(-8.04121952566320e+000dB,-9.61198741779316e+001°)
3.93804000000000e+009	(-8.06988038217174e+000dB,-9.66492985388782e+001°)
3.95803000000000e+009	(-8.09886606575199e+000dB,-9.71762864273578e+001°)
3.97802000000000e+009	(-8.12816867634467e+000dB,-9.77008048797707e+001°)
3.99801000000000e+009	(-8.15778024828330e+000dB,-9.82228224582225e+001°)
4.01800000000000e+009	(-8.18769275844744e+000dB,-9.87423092480450e+001°)
4.03799000000000e+009	(-8.21789813429806e+000dB,-9.92592368531905e+001°)
4.05798000000000e+009	(-8.24838826178113e+000dB,-9.97735783895571e+001°)
4.07797000000000e+009	(-8.27915499308705e+000dB,-1.00285308476329e+002°)
4.09796000000000e+009	(-8.31019015425323e+000dB,-1.00794403225397e+002°)
4.11795000000000e+009	(-8.34148555259874e+000dB,-1.01300840228934e+002°)
4.13794000000000e+009	(-8.37303298398129e+000dB,-1.01804598545221e+002°)
4.15793000000000e+009	(-8.40482423986553e+000dB,-1.02305658682783e+002°)
4.17792000000000e+009	(-8.43685111419530e+000dB,-1.02804002582937e+002°)
4.19791000000000e+009	(-8.46910541006105e+000dB,-1.03299613600834e+002°)
4.21790000000000e+009	(-8.50157894615520e+000dB,-1.03792476485067e+002°)
4.23789000000000e+009	(-8.53426356300978e+000dB,-1.04282577355958e+002°)
4.25788000000000e+009	(-8.56715112900999e+000dB,-1.04769903682588e+002°)
4.27787000000000e+009	(-8.60023354617944e+000dB,-1.05254444258674e+002°)
4.29786000000000e+009	(-8.63350275573277e+000dB,-1.05736189177374e+002°)
4.31785000000000e+009	(-8.66695074339297e+000dB,-1.06215129805109e+002°)
4.33784000000000e+009	(-8.70056954447007e+000dB,-1.06691258754493e+002°)
4.35783000000000e+009	(-8.73435124870003e+000dB,-1.07164569856443e+002°)
4.37782000000000e+009	(-8.76828800484270e+000dB,-1.07635058131586e+002°)
4.39781000000000e+009	(-8.80237202503811e+000dB,-1.08102719761003e+002°)
4.41780000000000e+009	(-8.83659558892166e+000dB,-1.08567552056435e+002°)
4.43779000000000e+009	(-8.87095104749894e+000dB,-1.09029553429998e+002°)
4.45778000000000e+009	(-8.90543082678118e+000dB,-1.09488723363507e+002°)
4.47777000000000e+009	(-8.94002743118436e+000dB,-1.09945062377484e+002°)
4.49776000000000e+009	(-8.97473344669321e+000dB,-1.10398571999904e+002°)
4.51775000000000e+009	(-9.00954154379410e+000dB,-1.10849254734778e+002°)
4.53774000000000e+009	(-9.04444448017991e+000dB,-1.11297114030630e+002°)
4.55773000000000e+009	(-9.07943510323066e+000dB,-1.11742154248931e+002°)
4.57772000000000e+009	(-9.11450635227466e+000dB,-1.12184380632563e+002°)
4.59771000000000e+009	(-9.14965126063431e+000dB,-1.12623799274367e+002°)
4.61770000000000e+009	(-9.18486295746236e+000dB,-1.13060417085839e+002°)
4.63769000000000e+009	(-9.22013466937336e+000dB,-1.13494241766032e+002°)
4.65768000000000e+009	(-9.25545972187607e+000dB,-1.13925281770708e+002°)
4.67767000000000e+009	(-9.29083154061321e+000dB,-1.14353546281792e+002°)
4.69766000000000e+009	(-9.32624365241403e+000dB,-1.14779045177191e+002°)
4.71765000000000e+009	(-9.36168968616682e+000dB,-1.15201789000996e+002°)
4.73764000000000e+009	(-9.39716337351707e+000dB,-1.15621788934125e+002°)
4.75763000000000e+009	(-9.43265854939857e+000dB,-1.16039056765445e+002°)
4.77762000000000e+009	(-9.46816915240430e+000dB,-1.16453604863397e+002°)
4.79761000000000e+009	(-9.50368922500322e+000dB,-1.16865446148174e+002°)
4.81760000000000e+009	(-9.53921291361092e+000dB,-1.17274594064459e+002°)
4.83759000000000e+009	(-9.57473446852049e+000dB,-1.17681062554764e+002°)
4.85758000000000e+009	(-9.61024824370100e+000dB,-1.18084866033400e+002°)
4.87757000000000e+009	(-9.64574869647025e+000dB,-1.18486019361077e+002°)
4.89756000000000e+009	(-9.68123038704918e+000dB,-1.18884537820167e+002°)
4.91755000000000e+009	(-9.71668797800464e+000dB,-1.19280437090653e+002°)
4.93754000000000e+009	(-9.75211623358789e+000dB,-1.19673733226753e+002°)
4.95753000000000e+009	(-9.78751001897462e+000dB,-1.20064442634255e+002°)
4.97752000000000e+009	(-9.82286429941483e+000dB,-1.20452582048552e+002°)
4.99751000000000e+009	(-9.85817413929759e+000dB,-1.20838168513396e+002°)
5.01750000000000e+009	(-9.89343470113817e+000dB,-1.21221219360366e+002°)
5.03749000000000e+009	(-9.92864124449359e+000dB,-1.21601752189061e+002°)
5.05748000000000e+009	(-9.96378912481301e+000dB,-1.21979784848000e+002°)
5.07747000000000e+009	(-9.99887379222847e+000dB,-1.22355335416256e+002°)
5.09746000000000e+009	(-1.00338907902925e+001dB,-1.22728422185784e+002°)
5.11745000000000e+009	(-1.00688357546679e+001dB,-1.23099063644469e+002°)
5.13744000000000e+009	(-1.01037044117755e+001dB,-1.23467278459870e+002°)
5.15743000000000e+009	(-1.01384925774043e+001dB,-1.23833085463652e+002°)
5.17742000000000e+009	(-1.01731961552905e+001dB,-1.24196503636698e+002°)
5.19741000000000e+009	(-1.02078111356697e+001dB,-1.24557552094899e+002°)
5.21740000000000e+009	(-1.02423335938056e+001dB,-1.24916250075586e+002°)
5.23739000000000e+009	(-1.02767596885024e+001dB,-1.25272616924622e+002°)
5.25738000000000e+009	(-1.03110856606021e+001dB,-1.25626672084105e+002°)
5.27737000000000e+009	(-1.03453078314736e+001dB,-1.25978435080696e+002°)
5.29736000000000e+009	(-1.03794226014947e+001dB,-1.26327925514536e+002°)
5.31735000000000e+009	(-1.04134264485324e+001dB,-1.26675163048748e+002°)
5.33734000000000e+009	(-1.04473159264239e+001dB,-1.27020167399497e+002°)
5.35733000000000e+009	(-1.04810876634628e+001dB,-1.27362958326594e+002°)
5.37732000000000e+009	(-1.05147383608898e+001dB,-1.27703555624623e+002°)
5.39731000000000e+009	(-1.05482647913961e+001dB,-1.28041979114582e+002°)
5.41730000000000e+009	(-1.05816637976365e+001dB,-1.28378248636002e+002°)
5.43729000000000e+009	(-1.06149322907577e+001dB,-1.28712384039541e+002°)
5.45728000000000e+009	(-1.06480672489429e+001dB,-1.29044405180019e+002°)
