Freq.	V(n_3p)
2.00000000000000e+007	(-1.08971976567697e+001dB,-4.64232796165051e+000°)
3.99900000000000e+007	(-1.09252591404323e+001dB,-9.06860031770681e+000°)
5.99800000000000e+007	(-1.09449643964054e+001dB,-1.34436750593785e+001°)
7.99700000000000e+007	(-1.09616307893963e+001dB,-1.78052070799277e+001°)
9.99600000000000e+007	(-1.09771886611070e+001dB,-2.21565307285762e+001°)
1.19950000000000e+008	(-1.09921904768103e+001dB,-2.64984695914035e+001°)
1.39940000000000e+008	(-1.10068388654648e+001dB,-3.08318308570087e+001°)
1.59930000000000e+008	(-1.10212109979073e+001dB,-3.51571439946393e+001°)
1.79920000000000e+008	(-1.10352755837060e+001dB,-3.94746561938206e+001°)
1.99910000000000e+008	(-1.10488698426607e+001dB,-4.37846107336571e+001°)
2.19900000000000e+008	(-1.10616498563945e+001dB,-4.80877433428510e+001°)
2.39890000000000e+008	(-1.10729433973248e+001dB,-5.23867365046278e+001°)
2.59880000000000e+008	(-1.10817370751538e+001dB,-5.66940174678534e+001°)
2.79870000000000e+008	(-1.10920133583761e+001dB,-6.10408444395345e+001°)
2.99860000000000e+008	(-1.11105227893137e+001dB,-6.53677291860974e+001°)
3.19850000000000e+008	(-1.11268295542561e+001dB,-6.96601393414027e+001°)
3.39840000000000e+008	(-1.11413569959293e+001dB,-7.39538346052374e+001°)
3.59830000000000e+008	(-1.11560584954464e+001dB,-7.82509727970030e+001°)
3.79820000000000e+008	(-1.11716512689923e+001dB,-8.25480111129242e+001°)
3.99810000000000e+008	(-1.11883221764455e+001dB,-8.68414075003810e+001°)
4.19800000000000e+008	(-1.12060000635539e+001dB,-9.11282800040518e+001°)
4.39790000000000e+008	(-1.12244770404840e+001dB,-9.54065481901000e+001°)
4.59780000000000e+008	(-1.12434844596914e+001dB,-9.96749010722160e+001°)
4.79770000000000e+008	(-1.12627398890960e+001dB,-1.03932654185472e+002°)
4.99760000000000e+008	(-1.12819695412926e+001dB,-1.08179578799322e+002°)
5.19750000000000e+008	(-1.13009141488019e+001dB,-1.12415768841283e+002°)
5.39740000000000e+008	(-1.13193276247844e+001dB,-1.16641567339811e+002°)
5.59730000000000e+008	(-1.13369752097260e+001dB,-1.20857540422162e+002°)
5.79720000000000e+008	(-1.13536340301293e+001dB,-1.25064475576043e+002°)
5.99710000000000e+008	(-1.13690963186484e+001dB,-1.29263384895440e+002°)
6.19700000000000e+008	(-1.13831744009396e+001dB,-1.33455502582971e+002°)
6.39690000000000e+008	(-1.13957064177064e+001dB,-1.37642272907129e+002°)
6.59680000000000e+008	(-1.14065620195727e+001dB,-1.41825328654130e+002°)
6.79670000000000e+008	(-1.14156475972885e+001dB,-1.46006461587309e+002°)
6.99660000000000e+008	(-1.14229108696007e+001dB,-1.50187586588884e+002°)
7.19650000000000e+008	(-1.14283448551147e+001dB,-1.54370700687385e+002°)
7.39640000000000e+008	(-1.14319914873002e+001dB,-1.58557837155635e+002°)
7.59630000000000e+008	(-1.14339455865803e+001dB,-1.62751012262799e+002°)
7.79620000000000e+008	(-1.14343610683702e+001dB,-1.66952152902871e+002°)
7.99610000000000e+008	(-1.14334641818303e+001dB,-1.71162950162468e+002°)
8.19600000000000e+008	(-1.14315779534069e+001dB,-1.75384340913311e+002°)
8.39590000000000e+008	(-1.14289649977632e+001dB,-1.79614130152723e+002°)
8.59580000000000e+008	(-1.14238716463964e+001dB,1.76147936813458e+002°)
8.79570000000000e+008	(-1.14180480312506e+001dB,1.71876145100716e+002°)
8.99560000000000e+008	(-1.14138955315826e+001dB,1.67588855158223e+002°)
9.19550000000000e+008	(-1.14104378547469e+001dB,1.63288129734187e+002°)
9.39540000000000e+008	(-1.14078679916508e+001dB,1.58972229637019e+002°)
9.59530000000000e+008	(-1.14065862815518e+001dB,1.54640941765088e+002°)
9.79520000000000e+008	(-1.14070123985505e+001dB,1.50294882689668e+002°)
9.99510000000000e+008	(-1.14095576322465e+001dB,1.45935237051760e+002°)
1.01950000000000e+009	(-1.14146155826707e+001dB,1.41563676170983e+002°)
1.03949000000000e+009	(-1.14225551499155e+001dB,1.37182333827585e+002°)
1.05948000000000e+009	(-1.14337132215590e+001dB,1.32793807565618e+002°)
1.07947000000000e+009	(-1.14483855259889e+001dB,1.28401178395635e+002°)
1.09946000000000e+009	(-1.14668133822227e+001dB,1.24008045162587e+002°)
1.11945000000000e+009	(-1.14891631603515e+001dB,1.19618562141978e+002°)
1.13944000000000e+009	(-1.15154951327825e+001dB,1.15237450784217e+002°)
1.15943000000000e+009	(-1.15457204733772e+001dB,1.10869931551718e+002°)
1.17942000000000e+009	(-1.15795510745171e+001dB,1.06521501317218e+002°)
1.19941000000000e+009	(-1.16164567526145e+001dB,1.02197491732866e+002°)
1.21940000000000e+009	(-1.16556541253915e+001dB,9.79024149660193e+001°)
1.23939000000000e+009	(-1.16961514334189e+001dB,9.36392356130474e+001°)
1.25938000000000e+009	(-1.17368550623593e+001dB,8.94088310661998e+001°)
1.27937000000000e+009	(-1.17767111302573e+001dB,8.52098970247263e+001°)
1.29936000000000e+009	(-1.18148315785134e+001dB,8.10393674595110e+001°)
1.31935000000000e+009	(-1.18505605233392e+001dB,7.68931615444975e+001°)
1.33934000000000e+009	(-1.18834697156991e+001dB,7.27669375667947e+001°)
1.35933000000000e+009	(-1.19133054350006e+001dB,6.86566043890743e+001°)
1.37932000000000e+009	(-1.19399214469990e+001dB,6.45585187743884e+001°)
1.39931000000000e+009	(-1.19632241662746e+001dB,6.04694401859652e+001°)
1.41930000000000e+009	(-1.19831404806683e+001dB,5.63863630032923e+001°)
1.43929000000000e+009	(-1.19996069243336e+001dB,5.23063237231549e+001°)
1.45928000000000e+009	(-1.20125740258683e+001dB,4.82262354525172e+001°)
1.47927000000000e+009	(-1.20220197398304e+001dB,4.41427639431568e+001°)
1.49926000000000e+009	(-1.20279681841396e+001dB,4.00522363605575e+001°)
1.51925000000000e+009	(-1.20305129473098e+001dB,3.59505619768795e+001°)
1.53924000000000e+009	(-1.20298479898022e+001dB,3.18331363458631e+001°)
1.55923000000000e+009	(-1.20263152739514e+001dB,2.76946920467242e+001°)
1.57922000000000e+009	(-1.20204913745774e+001dB,2.35290499622295e+001°)
1.59921000000000e+009	(-1.20133682517738e+001dB,1.93287397994930e+001°)
1.61920000000000e+009	(-1.20067727888932e+001dB,1.50846523085281e+001°)
1.63919000000000e+009	(-1.20044128328159e+001dB,1.07871461307349e+001°)
1.65918000000000e+009	(-1.20144024695439e+001dB,6.43733130673644e+000°)
1.67917000000000e+009	(-1.20520534820897e+001dB,2.11094269613355e+000°)
1.69916000000000e+009	(-1.21151730041876e+001dB,-1.88644797230154e+000°)
1.71915000000000e+009	(-1.21124224425108e+001dB,-5.44158615051654e+000°)
1.73914000000000e+009	(-1.20235825327459e+001dB,-9.38067272691787e+000°)
1.75913000000000e+009	(-1.19511913106808e+001dB,-1.37593411966637e+001°)
1.77912000000000e+009	(-1.19069968924713e+001dB,-1.82612203658403e+001°)
1.79911000000000e+009	(-1.18796662874852e+001dB,-2.27959218135123e+001°)
1.81910000000000e+009	(-1.18631739931059e+001dB,-2.73485717556987e+001°)
1.83909000000000e+009	(-1.18551162772650e+001dB,-3.19179538848848e+001°)
1.85908000000000e+009	(-1.18546998720781e+001dB,-3.65040216892681e+001°)
1.87907000000000e+009	(-1.18618496342913e+001dB,-4.11057160959131e+001°)
1.89906000000000e+009	(-1.18768350249514e+001dB,-4.57207326805360e+001°)
1.91905000000000e+009	(-1.19001117106062e+001dB,-5.03455502969455e+001°)
1.93904000000000e+009	(-1.19322519560663e+001dB,-5.49753419974714e+001°)
1.95903000000000e+009	(-1.19739016704086e+001dB,-5.96036614610455e+001°)
1.97902000000000e+009	(-1.20257188754344e+001dB,-6.42218911646798e+001°)
1.99901000000000e+009	(-1.20882486950619e+001dB,-6.88185615322549e+001°)
2.01900000000000e+009	(-1.21616952637316e+001dB,-7.33788738175557e+001°)
2.03899000000000e+009	(-1.22455868991144e+001dB,-7.78850481346084e+001°)
2.05898000000000e+009	(-1.23384181245897e+001dB,-8.23182370519998e+001°)
2.07897000000000e+009	(-1.24374658278613e+001dB,-8.66622683584634e+001°)
2.09896000000000e+009	(-1.25390083804999e+001dB,-9.09082219608904e+001°)
2.11895000000000e+009	(-1.26390027582853e+001dB,-9.50575766670842e+001°)
2.13894000000000e+009	(-1.27339563758271e+001dB,-9.91218879266805e+001°)
2.15893000000000e+009	(-1.28215603093803e+001dB,-1.03119054299917e+002°)
2.17892000000000e+009	(-1.29008250231025e+001dB,-1.07068368028011e+002°)
2.19891000000000e+009	(-1.29717984299995e+001dB,-1.10986764427537e+002°)
2.21890000000000e+009	(-1.30351333825333e+001dB,-1.14887258262242e+002°)
2.23889000000000e+009	(-1.30917278485171e+001dB,-1.18779132628986e+002°)
2.25888000000000e+009	(-1.31425246187180e+001dB,-1.22668942146140e+002°)
2.27887000000000e+009	(-1.31884583126323e+001dB,-1.26561585647556e+002°)
2.29886000000000e+009	(-1.32305047083897e+001dB,-1.30461063119157e+002°)
2.31885000000000e+009	(-1.32697942673923e+001dB,-1.34370763254695e+002°)
2.33884000000000e+009	(-1.33077682705694e+001dB,-1.38293177119341e+002°)
2.35883000000000e+009	(-1.33463631298187e+001dB,-1.42228831610048e+002°)
2.37882000000000e+009	(-1.33881884702997e+001dB,-1.46174038550518e+002°)
2.39881000000000e+009	(-1.34365921384494e+001dB,-1.50116970853956e+002°)
2.41880000000000e+009	(-1.34954104859048e+001dB,-1.54032430528034e+002°)
2.43879000000000e+009	(-1.35686280121029e+001dB,-1.57878375496332e+002°)
2.45878000000000e+009	(-1.36628857536904e+001dB,-1.61586810963980e+002°)
2.47877000000000e+009	(-1.37915524597641e+001dB,-1.64936712802510e+002°)
2.49876000000000e+009	(-1.39033584760658e+001dB,-1.67293705203666e+002°)
2.51875000000000e+009	(-1.37739907397221e+001dB,-1.68992777690842e+002°)
2.53874000000000e+009	(-1.34466866867906e+001dB,-1.72002669897807e+002°)
2.55873000000000e+009	(-1.31649731087561e+001dB,-1.76285553825262e+002°)
2.57872000000000e+009	(-1.29741389151622e+001dB,1.78988750278392e+002°)
2.59871000000000e+009	(-1.28443081302754e+001dB,1.74174339455625e+002°)
2.61870000000000e+009	(-1.27506732443194e+001dB,1.69358870336916e+002°)
2.63869000000000e+009	(-1.26797170318414e+001dB,1.64550562111040e+002°)
2.65868000000000e+009	(-1.26247937279652e+001dB,1.59739805016768e+002°)
2.67867000000000e+009	(-1.25829056005372e+001dB,1.54916098663075e+002°)
2.69866000000000e+009	(-1.25529700105008e+001dB,1.50072080862321e+002°)
2.71865000000000e+009	(-1.25349223084434e+001dB,1.45204004632096e+002°)
2.73864000000000e+009	(-1.25292471090073e+001dB,1.40311324691527e+002°)
2.75863000000000e+009	(-1.25367360166504e+001dB,1.35396165222832e+002°)
2.77862000000000e+009	(-1.25583751098885e+001dB,1.30462932353981e+002°)
2.79861000000000e+009	(-1.25953110106534e+001dB,1.25518238556594e+002°)
2.81860000000000e+009	(-1.26488535367821e+001dB,1.20571331533216e+002°)
2.83859000000000e+009	(-1.27204524162760e+001dB,1.15635229720974e+002°)
2.85858000000000e+009	(-1.28115390485854e+001dB,1.10728585111925e+002°)
2.87857000000000e+009	(-1.29230805572101e+001dB,1.05877649433943e+002°)
2.89856000000000e+009	(-1.30547496396023e+001dB,1.01116474814504e+002°)
2.91855000000000e+009	(-1.32039219267825e+001dB,9.64824520179154e+001°)
2.93854000000000e+009	(-1.33652287937637e+001dB,9.20059059615396e+001°)
2.95853000000000e+009	(-1.35315045195896e+001dB,8.76981852051744e+001°)
2.97852000000000e+009	(-1.36959862237626e+001dB,8.35473424892456e+001°)
2.99851000000000e+009	(-1.38543225816131e+001dB,7.95257842901247e+001°)
3.01850000000000e+009	(-1.40050863890674e+001dB,7.56037109103857e+001°)
3.03849000000000e+009	(-1.41489255526506e+001dB,7.17589444382140e+001°)
3.05848000000000e+009	(-1.42873633340240e+001dB,6.79797327034284e+001°)
3.07847000000000e+009	(-1.44219762684607e+001dB,6.42629152503218e+001°)
3.09846000000000e+009	(-1.45541042682079e+001dB,6.06107965570975e+001°)
3.11845000000000e+009	(-1.46850207402757e+001dB,5.70286541319766e+001°)
3.13844000000000e+009	(-1.48166138737098e+001dB,5.35242950285226e+001°)
3.15843000000000e+009	(-1.49528495287796e+001dB,5.01140491025290e+001°)
3.17842000000000e+009	(-1.51017649071908e+001dB,4.68501755345439e+001°)
3.19841000000000e+009	(-1.52728346636666e+001dB,4.39024339872026e+001°)
3.21840000000000e+009	(-1.54465683999644e+001dB,4.16745231943503e+001°)
3.23839000000000e+009	(-1.54952420702224e+001dB,4.04723713315150e+001°)
3.25838000000000e+009	(-1.52606751507327e+001dB,3.91980001116888e+001°)
3.27837000000000e+009	(-1.48844320640437e+001dB,3.62871651983554e+001°)
3.29836000000000e+009	(-1.45890999353976e+001dB,3.20989278924088e+001°)
3.31835000000000e+009	(-1.44082721925499e+001dB,2.75342549384658e+001°)
3.33834000000000e+009	(-1.43008742580058e+001dB,2.29999909514019e+001°)
3.35833000000000e+009	(-1.42312363123951e+001dB,1.85914436075724e+001°)
3.37832000000000e+009	(-1.41783159235734e+001dB,1.43004047257210e+001°)
3.39831000000000e+009	(-1.41307547000041e+001dB,1.00941403451845e+001°)
3.41830000000000e+009	(-1.40826419883374e+001dB,5.93879783085295e+000°)
3.43829000000000e+009	(-1.40310874789707e+001dB,1.80508992806712e+000°)
3.45828000000000e+009	(-1.39749261431518e+001dB,-2.33112311558305e+000°)
3.47827000000000e+009	(-1.39140293427436e+001dB,-6.48949930337830e+000°)
3.49826000000000e+009	(-1.38489321165982e+001dB,-1.06860012394038e+001°)
3.51825000000000e+009	(-1.37806259630343e+001dB,-1.49335112849932e+001°)
3.53824000000000e+009	(-1.37104384261721e+001dB,-1.92422349111554e+001°)
3.55823000000000e+009	(-1.36399572572351e+001dB,-2.36199211614991e+001°)
3.57822000000000e+009	(-1.35709756577373e+001dB,-2.80719434947610e+001°)
3.59821000000000e+009	(-1.35054450805117e+001dB,-3.26012835825888e+001°)
3.61820000000000e+009	(-1.34454277095417e+001dB,-3.72084570278944e+001°)
3.63819000000000e+009	(-1.33930442603858e+001dB,-4.18914162096408e+001°)
3.65818000000000e+009	(-1.33504151758545e+001dB,-4.66454612110178e+001°)
3.67817000000000e+009	(-1.33195950013847e+001dB,-5.14631840386154e+001°)
3.69816000000000e+009	(-1.33025006475645e+001dB,-5.63344638919569e+001°)
3.71815000000000e+009	(-1.33008341006929e+001dB,-6.12465241972216e+001°)
3.73814000000000e+009	(-1.33159987922234e+001dB,-6.61840613049819e+001°)
3.75813000000000e+009	(-1.33490069984895e+001dB,-7.11294696612886e+001°)
3.77812000000000e+009	(-1.34003758472973e+001dB,-7.60632268816940e+001°)
3.79811000000000e+009	(-1.34700164686887e+001dB,-8.09645558517838e+001°)
3.81810000000000e+009	(-1.35571387973257e+001dB,-8.58125017454859e+001°)
3.83809000000000e+009	(-1.36602193288115e+001dB,-9.05874602865254e+001°)
3.85808000000000e+009	(-1.37770894522417e+001dB,-9.52729132893304e+001°)
3.87807000000000e+009	(-1.39051681570605e+001dB,-9.98567938761569e+001°)
3.89806000000000e+009	(-1.40417853355737e+001dB,-1.04331852719574e+002°)
3.91805000000000e+009	(-1.41844811356604e+001dB,-1.08694852155665e+002°)
3.93804000000000e+009	(-1.43312002038515e+001dB,-1.12945064895147e+002°)
3.95803000000000e+009	(-1.44804311044970e+001dB,-1.17082624380579e+002°)
3.97802000000000e+009	(-1.46314577260689e+001dB,-1.21105971312694e+002°)
3.99801000000000e+009	(-1.47846853385813e+001dB,-1.25004465736446e+002°)
4.01800000000000e+009	(-1.49406827238188e+001dB,-1.28739428769019e+002°)
4.03799000000000e+009	(-1.50932727927615e+001dB,-1.32222175932193e+002°)
4.05798000000000e+009	(-1.52136879411134e+001dB,-1.35378251559318e+002°)
4.07797000000000e+009	(-1.52589241929263e+001dB,-1.38407034323287e+002°)
4.09796000000000e+009	(-1.52415090177840e+001dB,-1.41747994525029e+002°)
4.11795000000000e+009	(-1.52239257223878e+001dB,-1.45485702554178e+002°)
4.13794000000000e+009	(-1.52348033706287e+001dB,-1.49388843915539e+002°)
4.15793000000000e+009	(-1.52683874303639e+001dB,-1.53284408126063e+002°)
4.17792000000000e+009	(-1.53127586009689e+001dB,-1.57111466268902e+002°)
4.19791000000000e+009	(-1.53592393076966e+001dB,-1.60862540850815e+002°)
4.21790000000000e+009	(-1.54025846555222e+001dB,-1.64547624890484e+002°)
4.23789000000000e+009	(-1.54397632125090e+001dB,-1.68180670966943e+002°)
4.25788000000000e+009	(-1.54690445677312e+001dB,-1.71775393821449e+002°)
4.27787000000000e+009	(-1.54894647192062e+001dB,-1.75344235816809e+002°)
4.29786000000000e+009	(-1.55005287715428e+001dB,-1.78898303380894e+002°)
4.31785000000000e+009	(-1.55020457985208e+001dB,1.77552446321535e+002°)
4.33784000000000e+009	(-1.54940358748043e+001dB,1.73998992839267e+002°)
4.35783000000000e+009	(-1.54766769893794e+001dB,1.70433075900603e+002°)
4.37782000000000e+009	(-1.54502744952512e+001dB,1.66847065535297e+002°)
4.39781000000000e+009	(-1.54152435845951e+001dB,1.63233874958102e+002°)
4.41780000000000e+009	(-1.53720993963466e+001dB,1.59586909574217e+002°)
4.43779000000000e+009	(-1.53214515504275e+001dB,1.55900046138144e+002°)
4.45778000000000e+009	(-1.52640010742600e+001dB,1.52167637412037e+002°)
4.47777000000000e+009	(-1.52005383142868e+001dB,1.48384538757719e+002°)
4.49776000000000e+009	(-1.51319407568468e+001dB,1.44546153724502e+002°)
4.51775000000000e+009	(-1.50591698564894e+001dB,1.40648495829911e+002°)
4.53774000000000e+009	(-1.49832660676156e+001dB,1.36688263397375e+002°)
4.55773000000000e+009	(-1.49053413522259e+001dB,1.32662923560024e+002°)
4.57772000000000e+009	(-1.48265685351072e+001dB,1.28570800433350e+002°)
4.59771000000000e+009	(-1.47481670349365e+001dB,1.24411161116822e+002°)
4.61770000000000e+009	(-1.46713847484316e+001dB,1.20184291793402e+002°)
4.63769000000000e+009	(-1.45974762309630e+001dB,1.15891555047164e+002°)
4.65768000000000e+009	(-1.45276778128330e+001dB,1.11535419030218e+002°)
4.67767000000000e+009	(-1.44631809004387e+001dB,1.07119449826098e+002°)
4.69766000000000e+009	(-1.44051053753386e+001dB,1.02648260898882e+002°)
4.71765000000000e+009	(-1.43544755968029e+001dB,9.81274184326073e+001°)
4.73764000000000e+009	(-1.43122018365598e+001dB,9.35633088306176e+001°)
4.75763000000000e+009	(-1.42790697841377e+001dB,8.89629840407822e+001°)
4.77762000000000e+009	(-1.42557398629346e+001dB,8.43340099446968e+001°)
4.79761000000000e+009	(-1.42427565141566e+001dB,7.96843501915811e+001°)
4.81760000000000e+009	(-1.42405657233006e+001dB,7.50223207944017e+001°)
4.83759000000000e+009	(-1.42495374814590e+001dB,7.03566518821848e+001°)
4.85758000000000e+009	(-1.42699885740588e+001dB,6.56967018706835e+001°)
4.87757000000000e+009	(-1.43021976368570e+001dB,6.10529011583551e+001°)
4.89756000000000e+009	(-1.43463912273070e+001dB,5.64375620684987e+001°)
4.91755000000000e+009	(-1.44026412701902e+001dB,5.18662221017636e+001°)
4.93754000000000e+009	(-1.44705320562969e+001dB,4.73594278771512e+001°)
4.95753000000000e+009	(-1.45483594540299e+001dB,4.29435845759451e+001°)
4.97752000000000e+009	(-1.46318014984947e+001dB,3.86462725454274e+001°)
4.99751000000000e+009	(-1.47131845403350e+001dB,3.44794239688467e+001°)
5.01750000000000e+009	(-1.47841266464099e+001dB,3.04178440926754e+001°)
5.03749000000000e+009	(-1.48409285303480e+001dB,2.64075739832005e+001°)
5.05748000000000e+009	(-1.48849788237586e+001dB,2.24021665607520e+001°)
5.07747000000000e+009	(-1.49196243876176e+001dB,1.83667625654251e+001°)
5.09746000000000e+009	(-1.49512835036624e+001dB,1.42810776823450e+001°)
5.11745000000000e+009	(-1.49864629502564e+001dB,1.01619007267008e+001°)
5.13744000000000e+009	(-1.50271683436590e+001dB,6.04341459319758e+000°)
5.15743000000000e+009	(-1.50720602634662e+001dB,1.95009649090323e+000°)
5.17742000000000e+009	(-1.51189530661333e+001dB,-2.10710245054240e+000°)
5.19741000000000e+009	(-1.51659134821231e+001dB,-6.12559361600882e+000°)
5.21740000000000e+009	(-1.52114669902295e+001dB,-1.01068507775119e+001°)
5.23739000000000e+009	(-1.52545348319557e+001dB,-1.40541156580892e+001°)
5.25738000000000e+009	(-1.52943348707207e+001dB,-1.79713217020639e+001°)
5.27737000000000e+009	(-1.53303020344437e+001dB,-2.18626076956783e+001°)
5.29736000000000e+009	(-1.53620326823686e+001dB,-2.57320972121711e+001°)
5.31735000000000e+009	(-1.53892467717254e+001dB,-2.95837947514950e+001°)
5.33734000000000e+009	(-1.54117616207126e+001dB,-3.34215327869642e+001°)
5.35733000000000e+009	(-1.54294728333085e+001dB,-3.72489416774674e+001°)
5.37732000000000e+009	(-1.54423395651571e+001dB,-4.10694311616832e+001°)
5.39731000000000e+009	(-1.54503724558522e+001dB,-4.48861793445668e+001°)
5.41730000000000e+009	(-1.54536232922952e+001dB,-4.87021279160939e+001°)
