Freq.	V(d_3p)
Step Information: Ph=0  (Run: 1/7)
2.00000000000000e+007	(-9.84336291389701e+001dB,4.63372858220057e+001°)
3.99900000000000e+007	(-9.50899349983372e+001dB,2.88337802862142e+001°)
5.99800000000000e+007	(-9.37009144779546e+001dB,1.76815482881403e+001°)
7.99700000000000e+007	(-9.27321631530131e+001dB,9.72680529961251e+000°)
9.99600000000000e+007	(-9.18684659518097e+001dB,3.20529000654071e+000°)
1.19950000000000e+008	(-9.10377745247092e+001dB,-2.64265023332208e+000°)
1.39940000000000e+008	(-9.02281581004943e+001dB,-8.13039837298169e+000°)
1.59930000000000e+008	(-8.94423913114162e+001dB,-1.33766443038979e+001°)
1.79920000000000e+008	(-8.86852184543195e+001dB,-1.84173311603222e+001°)
1.99910000000000e+008	(-8.79599746086027e+001dB,-2.32564151323005e+001°)
2.19900000000000e+008	(-8.72680824756754e+001dB,-2.78886095220926e+001°)
2.39890000000000e+008	(-8.66093849548720e+001dB,-3.23089830310915e+001°)
2.59880000000000e+008	(-8.59826413943577e+001dB,-3.65163778397934e+001°)
2.79870000000000e+008	(-8.53859723709560e+001dB,-4.05139935524475e+001°)
2.99860000000000e+008	(-8.48171969225075e+001dB,-4.43087724700663e+001°)
3.19850000000000e+008	(-8.42740626157752e+001dB,-4.79103893928084e+001°)
3.39840000000000e+008	(-8.37543876961986e+001dB,-5.13302302553173e+001°)
3.59830000000000e+008	(-8.32561385626343e+001dB,-5.45805251110587e+001°)
3.79820000000000e+008	(-8.27774636193338e+001dB,-5.76736859089654e+001°)
3.99810000000000e+008	(-8.23167000881459e+001dB,-6.06218419880946e+001°)
4.19800000000000e+008	(-8.18723656594664e+001dB,-6.34365413791532e+001°)
4.39790000000000e+008	(-8.14431428039671e+001dB,-6.61285795190958e+001°)
4.59780000000000e+008	(-8.10278605238463e+001dB,-6.87079195467849e+001°)
4.79770000000000e+008	(-8.06254762045072e+001dB,-7.11836746983387e+001°)
4.99760000000000e+008	(-8.02350588931172e+001dB,-7.35641302864180e+001°)
5.19750000000000e+008	(-7.98557745159885e+001dB,-7.58567890789513e+001°)
5.39740000000000e+008	(-7.94868731221599e+001dB,-7.80684289043690e+001°)
5.59730000000000e+008	(-7.91276780100801e+001dB,-8.02051651408939e+001°)
5.79720000000000e+008	(-7.87775765131989e+001dB,-8.22725134513330e+001°)
5.99710000000000e+008	(-7.84360121995939e+001dB,-8.42754499996953e+001°)
6.19700000000000e+008	(-7.81024782552703e+001dB,-8.62184676450266e+001°)
6.39690000000000e+008	(-7.77765118475037e+001dB,-8.81056274144099e+001°)
6.59680000000000e+008	(-7.74576892987544e+001dB,-8.99406050616535e+001°)
6.79670000000000e+008	(-7.71456219305722e+001dB,-9.17267328227760e+001°)
6.99660000000000e+008	(-7.68399524625891e+001dB,-9.34670366483708e+001°)
7.19650000000000e+008	(-7.65403518759775e+001dB,-9.51642692761488e+001°)
7.39640000000000e+008	(-7.62465166630092e+001dB,-9.68209395378225e+001°)
7.59630000000000e+008	(-7.59581664057439e+001dB,-9.84393382946273e+001°)
7.79620000000000e+008	(-7.56750416326719e+001dB,-1.00021561374480e+002°)
7.99610000000000e+008	(-7.53969019146128e+001dB,-1.01569529858325e+002°)
8.19600000000000e+008	(-7.51235241651360e+001dB,-1.03085008028083e+002°)
8.39590000000000e+008	(-7.48547011197710e+001dB,-1.04569619257912e+002°)
8.59580000000000e+008	(-7.45902399703531e+001dB,-1.06024860097103e+002°)
8.79570000000000e+008	(-7.43299611355558e+001dB,-1.07452112764843e+002°)
8.99560000000000e+008	(-7.40736971520282e+001dB,-1.08852656250048e+002°)
9.19550000000000e+008	(-7.38212916709881e+001dB,-1.10227676183504e+002°)
9.39540000000000e+008	(-7.35725985492271e+001dB,-1.11578273631169e+002°)
9.59530000000000e+008	(-7.33274810250846e+001dB,-1.12905472939022e+002°)
9.79520000000000e+008	(-7.30858109684261e+001dB,-1.14210228738295e+002°)
9.99510000000000e+008	(-7.28474681988085e+001dB,-1.15493432212962e+002°)
1.01950000000000e+009	(-7.26123398640507e+001dB,-1.16755916714245e+002°)
1.03949000000000e+009	(-7.23803198729891e+001dB,-1.17998462795741e+002°)
1.05948000000000e+009	(-7.21513083782368e+001dB,-1.19221802738913e+002°)
1.07947000000000e+009	(-7.19252113026796e+001dB,-1.20426624621512e+002°)
1.09946000000000e+009	(-7.17019399067471e+001dB,-1.21613575983944e+002°)
1.11945000000000e+009	(-7.14814103921101e+001dB,-1.22783267135796e+002°)
1.13944000000000e+009	(-7.12635435385295e+001dB,-1.23936274141714e+002°)
1.15943000000000e+009	(-7.10482643707600e+001dB,-1.25073141522058e+002°)
1.17942000000000e+009	(-7.08355018531408e+001dB,-1.26194384698133e+002°)
1.19941000000000e+009	(-7.06251886089759e+001dB,-1.27300492209403e+002°)
1.21940000000000e+009	(-7.04172606626914e+001dB,-1.28391927725151e+002°)
1.23939000000000e+009	(-7.02116572028943e+001dB,-1.29469131873509e+002°)
1.25938000000000e+009	(-7.00083203642715e+001dB,-1.30532523905873e+002°)
1.27937000000000e+009	(-6.98071950267464e+001dB,-1.31582503211459e+002°)
1.29936000000000e+009	(-6.96082286308624e+001dB,-1.32619450701685e+002°)
1.31935000000000e+009	(-6.94113710071216e+001dB,-1.33643730071231e+002°)
1.33934000000000e+009	(-6.92165742189200e+001dB,-1.34655688952182e+002°)
1.35933000000000e+009	(-6.90237924176524e+001dB,-1.35655659971208e+002°)
1.37932000000000e+009	(-6.88329817086706e+001dB,-1.36643961715787e+002°)
1.39931000000000e+009	(-6.86441000277728e+001dB,-1.37620899623472e+002°)
1.41930000000000e+009	(-6.84571070267987e+001dB,-1.38586766796115e+002°)
1.43929000000000e+009	(-6.82719639679898e+001dB,-1.39541844750058e+002°)
1.45928000000000e+009	(-6.80886336260608e+001dB,-1.40486404105570e+002°)
1.47927000000000e+009	(-6.79070801976441e+001dB,-1.41420705222827e+002°)
1.49926000000000e+009	(-6.77272692174254e+001dB,-1.42344998788846e+002°)
1.51925000000000e+009	(-6.75491674801385e+001dB,-1.43259526358259e+002°)
1.53924000000000e+009	(-6.73727429686060e+001dB,-1.44164520855667e+002°)
1.55923000000000e+009	(-6.71979647865197e+001dB,-1.45060207038191e+002°)
1.57922000000000e+009	(-6.70248030963059e+001dB,-1.45946801925996e+002°)
1.59921000000000e+009	(-6.68532290612158e+001dB,-1.46824515200864e+002°)
1.61920000000000e+009	(-6.66832147915248e+001dB,-1.47693549576763e+002°)
1.63919000000000e+009	(-6.65147332944706e+001dB,-1.48554101144870e+002°)
1.65918000000000e+009	(-6.63477584275414e+001dB,-1.49406359693678e+002°)
1.67917000000000e+009	(-6.61822648550845e+001dB,-1.50250509009072e+002°)
1.69916000000000e+009	(-6.60182280076827e+001dB,-1.51086727152970e+002°)
1.71915000000000e+009	(-6.58556240443511e+001dB,-1.51915186724269e+002°)
1.73914000000000e+009	(-6.56944298172093e+001dB,-1.52736055103444e+002°)
1.75913000000000e+009	(-6.55346228383846e+001dB,-1.53549494680473e+002°)
1.77912000000000e+009	(-6.53761812491950e+001dB,-1.54355663069945e+002°)
1.79911000000000e+009	(-6.52190837911449e+001dB,-1.55154713311699e+002°)
1.81910000000000e+009	(-6.50633097788837e+001dB,-1.55946794060355e+002°)
1.83909000000000e+009	(-6.49088390747958e+001dB,-1.56732049763265e+002°)
1.85908000000000e+009	(-6.47556520651481e+001dB,-1.57510620828023e+002°)
1.87907000000000e+009	(-6.46037296377362e+001dB,-1.58282643780656e+002°)
1.89906000000000e+009	(-6.44530531608361e+001dB,-1.59048251414815e+002°)
1.91905000000000e+009	(-6.43036044634579e+001dB,-1.59807572932962e+002°)
1.93904000000000e+009	(-6.41553658167080e+001dB,-1.60560734079715e+002°)
1.95903000000000e+009	(-6.40083199162541e+001dB,-1.61307857268084e+002°)
1.97902000000000e+009	(-6.38624498658260e+001dB,-1.62049061699572e+002°)
1.99901000000000e+009	(-6.37177391615927e+001dB,-1.62784463477754e+002°)
2.01900000000000e+009	(-6.35741716774609e+001dB,-1.63514175716148e+002°)
2.03899000000000e+009	(-6.34317316511375e+001dB,-1.64238308641144e+002°)
2.05898000000000e+009	(-6.32904036709840e+001dB,-1.64956969689538e+002°)
2.07897000000000e+009	(-6.31501726635425e+001dB,-1.65670263601658e+002°)
2.09896000000000e+009	(-6.30110238817640e+001dB,-1.66378292510409e+002°)
2.11895000000000e+009	(-6.28729428937782e+001dB,-1.67081156025568e+002°)
2.13894000000000e+009	(-6.27359155722990e+001dB,-1.67778951314899e+002°)
2.15893000000000e+009	(-6.25999280845354e+001dB,-1.68471773181614e+002°)
2.17892000000000e+009	(-6.24649668825945e+001dB,-1.69159714137935e+002°)
2.19891000000000e+009	(-6.23310186943914e+001dB,-1.69842864476598e+002°)
2.21890000000000e+009	(-6.21980705149343e+001dB,-1.70521312337878e+002°)
2.23889000000000e+009	(-6.20661095980820e+001dB,-1.71195143775286e+002°)
2.25888000000000e+009	(-6.19351234486400e+001dB,-1.71864442817726e+002°)
2.27887000000000e+009	(-6.18050998148581e+001dB,-1.72529291529452e+002°)
2.29886000000000e+009	(-6.16760266812226e+001dB,-1.73189770067635e+002°)
2.31885000000000e+009	(-6.15478922616034e+001dB,-1.73845956737665e+002°)
2.33884000000000e+009	(-6.14206849926821e+001dB,-1.74497928046389e+002°)
2.35883000000000e+009	(-6.12943935276627e+001dB,-1.75145758753362e+002°)
2.37882000000000e+009	(-6.11690067302652e+001dB,-1.75789521920115e+002°)
2.39881000000000e+009	(-6.10445136689361e+001dB,-1.76429288957784e+002°)
2.41880000000000e+009	(-6.09209036113256e+001dB,-1.77065129672729e+002°)
2.43879000000000e+009	(-6.07981660189727e+001dB,-1.77697112310771e+002°)
2.45878000000000e+009	(-6.06762905421969e+001dB,-1.78325303600067e+002°)
2.47877000000000e+009	(-6.05552670152039e+001dB,-1.78949768791782e+002°)
2.49876000000000e+009	(-6.04350854513564e+001dB,-1.79570571700138e+002°)
2.51875000000000e+009	(-6.03157360386403e+001dB,1.79812225259252e+002°)
2.53874000000000e+009	(-6.01972091352943e+001dB,1.79198561032438e+002°)
2.55873000000000e+009	(-6.00794952655945e+001dB,1.78588375891063e+002°)
2.57872000000000e+009	(-5.99625851157867e+001dB,1.77981611397876e+002°)
2.59871000000000e+009	(-5.98464695301763e+001dB,1.77378210373106e+002°)
2.61870000000000e+009	(-5.97311395073393e+001dB,1.76778116861905e+002°)
2.63869000000000e+009	(-5.96165861964684e+001dB,1.76181276103052e+002°)
2.65868000000000e+009	(-5.95028008938387e+001dB,1.75587634498403e+002°)
2.67867000000000e+009	(-5.93897750393952e+001dB,1.74997139583496e+002°)
2.69866000000000e+009	(-5.92775002134436e+001dB,1.74409739998861e+002°)
2.71865000000000e+009	(-5.91659681334587e+001dB,1.73825385462412e+002°)
2.73864000000000e+009	(-5.90551706509719e+001dB,1.73244026742475e+002°)
2.75863000000000e+009	(-5.89450997485802e+001dB,1.72665615631960e+002°)
2.77862000000000e+009	(-5.88357475370287e+001dB,1.72090104922869e+002°)
2.79861000000000e+009	(-5.87271062523849e+001dB,1.71517448381954e+002°)
2.81860000000000e+009	(-5.86191682532983e+001dB,1.70947600726791e+002°)
2.83859000000000e+009	(-5.85119260183405e+001dB,1.70380517602839e+002°)
2.85858000000000e+009	(-5.84053721434115e+001dB,1.69816155560920e+002°)
2.87857000000000e+009	(-5.82994993392361e+001dB,1.69254472035493e+002°)
2.89856000000000e+009	(-5.81943004289097e+001dB,1.68695425323579e+002°)
2.91855000000000e+009	(-5.80897683455208e+001dB,1.68138974564040e+002°)
2.93854000000000e+009	(-5.79858961298433e+001dB,1.67585079717788e+002°)
2.95853000000000e+009	(-5.78826769280754e+001dB,1.67033701548337e+002°)
2.97852000000000e+009	(-5.77801039896489e+001dB,1.66484801602986e+002°)
2.99851000000000e+009	(-5.76781706650797e+001dB,1.65938342194310e+002°)
3.01850000000000e+009	(-5.75768704038873e+001dB,1.65394286382515e+002°)
3.03849000000000e+009	(-5.74761967525660e+001dB,1.64852597958003e+002°)
3.05848000000000e+009	(-5.73761433525806e+001dB,1.64313241424554e+002°)
3.07847000000000e+009	(-5.72767039384433e+001dB,1.63776181982750e+002°)
3.09846000000000e+009	(-5.71778723358083e+001dB,1.63241385514073e+002°)
3.11845000000000e+009	(-5.70796424596279e+001dB,1.62708818565410e+002°)
3.13844000000000e+009	(-5.69820083123363e+001dB,1.62178448333651e+002°)
3.15843000000000e+009	(-5.68849639820874e+001dB,1.61650242651113e+002°)
3.17842000000000e+009	(-5.67885036410157e+001dB,1.61124169970986e+002°)
3.19841000000000e+009	(-5.66926215435493e+001dB,1.60600199353356e+002°)
3.21840000000000e+009	(-5.65973120247438e+001dB,1.60078300451422e+002°)
3.23839000000000e+009	(-5.65025694986695e+001dB,1.59558443498230e+002°)
3.25838000000000e+009	(-5.64083884568069e+001dB,1.59040599293430e+002°)
3.27837000000000e+009	(-5.63147634664938e+001dB,1.58524739190715e+002°)
3.29836000000000e+009	(-5.62216891693966e+001dB,1.58010835085185e+002°)
3.31835000000000e+009	(-5.61291602800151e+001dB,1.57498859401321e+002°)
3.33834000000000e+009	(-5.60371715842051e+001dB,1.56988785080937e+002°)
3.35833000000000e+009	(-5.59457179377388e+001dB,1.56480585571571e+002°)
3.37832000000000e+009	(-5.58547942648915e+001dB,1.55974234815018e+002°)
3.39831000000000e+009	(-5.57643955570584e+001dB,1.55469707236275e+002°)
3.41830000000000e+009	(-5.56745168713805e+001dB,1.54966977732329e+002°)
3.43829000000000e+009	(-5.55851533294187e+001dB,1.54466021661624e+002°)
3.45828000000000e+009	(-5.54963001158356e+001dB,1.53966814833341e+002°)
3.47827000000000e+009	(-5.54079524771151e+001dB,1.53469333497098e+002°)
3.49826000000000e+009	(-5.53201057202904e+001dB,1.52973554332615e+002°)
3.51825000000000e+009	(-5.52327552117161e+001dB,1.52479454439797e+002°)
3.53824000000000e+009	(-5.51458963758458e+001dB,1.51987011328755e+002°)
3.55823000000000e+009	(-5.50595246940492e+001dB,1.51496202910021e+002°)
3.57822000000000e+009	(-5.49736357034442e+001dB,1.51007007485021e+002°)
3.59821000000000e+009	(-5.48882249957570e+001dB,1.50519403736408e+002°)
3.61820000000000e+009	(-5.48032882162029e+001dB,1.50033370718796e+002°)
3.63819000000000e+009	(-5.47188210624077e+001dB,1.49548887849423e+002°)
3.65818000000000e+009	(-5.46348192833327e+001dB,1.49065934898871e+002°)
3.67817000000000e+009	(-5.45512786782505e+001dB,1.48584491982117e+002°)
3.69816000000000e+009	(-5.44681950957276e+001dB,1.48104539549345e+002°)
3.71815000000000e+009	(-5.43855644326530e+001dB,1.47626058377078e+002°)
3.73814000000000e+009	(-5.43033826332847e+001dB,1.47149029559236e+002°)
3.75813000000000e+009	(-5.42216456883348e+001dB,1.46673434498366e+002°)
3.77812000000000e+009	(-5.41403496340855e+001dB,1.46199254896844e+002°)
3.79811000000000e+009	(-5.40594905515314e+001dB,1.45726472748161e+002°)
3.81810000000000e+009	(-5.39790645655778e+001dB,1.45255070328333e+002°)
3.83809000000000e+009	(-5.38990678442448e+001dB,1.44785030187277e+002°)
3.85808000000000e+009	(-5.38194965979408e+001dB,1.44316335140300e+002°)
3.87807000000000e+009	(-5.37403470787538e+001dB,1.43848968259623e+002°)
3.89806000000000e+009	(-5.36616155797971e+001dB,1.43382912866070e+002°)
3.91805000000000e+009	(-5.35832984345927e+001dB,1.42918152520671e+002°)
3.93804000000000e+009	(-5.35053920164971e+001dB,1.42454671016451e+002°)
3.95803000000000e+009	(-5.34278927381880e+001dB,1.41992452370402e+002°)
3.97802000000000e+009	(-5.33507970511743e+001dB,1.41531480815352e+002°)
3.99801000000000e+009	(-5.32741014453749e+001dB,1.41071740792109e+002°)
4.01800000000000e+009	(-5.31978024487437e+001dB,1.40613216941721e+002°)
4.03799000000000e+009	(-5.31218966269381e+001dB,1.40155894097891e+002°)
4.05798000000000e+009	(-5.30463805830494e+001dB,1.39699757279530e+002°)
4.07797000000000e+009	(-5.29712509573727e+001dB,1.39244791683525e+002°)
4.09796000000000e+009	(-5.28965044272445e+001dB,1.38790982677777e+002°)
4.11795000000000e+009	(-5.28221377069204e+001dB,1.38338315794462e+002°)
4.13794000000000e+009	(-5.27481475475025e+001dB,1.37886776723472e+002°)
4.15793000000000e+009	(-5.26745307369260e+001dB,1.37436351306293e+002°)
4.17792000000000e+009	(-5.26012840999893e+001dB,1.36987025530126e+002°)
4.19791000000000e+009	(-5.25284044984263e+001dB,1.36538785522399e+002°)
4.21790000000000e+009	(-5.24558888310304e+001dB,1.36091617545605e+002°)
4.23789000000000e+009	(-5.23837340338069e+001dB,1.35645507992572e+002°)
4.25788000000000e+009	(-5.23119370801728e+001dB,1.35200443382211e+002°)
4.27787000000000e+009	(-5.22404949811843e+001dB,1.34756410355602e+002°)
4.29786000000000e+009	(-5.21694047857884e+001dB,1.34313395672678e+002°)
4.31785000000000e+009	(-5.20986635811016e+001dB,1.33871386209303e+002°)
4.33784000000000e+009	(-5.20282684927008e+001dB,1.33430368954939e+002°)
4.35783000000000e+009	(-5.19582166849247e+001dB,1.32990331010753e+002°)
4.37782000000000e+009	(-5.18885053611821e+001dB,1.32551259588320e+002°)
4.39781000000000e+009	(-5.18191317642471e+001dB,1.32113142008819e+002°)
4.41780000000000e+009	(-5.17500931765535e+001dB,1.31675965702769e+002°)
4.43779000000000e+009	(-5.16813869204623e+001dB,1.31239718210275e+002°)
4.45778000000000e+009	(-5.16130103585116e+001dB,1.30804387181855e+002°)
4.47777000000000e+009	(-5.15449608936248e+001dB,1.30369960379644e+002°)
4.49776000000000e+009	(-5.14772359692828e+001dB,1.29936425679169e+002°)
4.51775000000000e+009	(-5.14098330696514e+001dB,1.29503771071538e+002°)
4.53774000000000e+009	(-5.13427497196481e+001dB,1.29071984666021e+002°)
4.55773000000000e+009	(-5.12759834849567e+001dB,1.28641054693008e+002°)
4.57772000000000e+009	(-5.12095319719687e+001dB,1.28210969507350e+002°)
4.59771000000000e+009	(-5.11433928276640e+001dB,1.27781717591878e+002°)
4.61770000000000e+009	(-5.10775637394109e+001dB,1.27353287561247e+002°)
4.63769000000000e+009	(-5.10120424346855e+001dB,1.26925668165876e+002°)
4.65768000000000e+009	(-5.09468266807285e+001dB,1.26498848296099e+002°)
4.67767000000000e+009	(-5.08819142841010e+001dB,1.26072816986254e+002°)
4.69766000000000e+009	(-5.08173030901773e+001dB,1.25647563418894e+002°)
4.71765000000000e+009	(-5.07529909825452e+001dB,1.25223076928831e+002°)
4.73764000000000e+009	(-5.06889758823407e+001dB,1.24799347007179e+002°)
4.75763000000000e+009	(-5.06252557474961e+001dB,1.24376363305078e+002°)
4.77762000000000e+009	(-5.05618285719277e+001dB,1.23954115637340e+002°)
4.79761000000000e+009	(-5.04986923846508e+001dB,1.23532593985723e+002°)
4.81760000000000e+009	(-5.04358452488353e+001dB,1.23111788501926e+002°)
4.83759000000000e+009	(-5.03732852608128e+001dB,1.22691689510209e+002°)
4.85758000000000e+009	(-5.03110105490199e+001dB,1.22272287509598e+002°)
4.87757000000000e+009	(-5.02490192729257e+001dB,1.21853573175727e+002°)
4.89756000000000e+009	(-5.01873096219040e+001dB,1.21435537362153e+002°)
4.91755000000000e+009	(-5.01258798140883e+001dB,1.21018171101245e+002°)
4.93754000000000e+009	(-5.00647280952154e+001dB,1.20601465604595e+002°)
4.95753000000000e+009	(-5.00038527374553e+001dB,1.20185412262942e+002°)
4.97752000000000e+009	(-4.99432520382352e+001dB,1.19770002645604e+002°)
4.99751000000000e+009	(-4.98829243190784e+001dB,1.19355228499445e+002°)
5.01750000000000e+009	(-4.98228679244514e+001dB,1.18941081747369e+002°)
5.03749000000000e+009	(-4.97630812206342e+001dB,1.18527554486394e+002°)
5.05748000000000e+009	(-4.97035625946149e+001dB,1.18114638985248e+002°)
5.07747000000000e+009	(-4.96443104530219e+001dB,1.17702327681647e+002°)
5.09746000000000e+009	(-4.95853232210873e+001dB,1.17290613179109e+002°)
5.11745000000000e+009	(-4.95265993416594e+001dB,1.16879488243528e+002°)
5.13744000000000e+009	(-4.94681372742568e+001dB,1.16468945799334e+002°)
5.15743000000000e+009	(-4.94099354941767e+001dB,1.16058978925504e+002°)
5.17742000000000e+009	(-4.93519924916490e+001dB,1.15649580851225e+002°)
5.19741000000000e+009	(-4.92943067710498e+001dB,1.15240744951442e+002°)
5.21740000000000e+009	(-4.92368768501728e+001dB,1.14832464742210e+002°)
5.23739000000000e+009	(-4.91797012595453e+001dB,1.14424733875929e+002°)
5.25738000000000e+009	(-4.91227785418135e+001dB,1.14017546136456e+002°)
5.27737000000000e+009	(-4.90661072511735e+001dB,1.13610895434252e+002°)
5.29736000000000e+009	(-4.90096859528616e+001dB,1.13204775801377e+002°)
5.31735000000000e+009	(-4.89535132226982e+001dB,1.12799181386591e+002°)
5.33734000000000e+009	(-4.88975876466791e+001dB,1.12394106450442e+002°)
5.35733000000000e+009	(-4.88419078206212e+001dB,1.11989545360406e+002°)
5.37732000000000e+009	(-4.87864723498506e+001dB,1.11585492586141e+002°)
5.39731000000000e+009	(-4.87312798489384e+001dB,1.11181942694799e+002°)
5.41730000000000e+009	(-4.86763289414787e+001dB,1.10778890346475e+002°)
