Freq.	V(d_3p)
2.00000000000000e+007	(-1.06975736659710e+001dB,-1.96595024964275e-001°)
3.99900000000000e+007	(-1.06989762269131e+001dB,-3.59910519793626e-001°)
5.99800000000000e+007	(-1.06988478748768e+001dB,-5.29756945311909e-001°)
7.99700000000000e+007	(-1.06986663685661e+001dB,-7.05627045001437e-001°)
9.99600000000000e+007	(-1.06989732151162e+001dB,-8.84706050768922e-001°)
1.19950000000000e+008	(-1.06998974344599e+001dB,-1.06423444282468e+000°)
1.39940000000000e+008	(-1.07013515983855e+001dB,-1.24218112229202e+000°)
1.59930000000000e+008	(-1.07031533843887e+001dB,-1.41739609291452e+000°)
1.79920000000000e+008	(-1.07051036408194e+001dB,-1.58950553824008e+000°)
1.99910000000000e+008	(-1.07070313777504e+001dB,-1.75870277819216e+000°)
2.19900000000000e+008	(-1.07088144174870e+001dB,-1.92552182044398e+000°)
2.39890000000000e+008	(-1.07103831810587e+001dB,-2.09063918956807e+000°)
2.59880000000000e+008	(-1.07117139855956e+001dB,-2.25472599554052e+000°)
2.79870000000000e+008	(-1.07128172300936e+001dB,-2.41835591731339e+000°)
2.99860000000000e+008	(-1.07137245961926e+001dB,-2.58196298922890e+000°)
3.19850000000000e+008	(-1.07144778966910e+001dB,-2.74583635812327e+000°)
3.39840000000000e+008	(-1.07151207780837e+001dB,-2.91013758321747e+000°)
3.59830000000000e+008	(-1.07156934151142e+001dB,-3.07492813975417e+000°)
3.79820000000000e+008	(-1.07162297251290e+001dB,-3.24019851331315e+000°)
3.99810000000000e+008	(-1.07167564079552e+001dB,-3.40589398911844e+000°)
4.19800000000000e+008	(-1.07172931414217e+001dB,-3.57193509583623e+000°)
4.39790000000000e+008	(-1.07178534007475e+001dB,-3.73823246834993e+000°)
4.59780000000000e+008	(-1.07184455324376e+001dB,-3.90469682347467e+000°)
4.79770000000000e+008	(-1.07190738545161e+001dB,-4.07124508099543e+000°)
4.99760000000000e+008	(-1.07197396597412e+001dB,-4.23780366581556e+000°)
5.19750000000000e+008	(-1.07204420680170e+001dB,-4.40430987639369e+000°)
5.39740000000000e+008	(-1.07211787160132e+001dB,-4.57071200839039e+000°)
5.59730000000000e+008	(-1.07219462944138e+001dB,-4.73696873575256e+000°)
5.79720000000000e+008	(-1.07227409532899e+001dB,-4.90304809660685e+000°)
5.99710000000000e+008	(-1.07235585989374e+001dB,-5.06892631283804e+000°)
6.19700000000000e+008	(-1.07243951045401e+001dB,-5.23458658646533e+000°)
6.39690000000000e+008	(-1.07252464542795e+001dB,-5.40001795650217e+000°)
6.59680000000000e+008	(-1.07261088372321e+001dB,-5.56521426035943e+000°)
6.79670000000000e+008	(-1.07269787041751e+001dB,-5.73017321843070e+000°)
6.99660000000000e+008	(-1.07278527975676e+001dB,-5.89489564490890e+000°)
7.19650000000000e+008	(-1.07287281625811e+001dB,-6.05938477888951e+000°)
7.39640000000000e+008	(-1.07296021451103e+001dB,-6.22364572511867e+000°)
7.59630000000000e+008	(-1.07304723811669e+001dB,-6.38768499175482e+000°)
7.79620000000000e+008	(-1.07313367808746e+001dB,-6.55151011216425e+000°)
7.99610000000000e+008	(-1.07321935093800e+001dB,-6.71512933835966e+000°)
8.19600000000000e+008	(-1.07330409663162e+001dB,-6.87855139476734e+000°)
8.39590000000000e+008	(-1.07338777649475e+001dB,-7.04178528229017e+000°)
8.59580000000000e+008	(-1.07347027117541e+001dB,-7.20484012395495e+000°)
8.79570000000000e+008	(-1.07355147869426e+001dB,-7.36772504469148e+000°)
8.99560000000000e+008	(-1.07363131261751e+001dB,-7.53044907894573e+000°)
9.19550000000000e+008	(-1.07370970036701e+001dB,-7.69302110085159e+000°)
9.39540000000000e+008	(-1.07378658167332e+001dB,-7.85544977257662e+000°)
9.59530000000000e+008	(-1.07386190717119e+001dB,-8.01774350721977e+000°)
9.79520000000000e+008	(-1.07393563713234e+001dB,-8.17991044328652e+000°)
9.99510000000000e+008	(-1.07400774032811e+001dB,-8.34195842830838e+000°)
1.01950000000000e+009	(-1.07407819301269e+001dB,-8.50389500962785e+000°)
1.03949000000000e+009	(-1.07414697801729e+001dB,-8.66572743074455e+000°)
1.05948000000000e+009	(-1.07421408394530e+001dB,-8.82746263192801e+000°)
1.07947000000000e+009	(-1.07427950445861e+001dB,-8.98910725405781e+000°)
1.09946000000000e+009	(-1.07434323764598e+001dB,-9.15066764485899e+000°)
1.11945000000000e+009	(-1.07440528546466e+001dB,-9.31214986687142e+000°)
1.13944000000000e+009	(-1.07446565324741e+001dB,-9.47355970662937e+000°)
1.15943000000000e+009	(-1.07452434926745e+001dB,-9.63490268463989e+000°)
1.17942000000000e+009	(-1.07458138435487e+001dB,-9.79618406583922e+000°)
1.19941000000000e+009	(-1.07463677155848e+001dB,-9.95740887027799e+000°)
1.21940000000000e+009	(-1.07469052584776e+001dB,-1.01185818838465e+001°)
1.23939000000000e+009	(-1.07474266385025e+001dB,-1.02797076688963e+001°)
1.25938000000000e+009	(-1.07479320362007e+001dB,-1.04407905746522e+001°)
1.27937000000000e+009	(-1.07484216443388e+001dB,-1.06018347473382e+001°)
1.29936000000000e+009	(-1.07488956661104e+001dB,-1.07628441399644e+001°)
1.31935000000000e+009	(-1.07493543135498e+001dB,-1.09238225217389e+001°)
1.33934000000000e+009	(-1.07497978061327e+001dB,-1.10847734870846e+001°)
1.35933000000000e+009	(-1.07502263695417e+001dB,-1.12457004642498e+001°)
1.37932000000000e+009	(-1.07506402345767e+001dB,-1.14066067235112e+001°)
1.39931000000000e+009	(-1.07510396361927e+001dB,-1.15674953849735e+001°)
1.41930000000000e+009	(-1.07514248126498e+001dB,-1.17283694259733e+001°)
1.43929000000000e+009	(-1.07517960047631e+001dB,-1.18892316881010e+001°)
1.45928000000000e+009	(-1.07521534552393e+001dB,-1.20500848838528e+001°)
1.47927000000000e+009	(-1.07524974080914e+001dB,-1.22109316029302e+001°)
1.49926000000000e+009	(-1.07528281081211e+001dB,-1.23717743182022e+001°)
1.51925000000000e+009	(-1.07531458004619e+001dB,-1.25326153913471e+001°)
1.53924000000000e+009	(-1.07534507301766e+001dB,-1.26934570781916e+001°)
1.55923000000000e+009	(-1.07537431419009e+001dB,-1.28543015337619e+001°)
1.57922000000000e+009	(-1.07540232795310e+001dB,-1.30151508170645e+001°)
1.59921000000000e+009	(-1.07542913859477e+001dB,-1.31760068956112e+001°)
1.61920000000000e+009	(-1.07545477027742e+001dB,-1.33368716497033e+001°)
1.63919000000000e+009	(-1.07547924701644e+001dB,-1.34977468764898e+001°)
1.65918000000000e+009	(-1.07550259266170e+001dB,-1.36586342938103e+001°)
1.67917000000000e+009	(-1.07552483088143e+001dB,-1.38195355438392e+001°)
1.69916000000000e+009	(-1.07554598514819e+001dB,-1.39804521965398e+001°)
1.71915000000000e+009	(-1.07556607872678e+001dB,-1.41413857529401e+001°)
1.73914000000000e+009	(-1.07558513466387e+001dB,-1.43023376482415e+001°)
1.75913000000000e+009	(-1.07560317577912e+001dB,-1.44633092547696e+001°)
1.77912000000000e+009	(-1.07562022465781e+001dB,-1.46243018847758e+001°)
1.79911000000000e+009	(-1.07563630364460e+001dB,-1.47853167930985e+001°)
1.81910000000000e+009	(-1.07565143483850e+001dB,-1.49463551796921e+001°)
1.83909000000000e+009	(-1.07566564008877e+001dB,-1.51074181920303e+001°)
1.85908000000000e+009	(-1.07567894099183e+001dB,-1.52685069273917e+001°)
1.87907000000000e+009	(-1.07569135888898e+001dB,-1.54296224350331e+001°)
1.89906000000000e+009	(-1.07570291486476e+001dB,-1.55907657182563e+001°)
1.91905000000000e+009	(-1.07571362974615e+001dB,-1.57519377363761e+001°)
1.93904000000000e+009	(-1.07572352410221e+001dB,-1.59131394065915e+001°)
1.95903000000000e+009	(-1.07573261824442e+001dB,-1.60743716057672e+001°)
1.97902000000000e+009	(-1.07574093222739e+001dB,-1.62356351721297e+001°)
1.99901000000000e+009	(-1.07574848585006e+001dB,-1.63969309068810e+001°)
2.01900000000000e+009	(-1.07575529865736e+001dB,-1.65582595757358e+001°)
2.03899000000000e+009	(-1.07576138994210e+001dB,-1.67196219103839e+001°)
2.05898000000000e+009	(-1.07576677874730e+001dB,-1.68810186098831e+001°)
2.07897000000000e+009	(-1.07577148386871e+001dB,-1.70424503419843e+001°)
2.09896000000000e+009	(-1.07577552385767e+001dB,-1.72039177443931e+001°)
2.11895000000000e+009	(-1.07577891702415e+001dB,-1.73654214259706e+001°)
2.13894000000000e+009	(-1.07578168143998e+001dB,-1.75269619678745e+001°)
2.15893000000000e+009	(-1.07578383494228e+001dB,-1.76885399246465e+001°)
2.17892000000000e+009	(-1.07578539513703e+001dB,-1.78501558252443e+001°)
2.19891000000000e+009	(-1.07578637940277e+001dB,-1.80118101740239e+001°)
2.21890000000000e+009	(-1.07578680489443e+001dB,-1.81735034516720e+001°)
2.23889000000000e+009	(-1.07578668854720e+001dB,-1.83352361160918e+001°)
2.25888000000000e+009	(-1.07578604708058e+001dB,-1.84970086032443e+001°)
2.27887000000000e+009	(-1.07578489700238e+001dB,-1.86588213279453e+001°)
2.29886000000000e+009	(-1.07578325461280e+001dB,-1.88206746846214e+001°)
2.31885000000000e+009	(-1.07578113600862e+001dB,-1.89825690480265e+001°)
2.33884000000000e+009	(-1.07577855708728e+001dB,-1.91445047739192e+001°)
2.35883000000000e+009	(-1.07577553355109e+001dB,-1.93064821997036e+001°)
2.37882000000000e+009	(-1.07577208091133e+001dB,-1.94685016450341e+001°)
2.39881000000000e+009	(-1.07576821449246e+001dB,-1.96305634123871e+001°)
2.41880000000000e+009	(-1.07576394943615e+001dB,-1.97926677875975e+001°)
2.43879000000000e+009	(-1.07575930070543e+001dB,-1.99548150403658e+001°)
2.45878000000000e+009	(-1.07575428308868e+001dB,-2.01170054247324e+001°)
2.47877000000000e+009	(-1.07574891120367e+001dB,-2.02792391795233e+001°)
2.49876000000000e+009	(-1.07574319950140e+001dB,-2.04415165287663e+001°)
2.51875000000000e+009	(-1.07573716227005e+001dB,-2.06038376820801e+001°)
2.53874000000000e+009	(-1.07573081363868e+001dB,-2.07662028350360e+001°)
2.55873000000000e+009	(-1.07572416758096e+001dB,-2.09286121694938e+001°)
2.57872000000000e+009	(-1.07571723791874e+001dB,-2.10910658539124e+001°)
2.59871000000000e+009	(-1.07571003832558e+001dB,-2.12535640436358e+001°)
2.61870000000000e+009	(-1.07570258233009e+001dB,-2.14161068811559e+001°)
2.63869000000000e+009	(-1.07569488331921e+001dB,-2.15786944963518e+001°)
2.65868000000000e+009	(-1.07568695454136e+001dB,-2.17413270067072e+001°)
2.67867000000000e+009	(-1.07567880910943e+001dB,-2.19040045175063e+001°)
2.69866000000000e+009	(-1.07567046000363e+001dB,-2.20667271220080e+001°)
2.71865000000000e+009	(-1.07566192007423e+001dB,-2.22294949016009e+001°)
2.73864000000000e+009	(-1.07565320204410e+001dB,-2.23923079259383e+001°)
2.75863000000000e+009	(-1.07564431851104e+001dB,-2.25551662530532e+001°)
2.77862000000000e+009	(-1.07563528195006e+001dB,-2.27180699294567e+001°)
2.79861000000000e+009	(-1.07562610471534e+001dB,-2.28810189902161e+001°)
2.81860000000000e+009	(-1.07561679904207e+001dB,-2.30440134590186e+001°)
2.83859000000000e+009	(-1.07560737704806e+001dB,-2.32070533482158e+001°)
2.85858000000000e+009	(-1.07559785073514e+001dB,-2.33701386588542e+001°)
2.87857000000000e+009	(-1.07558823199029e+001dB,-2.35332693806885e+001°)
2.89856000000000e+009	(-1.07557853258662e+001dB,-2.36964454921819e+001°)
2.91855000000000e+009	(-1.07556876418400e+001dB,-2.38596669604907e+001°)
2.93854000000000e+009	(-1.07555893832952e+001dB,-2.40229337414376e+001°)
2.95853000000000e+009	(-1.07554906645756e+001dB,-2.41862457794697e+001°)
2.97852000000000e+009	(-1.07553915988972e+001dB,-2.43496030076072e+001°)
2.99851000000000e+009	(-1.07552922983433e+001dB,-2.45130053473799e+001°)
3.01850000000000e+009	(-1.07551928738568e+001dB,-2.46764527087528e+001°)
3.03849000000000e+009	(-1.07550934352297e+001dB,-2.48399449900447e+001°)
3.05848000000000e+009	(-1.07549940910881e+001dB,-2.50034820778359e+001°)
3.07847000000000e+009	(-1.07548949488752e+001dB,-2.51670638468710e+001°)
3.09846000000000e+009	(-1.07547961148288e+001dB,-2.53306901599541e+001°)
3.11845000000000e+009	(-1.07546976939569e+001dB,-2.54943608678406e+001°)
3.13844000000000e+009	(-1.07545997900070e+001dB,-2.56580758091239e+001°)
3.15843000000000e+009	(-1.07545025054339e+001dB,-2.58218348101224e+001°)
3.17842000000000e+009	(-1.07544059413606e+001dB,-2.59856376847627e+001°)
3.19841000000000e+009	(-1.07543101975365e+001dB,-2.61494842344682e+001°)
3.21840000000000e+009	(-1.07542153722908e+001dB,-2.63133742480471e+001°)
3.23839000000000e+009	(-1.07541215624800e+001dB,-2.64773075015863e+001°)
3.25838000000000e+009	(-1.07540288634319e+001dB,-2.66412837583541e+001°)
3.27837000000000e+009	(-1.07539373688843e+001dB,-2.68053027687096e+001°)
3.29836000000000e+009	(-1.07538471709177e+001dB,-2.69693642700250e+001°)
3.31835000000000e+009	(-1.07537583598840e+001dB,-2.71334679866216e+001°)
3.33834000000000e+009	(-1.07536710243291e+001dB,-2.72976136297234e+001°)
3.35833000000000e+009	(-1.07535852509104e+001dB,-2.74618008974293e+001°)
3.37832000000000e+009	(-1.07535011243090e+001dB,-2.76260294747091e+001°)
3.39831000000000e+009	(-1.07534187271363e+001dB,-2.77902990334251e+001°)
3.41830000000000e+009	(-1.07533381398351e+001dB,-2.79546092323831e+001°)
3.43829000000000e+009	(-1.07532594405752e+001dB,-2.81189597174177e+001°)
3.45828000000000e+009	(-1.07531827051442e+001dB,-2.82833501215130e+001°)
3.47827000000000e+009	(-1.07531080068326e+001dB,-2.84477800649651e+001°)
3.49826000000000e+009	(-1.07530354163137e+001dB,-2.86122491555908e+001°)
3.51825000000000e+009	(-1.07529650015191e+001dB,-2.87767569889838e+001°)
3.53824000000000e+009	(-1.07528968275094e+001dB,-2.89413031488267e+001°)
3.55823000000000e+009	(-1.07528309563402e+001dB,-2.91058872072601e+001°)
3.57822000000000e+009	(-1.07527674469248e+001dB,-2.92705087253169e+001°)
3.59821000000000e+009	(-1.07527063548932e+001dB,-2.94351672534230e+001°)
3.61820000000000e+009	(-1.07526477324482e+001dB,-2.95998623319718e+001°)
3.63819000000000e+009	(-1.07525916282190e+001dB,-2.97645934919765e+001°)
3.65818000000000e+009	(-1.07525380871137e+001dB,-2.99293602558045e+001°)
3.67817000000000e+009	(-1.07524871501702e+001dB,-3.00941621379999e+001°)
3.69816000000000e+009	(-1.07524388544083e+001dB,-3.02589986461971e+001°)
3.71815000000000e+009	(-1.07523932326816e+001dB,-3.04238692821314e+001°)
3.73814000000000e+009	(-1.07523503135327e+001dB,-3.05887735427487e+001°)
3.75813000000000e+009	(-1.07523101210512e+001dB,-3.07537109214207e+001°)
3.77812000000000e+009	(-1.07522726747362e+001dB,-3.09186809092658e+001°)
3.79811000000000e+009	(-1.07522379893657e+001dB,-3.10836829965807e+001°)
3.81810000000000e+009	(-1.07522060748729e+001dB,-3.12487166743844e+001°)
3.83809000000000e+009	(-1.07521769362321e+001dB,-3.14137814360740e+001°)
3.85808000000000e+009	(-1.07521505733554e+001dB,-3.15788767791958e+001°)
3.87807000000000e+009	(-1.07521269810025e+001dB,-3.17440022073285e+001°)
3.89806000000000e+009	(-1.07521061487050e+001dB,-3.19091572320789e+001°)
3.91805000000000e+009	(-1.07520880607076e+001dB,-3.20743413751857e+001°)
3.93804000000000e+009	(-1.07520726959278e+001dB,-3.22395541707283e+001°)
3.95803000000000e+009	(-1.07520600279365e+001dB,-3.24047951674355e+001°)
3.97802000000000e+009	(-1.07520500249615e+001dB,-3.25700639310854e+001°)
3.99801000000000e+009	(-1.07520426499162e+001dB,-3.27353600469897e+001°)
4.01800000000000e+009	(-1.07520378604548e+001dB,-3.29006831225511e+001°)
4.03799000000000e+009	(-1.07520356090571e+001dB,-3.30660327898824e+001°)
4.05798000000000e+009	(-1.07520358431442e+001dB,-3.32314087084715e+001°)
4.07797000000000e+009	(-1.07520385052263e+001dB,-3.33968105678808e+001°)
4.09796000000000e+009	(-1.07520435330857e+001dB,-3.35622380904583e+001°)
4.11795000000000e+009	(-1.07520508599951e+001dB,-3.37276910340447e+001°)
4.13794000000000e+009	(-1.07520604149729e+001dB,-3.38931691946562e+001°)
4.15793000000000e+009	(-1.07520721230772e+001dB,-3.40586724091154e+001°)
4.17792000000000e+009	(-1.07520859057366e+001dB,-3.42242005576129e+001°)
4.19791000000000e+009	(-1.07521016811215e+001dB,-3.43897535661692e+001°)
4.21790000000000e+009	(-1.07521193645533e+001dB,-3.45553314089734e+001°)
4.23789000000000e+009	(-1.07521388689512e+001dB,-3.47209341105695e+001°)
4.25788000000000e+009	(-1.07521601053167e+001dB,-3.48865617478655e+001°)
4.27787000000000e+009	(-1.07521829832536e+001dB,-3.50522144519335e+001°)
4.29786000000000e+009	(-1.07522074115208e+001dB,-3.52178924095782e+001°)
4.31785000000000e+009	(-1.07522332986166e+001dB,-3.53835958646412e+001°)
4.33784000000000e+009	(-1.07522605533911e+001dB,-3.55493251190214e+001°)
4.35783000000000e+009	(-1.07522890856827e+001dB,-3.57150805333814e+001°)
4.37782000000000e+009	(-1.07523188069748e+001dB,-3.58808625275231e+001°)
4.39781000000000e+009	(-1.07523496310692e+001dB,-3.60466715804067e+001°)
4.41780000000000e+009	(-1.07523814747694e+001dB,-3.62125082298031e+001°)
4.43779000000000e+009	(-1.07524142585703e+001dB,-3.63783730715581e+001°)
4.45778000000000e+009	(-1.07524479073476e+001dB,-3.65442667584670e+001°)
4.47777000000000e+009	(-1.07524823510410e+001dB,-3.67101899987452e+001°)
4.49776000000000e+009	(-1.07525175253263e+001dB,-3.68761435541018e+001°)
4.51775000000000e+009	(-1.07525533722675e+001dB,-3.70421282374111e+001°)
4.53774000000000e+009	(-1.07525898409464e+001dB,-3.72081449099964e+001°)
4.55773000000000e+009	(-1.07526268880601e+001dB,-3.73741944785345e+001°)
4.57772000000000e+009	(-1.07526644784822e+001dB,-3.75402778916021e+001°)
4.59771000000000e+009	(-1.07527025857816e+001dB,-3.77063961358801e+001°)
4.61770000000000e+009	(-1.07527411926938e+001dB,-3.78725502320518e+001°)
4.63769000000000e+009	(-1.07527802915388e+001dB,-3.80387412304156e+001°)
4.65768000000000e+009	(-1.07528198845820e+001dB,-3.82049702062549e+001°)
4.67767000000000e+009	(-1.07528599843348e+001dB,-3.83712382549991e+001°)
4.69766000000000e+009	(-1.07529006137905e+001dB,-3.85375464872183e+001°)
4.71765000000000e+009	(-1.07529418065933e+001dB,-3.87038960234935e+001°)
4.73764000000000e+009	(-1.07529836071401e+001dB,-3.88702879892090e+001°)
4.75763000000000e+009	(-1.07530260706132e+001dB,-3.90367235093118e+001°)
4.77762000000000e+009	(-1.07530692629434e+001dB,-3.92032037030837e+001°)
4.79761000000000e+009	(-1.07531132607055e+001dB,-3.93697296789725e+001°)
4.81760000000000e+009	(-1.07531581509468e+001dB,-3.95363025295265e+001°)
4.83759000000000e+009	(-1.07532040309519e+001dB,-3.97029233264756e+001°)
4.85758000000000e+009	(-1.07532510079452e+001dB,-3.98695931159987e+001°)
4.87757000000000e+009	(-1.07532991987372e+001dB,-4.00363129142146e+001°)
4.89756000000000e+009	(-1.07533487293163e+001dB,-4.02030837029332e+001°)
4.91755000000000e+009	(-1.07533997343921e+001dB,-4.03699064256932e+001°)
4.93754000000000e+009	(-1.07534523568961e+001dB,-4.05367819841149e+001°)
4.95753000000000e+009	(-1.07535067474438e+001dB,-4.07037112345912e+001°)
4.97752000000000e+009	(-1.07535630637646e+001dB,-4.08706949853300e+001°)
4.99751000000000e+009	(-1.07536214701060e+001dB,-4.10377339937654e+001°)
5.01750000000000e+009	(-1.07536821366164e+001dB,-4.12048289643417e+001°)
5.03749000000000e+009	(-1.07537452387143e+001dB,-4.13719805466752e+001°)
5.05748000000000e+009	(-1.07538109564489e+001dB,-4.15391893340958e+001°)
5.07747000000000e+009	(-1.07538794738568e+001dB,-4.17064558625591e+001°)
5.09746000000000e+009	(-1.07539509783213e+001dB,-4.18737806099223e+001°)
5.11745000000000e+009	(-1.07540256599394e+001dB,-4.20411639955741e+001°)
5.13744000000000e+009	(-1.07541037109000e+001dB,-4.22086063803996e+001°)
5.15743000000000e+009	(-1.07541853248790e+001dB,-4.23761080670663e+001°)
5.17742000000000e+009	(-1.07542706964538e+001dB,-4.25436693006084e+001°)
5.19741000000000e+009	(-1.07543600205417e+001dB,-4.27112902692886e+001°)
5.21740000000000e+009	(-1.07544534918643e+001dB,-4.28789711057163e+001°)
5.23739000000000e+009	(-1.07545513044404e+001dB,-4.30467118881937e+001°)
5.25738000000000e+009	(-1.07546536511105e+001dB,-4.32145126422706e+001°)
5.27737000000000e+009	(-1.07547607230925e+001dB,-4.33823733424769e+001°)
5.29736000000000e+009	(-1.07548727095717e+001dB,-4.35502939142144e+001°)
5.31735000000000e+009	(-1.07549897973242e+001dB,-4.37182742357767e+001°)
5.33734000000000e+009	(-1.07551121703747e+001dB,-4.38863141404801e+001°)
5.35733000000000e+009	(-1.07552400096894e+001dB,-4.40544134188771e+001°)
5.37732000000000e+009	(-1.07553734929019e+001dB,-4.42225718210343e+001°)
5.39731000000000e+009	(-1.07555127940727e+001dB,-4.43907890588521e+001°)
