Freq.	V(d_3p)
2.00000000000000e+007	(-3.56624374454556e+001dB,2.75216178211185e+001°)
3.99900000000000e+007	(-3.39632671575918e+001dB,1.75350687053266e+001°)
5.99800000000000e+007	(-3.34965010657199e+001dB,1.11367128225191e+001°)
7.99700000000000e+007	(-3.34132457054324e+001dB,7.27595302304663e+000°)
9.99600000000000e+007	(-3.34447776227006e+001dB,5.00162172032770e+000°)
1.19950000000000e+008	(-3.34957132964155e+001dB,3.66554691324135e+000°)
1.39940000000000e+008	(-3.35340490384810e+001dB,2.85839920717073e+000°)
1.59930000000000e+008	(-3.35524542038835e+001dB,2.33021523763739e+000°)
1.79920000000000e+008	(-3.35530283868931e+001dB,1.93285328317630e+000°)
1.99910000000000e+008	(-3.35409412228369e+001dB,1.58267225356248e+000°)
2.19900000000000e+008	(-3.35216904943544e+001dB,1.23675387444974e+000°)
2.39890000000000e+008	(-3.34999380834933e+001dB,8.77380529858904e-001°)
2.59880000000000e+008	(-3.34791015233535e+001dB,5.01571974274153e-001°)
2.79870000000000e+008	(-3.34613393013485e+001dB,1.13978392249877e-001°)
2.99860000000000e+008	(-3.34477384346250e+001dB,-2.77782729583164e-001°)
3.19850000000000e+008	(-3.34385834070830e+001dB,-6.65941242063642e-001°)
3.39840000000000e+008	(-3.34336280979304e+001dB,-1.04403384539260e+000°)
3.59830000000000e+008	(-3.34323265674838e+001dB,-1.40744763532186e+000°)
3.79820000000000e+008	(-3.34340055625337e+001dB,-1.75341439378419e+000°)
3.99810000000000e+008	(-3.34379795507355e+001dB,-2.08072953043526e+000°)
4.19800000000000e+008	(-3.34436183147280e+001dB,-2.38937616347303e+000°)
4.39790000000000e+008	(-3.34503798982574e+001dB,-2.68015748959118e+000°)
4.59780000000000e+008	(-3.34578207279462e+001dB,-2.95438579486507e+000°)
4.79770000000000e+008	(-3.34655922126775e+001dB,-3.21364264888863e+000°)
4.99760000000000e+008	(-3.34734303821134e+001dB,-3.45960684462696e+000°)
5.19750000000000e+008	(-3.34811427958523e+001dB,-3.69393894988900e+000°)
5.39740000000000e+008	(-3.34885952192249e+001dB,-3.91820950056695e+000°)
5.59730000000000e+008	(-3.34956993819993e+001dB,-4.13385890327120e+000°)
5.79720000000000e+008	(-3.35024023926884e+001dB,-4.34217924971162e+000°)
5.99710000000000e+008	(-3.35086779462621e+001dB,-4.54431054215432e+000°)
6.19700000000000e+008	(-3.35145192310823e+001dB,-4.74124586646864e+000°)
6.39690000000000e+008	(-3.35199333341412e+001dB,-4.93384168973321e+000°)
6.59680000000000e+008	(-3.35249369095609e+001dB,-5.12283070298795e+000°)
6.79670000000000e+008	(-3.35295528801550e+001dB,-5.30883553331325e+000°)
6.99660000000000e+008	(-3.35338079652582e+001dB,-5.49238228539248e+000°)
7.19650000000000e+008	(-3.35377308582441e+001dB,-5.67391330697631e+000°)
7.39640000000000e+008	(-3.35413509078640e+001dB,-5.85379886186460e+000°)
7.59630000000000e+008	(-3.35446971856528e+001dB,-6.03234758035965e+000°)
7.79620000000000e+008	(-3.35477978459413e+001dB,-6.20981567296276e+000°)
7.99610000000000e+008	(-3.35506797052457e+001dB,-6.38641496161820e+000°)
8.19600000000000e+008	(-3.35533679842623e+001dB,-6.56231981969180e+000°)
8.39590000000000e+008	(-3.35558861688261e+001dB,-6.73767312860963e+000°)
8.59580000000000e+008	(-3.35582559565633e+001dB,-6.91259136344344e+000°)
8.79570000000000e+008	(-3.35604972640504e+001dB,-7.08716891639838e+000°)
8.99560000000000e+008	(-3.35626282755619e+001dB,-7.26148175979843e+000°)
9.19550000000000e+008	(-3.35646655193118e+001dB,-7.43559054053396e+000°)
9.39540000000000e+008	(-3.35666239607834e+001dB,-7.60954318802470e+000°)
9.59530000000000e+008	(-3.35685171055514e+001dB,-7.78337710756974e+000°)
9.79520000000000e+008	(-3.35703571061254e+001dB,-7.95712102163017e+000°)
9.99510000000000e+008	(-3.35721548689473e+001dB,-8.13079651296749e+000°)
1.01950000000000e+009	(-3.35739201588743e+001dB,-8.30441931580928e+000°)
1.03949000000000e+009	(-3.35756616993706e+001dB,-8.47800039451708e+000°)
1.05948000000000e+009	(-3.35773872672888e+001dB,-8.65154684328058e+000°)
1.07947000000000e+009	(-3.35791037816022e+001dB,-8.82506263530012e+000°)
1.09946000000000e+009	(-3.35808173857982e+001dB,-8.99854924550309e+000°)
1.11945000000000e+009	(-3.35825335238854e+001dB,-9.17200616710655e+000°)
1.13944000000000e+009	(-3.35842570101386e+001dB,-9.34543133922194e+000°)
1.15943000000000e+009	(-3.35859920928235e+001dB,-9.51882149985253e+000°)
1.17942000000000e+009	(-3.35877425122088e+001dB,-9.69217247654137e+000°)
1.19941000000000e+009	(-3.35895115532241e+001dB,-9.86547942480293e+000°)
1.21940000000000e+009	(-3.35913020931357e+001dB,-1.00387370229955e+001°)
1.23939000000000e+009	(-3.35931166446217e+001dB,-1.02119396308456e+001°)
1.25938000000000e+009	(-3.35949573946214e+001dB,-1.03850814176069e+001°)
1.27937000000000e+009	(-3.35968262393180e+001dB,-1.05581564650943e+001°)
1.29936000000000e+009	(-3.35987248156005e+001dB,-1.07311588496793e+001°)
1.31935000000000e+009	(-3.36006545293255e+001dB,-1.09040827069884e+001°)
1.33934000000000e+009	(-3.36026165806793e+001dB,-1.10769222821874e+001°)
1.35933000000000e+009	(-3.36046119869203e+001dB,-1.12496719684307e+001°)
1.37932000000000e+009	(-3.36066416027531e+001dB,-1.14223263355445e+001°)
1.39931000000000e+009	(-3.36087061385733e+001dB,-1.15948801506986e+001°)
1.41930000000000e+009	(-3.36108061767896e+001dB,-1.17673283925767e+001°)
1.43929000000000e+009	(-3.36129421864243e+001dB,-1.19396662602176e+001°)
1.45928000000000e+009	(-3.36151145361605e+001dB,-1.21118891775991e+001°)
1.47927000000000e+009	(-3.36173235060003e+001dB,-1.22839927947677e+001°)
1.49926000000000e+009	(-3.36195692976746e+001dB,-1.24559729862657e+001°)
1.51925000000000e+009	(-3.36218520439338e+001dB,-1.26278258474101e+001°)
1.53924000000000e+009	(-3.36241718168375e+001dB,-1.27995476889326e+001°)
1.55923000000000e+009	(-3.36265286351447e+001dB,-1.29711350303523e+001°)
1.57922000000000e+009	(-3.36289224709021e+001dB,-1.31425845924587e+001°)
1.59921000000000e+009	(-3.36313532553121e+001dB,-1.33138932891083e+001°)
1.61920000000000e+009	(-3.36338208839570e+001dB,-1.34850582186262e+001°)
1.63919000000000e+009	(-3.36363252214481e+001dB,-1.36560766549282e+001°)
1.65918000000000e+009	(-3.36388661055591e+001dB,-1.38269460385690e+001°)
1.67917000000000e+009	(-3.36414433508997e+001dB,-1.39976639677618e+001°)
1.69916000000000e+009	(-3.36440567521766e+001dB,-1.41682281895282e+001°)
1.71915000000000e+009	(-3.36467060870875e+001dB,-1.43386365910086e+001°)
1.73914000000000e+009	(-3.36493911188854e+001dB,-1.45088871909961e+001°)
1.75913000000000e+009	(-3.36521115986496e+001dB,-1.46789781317405e+001°)
1.77912000000000e+009	(-3.36548672672940e+001dB,-1.48489076710412e+001°)
1.79911000000000e+009	(-3.36576578573404e+001dB,-1.50186741746784e+001°)
1.81910000000000e+009	(-3.36604830944833e+001dB,-1.51882761091470e+001°)
1.83909000000000e+009	(-3.36633426989671e+001dB,-1.53577120347472e+001°)
1.85908000000000e+009	(-3.36662363867965e+001dB,-1.55269805990088e+001°)
1.87907000000000e+009	(-3.36691638707982e+001dB,-1.56960805304475e+001°)
1.89906000000000e+009	(-3.36721248615496e+001dB,-1.58650106326697e+001°)
1.91905000000000e+009	(-3.36751190681889e+001dB,-1.60337697787799e+001°)
1.93904000000000e+009	(-3.36781461991203e+001dB,-1.62023569061183e+001°)
1.95903000000000e+009	(-3.36812059626237e+001dB,-1.63707710113205e+001°)
1.97902000000000e+009	(-3.36842980673820e+001dB,-1.65390111456200e+001°)
1.99901000000000e+009	(-3.36874222229331e+001dB,-1.67070764105013e+001°)
2.01900000000000e+009	(-3.36905781400553e+001dB,-1.68749659535713e+001°)
2.03899000000000e+009	(-3.36937655310940e+001dB,-1.70426789647000e+001°)
2.05898000000000e+009	(-3.36969841102359e+001dB,-1.72102146724277e+001°)
2.07897000000000e+009	(-3.37002335937360e+001dB,-1.73775723405752e+001°)
2.09896000000000e+009	(-3.37035137001046e+001dB,-1.75447512650851e+001°)
2.11895000000000e+009	(-3.37068241502551e+001dB,-1.77117507710853e+001°)
2.13894000000000e+009	(-3.37101646676224e+001dB,-1.78785702101174e+001°)
2.15893000000000e+009	(-3.37135349782501e+001dB,-1.80452089575729e+001°)
2.17892000000000e+009	(-3.37169348108531e+001dB,-1.82116664103106e+001°)
2.19891000000000e+009	(-3.37203638968579e+001dB,-1.83779419844001e+001°)
2.21890000000000e+009	(-3.37238219704229e+001dB,-1.85440351130641e+001°)
2.23889000000000e+009	(-3.37273087684406e+001dB,-1.87099452447270e+001°)
2.25888000000000e+009	(-3.37308240305259e+001dB,-1.88756718412272e+001°)
2.27887000000000e+009	(-3.37343674989890e+001dB,-1.90412143761404e+001°)
2.29886000000000e+009	(-3.37379389187981e+001dB,-1.92065723332152e+001°)
2.31885000000000e+009	(-3.37415380375302e+001dB,-1.93717452049489e+001°)
2.33884000000000e+009	(-3.37451646053145e+001dB,-1.95367324912242e+001°)
2.35883000000000e+009	(-3.37488183747663e+001dB,-1.97015336980813e+001°)
2.37882000000000e+009	(-3.37524991009143e+001dB,-1.98661483365694e+001°)
2.39881000000000e+009	(-3.37562065411231e+001dB,-2.00305759216671e+001°)
2.41880000000000e+009	(-3.37599404550087e+001dB,-2.01948159713015e+001°)
2.43879000000000e+009	(-3.37637006043502e+001dB,-2.03588680054430e+001°)
2.45878000000000e+009	(-3.37674867529987e+001dB,-2.05227315452427e+001°)
2.47877000000000e+009	(-3.37712986667799e+001dB,-2.06864061122839e+001°)
2.49876000000000e+009	(-3.37751361133971e+001dB,-2.08498912278368e+001°)
2.51875000000000e+009	(-3.37789988623289e+001dB,-2.10131864122204e+001°)
2.53874000000000e+009	(-3.37828866847265e+001dB,-2.11762911841877e+001°)
2.55873000000000e+009	(-3.37867993533078e+001dB,-2.13392050603703e+001°)
2.57872000000000e+009	(-3.37907366422507e+001dB,-2.15019275547859e+001°)
2.59871000000000e+009	(-3.37946983270840e+001dB,-2.16644581783597e+001°)
2.61870000000000e+009	(-3.37986841845782e+001dB,-2.18267964385165e+001°)
2.63869000000000e+009	(-3.38026939926334e+001dB,-2.19889418388000e+001°)
2.65868000000000e+009	(-3.38067275301681e+001dB,-2.21508938785316e+001°)
2.67867000000000e+009	(-3.38107845770050e+001dB,-2.23126520525159e+001°)
2.69866000000000e+009	(-3.38148649137574e+001dB,-2.24742158507578e+001°)
2.71865000000000e+009	(-3.38189683217140e+001dB,-2.26355847582474e+001°)
2.73864000000000e+009	(-3.38230945827226e+001dB,-2.27967582547422e+001°)
2.75863000000000e+009	(-3.38272434790738e+001dB,-2.29577358146098e+001°)
2.77862000000000e+009	(-3.38314147933827e+001dB,-2.31185169066817e+001°)
2.79861000000000e+009	(-3.38356083084706e+001dB,-2.32791009941552e+001°)
2.81860000000000e+009	(-3.38398238072459e+001dB,-2.34394875344997e+001°)
2.83859000000000e+009	(-3.38440610725829e+001dB,-2.35996759794262e+001°)
2.85858000000000e+009	(-3.38483198872013e+001dB,-2.37596657748545e+001°)
2.87857000000000e+009	(-3.38526000335434e+001dB,-2.39194563609332e+001°)
2.89856000000000e+009	(-3.38569012936512e+001dB,-2.40790471720762e+001°)
2.91855000000000e+009	(-3.38612234490420e+001dB,-2.42384376370319e+001°)
2.93854000000000e+009	(-3.38655662805831e+001dB,-2.43976271789930e+001°)
2.95853000000000e+009	(-3.38699295683655e+001dB,-2.45566152157220e+001°)
2.97852000000000e+009	(-3.38743130915764e+001dB,-2.47154011597283e+001°)
2.99851000000000e+009	(-3.38787166283715e+001dB,-2.48739844184526e+001°)
3.01850000000000e+009	(-3.38831399557443e+001dB,-2.50323643945131e+001°)
3.03849000000000e+009	(-3.38875828493966e+001dB,-2.51905404859770e+001°)
3.05848000000000e+009	(-3.38920450836068e+001dB,-2.53485120866625e+001°)
3.07847000000000e+009	(-3.38965264310972e+001dB,-2.55062785864914e+001°)
3.09846000000000e+009	(-3.39010266629016e+001dB,-2.56638393718736e+001°)
3.11845000000000e+009	(-3.39055455482302e+001dB,-2.58211938261453e+001°)
3.13844000000000e+009	(-3.39100828543366e+001dB,-2.59783413300323e+001°)
3.15843000000000e+009	(-3.39146383463812e+001dB,-2.61352812621936e+001°)
3.17842000000000e+009	(-3.39192117872974e+001dB,-2.62920129997739e+001°)
3.19841000000000e+009	(-3.39238029376555e+001dB,-2.64485359190416e+001°)
3.21840000000000e+009	(-3.39284115555283e+001dB,-2.66048493960567e+001°)
3.23839000000000e+009	(-3.39330373963554e+001dB,-2.67609528074222e+001°)
3.25838000000000e+009	(-3.39376802128113e+001dB,-2.69168455310586e+001°)
3.27837000000000e+009	(-3.39423397546716e+001dB,-2.70725269470744e+001°)
3.29836000000000e+009	(-3.39470157686830e+001dB,-2.72279964386827e+001°)
3.31835000000000e+009	(-3.39517079984340e+001dB,-2.73832533931933e+001°)
3.33834000000000e+009	(-3.39564161842304e+001dB,-2.75382972030671e+001°)
3.35833000000000e+009	(-3.39611400629716e+001dB,-2.76931272670481e+001°)
3.37832000000000e+009	(-3.39658793680328e+001dB,-2.78477429913695e+001°)
3.39831000000000e+009	(-3.39706338291509e+001dB,-2.80021437910486e+001°)
3.41830000000000e+009	(-3.39754031723169e+001dB,-2.81563290912354e+001°)
3.43829000000000e+009	(-3.39801871196738e+001dB,-2.83102983286671e+001°)
3.45828000000000e+009	(-3.39849853894222e+001dB,-2.84640509532043e+001°)
3.47827000000000e+009	(-3.39897976957348e+001dB,-2.86175864294385e+001°)
3.49826000000000e+009	(-3.39946237486800e+001dB,-2.87709042383993e+001°)
3.51825000000000e+009	(-3.39994632541560e+001dB,-2.89240038793477e+001°)
3.53824000000000e+009	(-3.40043159138377e+001dB,-2.90768848716481e+001°)
3.55823000000000e+009	(-3.40091814251363e+001dB,-2.92295467567422e+001°)
3.57822000000000e+009	(-3.40140594811735e+001dB,-2.93819891001973e+001°)
3.59821000000000e+009	(-3.40189497707732e+001dB,-2.95342114938471e+001°)
3.61820000000000e+009	(-3.40238519784695e+001dB,-2.96862135580045e+001°)
3.63819000000000e+009	(-3.40287657845348e+001dB,-2.98379949437762e+001°)
3.65818000000000e+009	(-3.40336908650301e+001dB,-2.99895553354182e+001°)
3.67817000000000e+009	(-3.40386268918758e+001dB,-3.01408944528016e+001°)
3.69816000000000e+009	(-3.40435735329499e+001dB,-3.02920120538980e+001°)
3.71815000000000e+009	(-3.40485304522103e+001dB,-3.04429079373563e+001°)
3.73814000000000e+009	(-3.40534973098468e+001dB,-3.05935819451041e+001°)
3.75813000000000e+009	(-3.40584737624627e+001dB,-3.07440339649921e+001°)
3.77812000000000e+009	(-3.40634594632874e+001dB,-3.08942639334573e+001°)
3.79811000000000e+009	(-3.40684540624240e+001dB,-3.10442718382008e+001°)
3.81810000000000e+009	(-3.40734572071297e+001dB,-3.11940577208565e+001°)
3.83809000000000e+009	(-3.40784685421353e+001dB,-3.13436216796320e+001°)
3.85808000000000e+009	(-3.40834877099999e+001dB,-3.14929638719186e+001°)
3.87807000000000e+009	(-3.40885143515064e+001dB,-3.16420845168226e+001°)
3.89806000000000e+009	(-3.40935481060963e+001dB,-3.17909838976315e+001°)
3.91805000000000e+009	(-3.40985886123452e+001dB,-3.19396623641514e+001°)
3.93804000000000e+009	(-3.41036355084791e+001dB,-3.20881203349226e+001°)
3.95803000000000e+009	(-3.41086884329317e+001dB,-3.22363582992755e+001°)
3.97802000000000e+009	(-3.41137470249438e+001dB,-3.23843768191854e+001°)
3.99801000000000e+009	(-3.41188109252005e+001dB,-3.25321765309214e+001°)
4.01800000000000e+009	(-3.41238797765098e+001dB,-3.26797581464357e+001°)
4.03799000000000e+009	(-3.41289532245168e+001dB,-3.28271224544829e+001°)
4.05798000000000e+009	(-3.41340309184532e+001dB,-3.29742703214220e+001°)
4.07797000000000e+009	(-3.41391125119206e+001dB,-3.31212026916728e+001°)
4.09796000000000e+009	(-3.41441976637015e+001dB,-3.32679205878108e+001°)
4.11795000000000e+009	(-3.41492860385954e+001dB,-3.34144251102524e+001°)
4.13794000000000e+009	(-3.41543773082776e+001dB,-3.35607174364996e+001°)
4.15793000000000e+009	(-3.41594711521714e+001dB,-3.37067988199496e+001°)
4.17792000000000e+009	(-3.41645672583313e+001dB,-3.38526705882016e+001°)
4.19791000000000e+009	(-3.41696653243300e+001dB,-3.39983341408707e+001°)
4.21790000000000e+009	(-3.41747650581421e+001dB,-3.41437909468811e+001°)
4.23789000000000e+009	(-3.41798661790167e+001dB,-3.42890425412252e+001°)
4.25788000000000e+009	(-3.41849684183328e+001dB,-3.44340905211698e+001°)
4.27787000000000e+009	(-3.41900715204267e+001dB,-3.45789365419427e+001°)
4.29786000000000e+009	(-3.41951752433862e+001dB,-3.47235823118448e+001°)
4.31785000000000e+009	(-3.42002793597991e+001dB,-3.48680295868484e+001°)
4.33784000000000e+009	(-3.42053836574511e+001dB,-3.50122801646665e+001°)
4.35783000000000e+009	(-3.42104879399607e+001dB,-3.51563358783238e+001°)
4.37782000000000e+009	(-3.42155920273456e+001dB,-3.53001985892618e+001°)
4.39781000000000e+009	(-3.42206957565098e+001dB,-3.54438701800043e+001°)
4.41780000000000e+009	(-3.42257989816448e+001dB,-3.55873525464344e+001°)
4.43779000000000e+009	(-3.42309015745379e+001dB,-3.57306475897255e+001°)
4.45778000000000e+009	(-3.42360034247791e+001dB,-3.58737572079862e+001°)
4.47777000000000e+009	(-3.42411044398627e+001dB,-3.60166832876831e+001°)
4.49776000000000e+009	(-3.42462045451782e+001dB,-3.61594276948975e+001°)
4.51775000000000e+009	(-3.42513036838854e+001dB,-3.63019922665007e+001°)
4.53774000000000e+009	(-3.42564018166744e+001dB,-3.64443788013109e+001°)
4.55773000000000e+009	(-3.42614989214046e+001dB,-3.65865890513248e+001°)
4.57772000000000e+009	(-3.42665949926275e+001dB,-3.67286247130793e+001°)
4.59771000000000e+009	(-3.42716900409911e+001dB,-3.68704874192550e+001°)
4.61770000000000e+009	(-3.42767840925310e+001dB,-3.70121787305703e+001°)
4.63769000000000e+009	(-3.42818771878519e+001dB,-3.71537001280599e+001°)
4.65768000000000e+009	(-3.42869693812040e+001dB,-3.72950530058147e+001°)
4.67767000000000e+009	(-3.42920607394632e+001dB,-3.74362386642441e+001°)
4.69766000000000e+009	(-3.42971513410225e+001dB,-3.75772583039221e+001°)
4.71765000000000e+009	(-3.43022412746021e+001dB,-3.77181130200937e+001°)
4.73764000000000e+009	(-3.43073306379925e+001dB,-3.78588037978727e+001°)
4.75763000000000e+009	(-3.43124195367369e+001dB,-3.79993315081843e+001°)
4.77762000000000e+009	(-3.43175080827692e+001dB,-3.81396969044796e+001°)
4.79761000000000e+009	(-3.43225963930161e+001dB,-3.82799006202561e+001°)
4.81760000000000e+009	(-3.43276845879780e+001dB,-3.84199431673903e+001°)
4.83759000000000e+009	(-3.43327727903006e+001dB,-3.85598249352985e+001°)
4.85758000000000e+009	(-3.43378611233513e+001dB,-3.86995461908923e+001°)
4.87757000000000e+009	(-3.43429497098082e+001dB,-3.88391070793696e+001°)
4.89756000000000e+009	(-3.43480386702796e+001dB,-3.89785076257619e+001°)
4.91755000000000e+009	(-3.43531281219608e+001dB,-3.91177477372376e+001°)
4.93754000000000e+009	(-3.43582181773405e+001dB,-3.92568272061216e+001°)
4.95753000000000e+009	(-3.43633089429651e+001dB,-3.93957457135780e+001°)
4.97752000000000e+009	(-3.43684005182716e+001dB,-3.95345028339061e+001°)
4.99751000000000e+009	(-3.43734929944945e+001dB,-3.96730980393952e+001°)
5.01750000000000e+009	(-3.43785864536542e+001dB,-3.98115307056807e+001°)
5.03749000000000e+009	(-3.43836809676316e+001dB,-3.99498001175306e+001°)
5.05748000000000e+009	(-3.43887765973336e+001dB,-4.00879054750127e+001°)
5.07747000000000e+009	(-3.43938733919513e+001dB,-4.02258458999510e+001°)
5.09746000000000e+009	(-3.43989713883139e+001dB,-4.03636204426354e+001°)
5.11745000000000e+009	(-3.44040706103375e+001dB,-4.05012280886968e+001°)
5.13744000000000e+009	(-3.44091710685699e+001dB,-4.06386677660955e+001°)
5.15743000000000e+009	(-3.44142727598276e+001dB,-4.07759383521698e+001°)
5.17742000000000e+009	(-3.44193756669265e+001dB,-4.09130386806583e+001°)
5.19741000000000e+009	(-3.44244797584983e+001dB,-4.10499675486831e+001°)
5.21740000000000e+009	(-3.44295849888932e+001dB,-4.11867237236202e+001°)
5.23739000000000e+009	(-3.44346912981622e+001dB,-4.13233059498009e+001°)
5.25738000000000e+009	(-3.44397986121140e+001dB,-4.14597129550423e+001°)
5.27737000000000e+009	(-3.44449068424427e+001dB,-4.15959434569327e+001°)
5.29736000000000e+009	(-3.44500158869190e+001dB,-4.17319961688678e+001°)
5.31735000000000e+009	(-3.44551256296411e+001dB,-4.18678698057939e+001°)
5.33734000000000e+009	(-3.44602359413366e+001dB,-4.20035630896545e+001°)
5.35733000000000e+009	(-3.44653466797130e+001dB,-4.21390747545099e+001°)
5.37732000000000e+009	(-3.44704576898479e+001dB,-4.22744035513256e+001°)
5.39731000000000e+009	(-3.44755688046156e+001dB,-4.24095482524191e+001°)
