time	V(d_1p)	V(d_3p)	V(d_5p)
0.000000000000000e+000	0.000000e+000	0.000000e+000	0.000000e+000
4.571428491207636e-014	-6.396193e-006	4.747660e-005	2.054053e-005
9.142856982415272e-014	-6.782728e-006	8.114401e-005	3.573892e-005
1.371428547362291e-013	-1.159605e-006	1.010022e-004	4.559517e-005
1.828571396483054e-013	1.047318e-005	1.070513e-004	5.010929e-005
2.285714245603818e-013	2.811561e-005	9.929113e-005	4.928126e-005
2.742857094724582e-013	5.176771e-005	7.772180e-005	4.311109e-005
3.199999943845344e-013	8.142946e-005	4.234328e-005	3.159879e-005
6.399999887690688e-013	1.799298e-004	-1.423108e-004	-3.341156e-005
9.455313678069431e-013	1.368914e-004	-2.093116e-004	-7.013241e-005
1.373101591119077e-012	-8.197748e-005	-6.152610e-005	-4.721982e-005
1.572999180403865e-012	-2.019197e-004	6.148790e-005	-1.628972e-005
1.742000000000000e-012	-2.892975e-004	1.629845e-004	1.261522e-005
1.792700245878841e-012	-3.013052e-004	1.344474e-004	-3.050883e-006
1.860300573717295e-012	-3.352862e-004	1.333226e-004	-9.009067e-006
1.995501229394203e-012	-4.296001e-004	2.104319e-004	1.217765e-005
2.265902540748019e-012	-5.693657e-004	4.346573e-004	9.586993e-005
2.565716980112875e-012	-5.290107e-004	5.456053e-004	1.632998e-004
2.902494924474342e-012	-2.414553e-004	3.860450e-004	1.589297e-004
3.243478512522143e-012	1.914306e-004	1.401491e-005	8.377661e-005
3.638405676165088e-012	6.931266e-004	-4.677838e-004	-4.239973e-005
4.065257333913878e-012	1.069362e-003	-8.322546e-004	-1.665859e-004
4.581225005773043e-012	1.147310e-003	-8.833066e-004	-2.375586e-004
5.067369115549373e-012	8.149972e-004	-5.458099e-004	-2.048279e-004
5.596145455442280e-012	1.007621e-004	7.723441e-005	-8.138300e-005
6.139328565530535e-012	-8.102871e-004	7.379064e-004	8.498082e-005
6.672737977025127e-012	-1.625695e-003	1.174690e-003	2.258152e-004
7.340637322954162e-012	-2.162510e-003	1.228936e-003	3.032651e-004
7.912954776926246e-012	-1.986447e-003	8.338900e-004	2.639531e-004
8.031803938912356e-012	-1.865384e-003	7.072871e-004	2.439086e-004
8.269502262884577e-012	-1.535620e-003	4.231830e-004	1.943290e-004
8.710000000000000e-012	-6.467512e-004	-1.654245e-004	7.945617e-005
8.754049773711542e-012	-5.562840e-004	-2.678864e-004	8.738664e-005
8.842149321134627e-012	-3.557173e-004	-4.345783e-004	1.055005e-004
9.018348415980796e-012	1.294760e-004	-6.224992e-004	1.330061e-004
9.177182022197084e-012	6.219117e-004	-7.246364e-004	1.242503e-004
9.494849234629660e-012	1.641997e-003	-9.756358e-004	-1.282271e-005
9.815022490234752e-012	2.643640e-003	-1.335093e-003	-2.590749e-004
1.003004878294419e-011	3.271567e-003	-1.607788e-003	-4.389984e-004
1.045200000000000e-011	4.335721e-003	-2.035005e-003	-6.952236e-004
1.057858536511674e-011	4.643340e-003	-2.030320e-003	-7.966845e-004
1.074736585193907e-011	4.949622e-003	-2.134105e-003	-8.946965e-004
1.106351980879842e-011	5.313019e-003	-2.262062e-003	-8.703475e-004
1.134812777307531e-011	5.460782e-003	-2.088055e-003	-6.129092e-004
1.170846737969832e-011	5.398884e-003	-1.454736e-003	-9.202414e-005
1.204024851465335e-011	5.053242e-003	-6.285412e-004	4.300611e-004
1.246597595154490e-011	4.152178e-003	4.615690e-004	9.496920e-004
1.289273155422270e-011	2.733890e-003	1.342550e-003	1.172992e-003
1.336176870237262e-011	6.735332e-004	1.899285e-003	1.027580e-003
1.387276234771391e-011	-1.929644e-003	2.013329e-003	4.849372e-004
1.438575923624394e-011	-4.553771e-003	1.752421e-003	-2.779560e-004
1.496586603959620e-011	-6.960798e-003	1.267441e-003	-1.101443e-003
1.550944622967138e-011	-8.130965e-003	8.414722e-004	-1.571607e-003
1.611410314756351e-011	-7.575040e-003	5.404471e-004	-1.515471e-003
1.668579336691958e-011	-4.804790e-003	4.164531e-004	-8.182746e-004
1.678257771637452e-011	-4.097968e-003	4.063282e-004	-6.381588e-004
1.697614641528440e-011	-2.463636e-003	3.874693e-004	-2.297238e-004
1.703286260218024e-011	-1.928597e-003	3.817966e-004	-9.838643e-005
1.714629497597191e-011	-7.812129e-004	3.688733e-004	1.785881e-004
1.719313525241666e-011	-2.772622e-004	3.627405e-004	2.982934e-004
1.728681580530616e-011	7.837314e-004	3.484422e-004	5.462010e-004
1.742000000000000e-011	2.414157e-003	3.222055e-004	9.162984e-004
1.751322893628569e-011	3.650050e-003	2.140250e-004	1.149252e-003
1.761977629204077e-011	5.104215e-003	1.727324e-004	1.458494e-003
1.783287100355091e-011	8.255150e-003	1.887606e-004	2.146582e-003
1.816596773701295e-011	1.398666e-002	1.435494e-004	3.260059e-003
1.852140961211889e-011	2.120358e-002	-2.135278e-004	4.367936e-003
1.865506589859777e-011	2.419008e-002	-4.373734e-004	4.747090e-003
1.889468742704223e-011	2.985927e-002	-9.261277e-004	5.361943e-003
1.916200000000000e-011	3.660553e-002	-1.562351e-003	5.939052e-003
1.924219377188733e-011	3.870028e-002	-1.689732e-003	6.120729e-003
1.934911880107044e-011	4.158135e-002	-1.946133e-003	6.313397e-003
1.956296885943665e-011	4.753830e-002	-2.603085e-003	6.577274e-003
1.987062910084196e-011	5.635752e-002	-3.575111e-003	6.767396e-003
2.019907266477927e-011	6.597180e-002	-4.442733e-003	6.776738e-003
2.061616529087681e-011	7.847740e-002	-5.321356e-003	6.484293e-003
2.116707849158518e-011	9.558012e-002	-6.458797e-003	5.504059e-003
2.183707538948118e-011	1.171882e-001	-8.270293e-003	3.426852e-003
2.250093219199560e-011	1.390386e-001	-1.059734e-002	7.165233e-004
2.310952866276578e-011	1.588111e-001	-1.287716e-002	-1.815372e-003
2.371670755034880e-011	1.775504e-001	-1.483077e-002	-3.730090e-003
2.416784057090179e-011	1.904354e-001	-1.585879e-002	-4.380433e-003
2.462283274921232e-011	2.022364e-001	-1.642703e-002	-4.066071e-003
2.510791474042146e-011	2.132957e-001	-1.651445e-002	-2.416180e-003
2.551948281135135e-011	2.213645e-001	-1.622026e-002	1.855412e-004
2.613000000000000e-011	2.311291e-001	-1.535350e-002	6.247411e-003
2.631315515659459e-011	2.335929e-001	-1.493971e-002	8.515199e-003
2.655736203205405e-011	2.364816e-001	-1.459610e-002	1.193357e-002
2.685012578354396e-011	2.394796e-001	-1.418064e-002	1.671304e-002
2.722164874334729e-011	2.427341e-001	-1.345841e-002	2.378513e-002
2.749400177410601e-011	2.447941e-001	-1.283315e-002	2.959338e-002
2.766070960972945e-011	2.459428e-001	-1.245363e-002	3.336290e-002
2.789312903902706e-011	2.474133e-001	-1.199133e-002	3.886306e-002
2.801990327318938e-011	2.481377e-001	-1.181913e-002	4.202590e-002
2.848074846369483e-011	2.507535e-001	-1.095374e-002	5.392799e-002
2.878953544024100e-011	2.523852e-001	-1.068259e-002	6.213159e-002
2.918724941916463e-011	2.544039e-001	-1.074777e-002	7.300945e-002
2.966203419671758e-011	2.568677e-001	-1.105263e-002	8.657967e-002
3.025292997819166e-011	2.602458e-001	-1.110282e-002	1.043802e-001
3.081455387752368e-011	2.638324e-001	-1.039513e-002	1.219909e-001
3.133063915184643e-011	2.673157e-001	-9.014216e-003	1.383507e-001
3.189749902311198e-011	2.709958e-001	-6.868791e-003	1.559162e-001
3.241428828886920e-011	2.738262e-001	-4.568315e-003	1.710567e-001
3.285312834210495e-011	2.755282e-001	-2.512305e-003	1.829346e-001
3.336118714998411e-011	2.763496e-001	-1.318131e-004	1.952858e-001
3.382396209442771e-011	2.757822e-001	1.999394e-003	2.050975e-001
3.419602431576234e-011	2.742845e-001	3.690620e-003	2.119606e-001
3.484000000000000e-011	2.692881e-001	6.639506e-003	2.218006e-001
3.500763900250042e-011	2.674748e-001	7.513544e-003	2.239959e-001
3.535023662395365e-011	2.632403e-001	8.972008e-003	2.279112e-001
3.570117941740411e-011	2.578427e-001	1.057033e-002	2.313851e-001
3.615782364343564e-011	2.492606e-001	1.302302e-002	2.353335e-001
3.660841619755312e-011	2.393785e-001	1.563649e-002	2.387637e-001
3.676691338287186e-011	2.356035e-001	1.649926e-002	2.398644e-001
3.730187499244246e-011	2.219436e-001	1.972885e-002	2.436119e-001
3.760059914121966e-011	2.140049e-001	2.124586e-002	2.456242e-001
3.796063229615384e-011	2.041706e-001	2.273441e-002	2.480150e-001
3.877024720652726e-011	1.807892e-001	2.539490e-002	2.536248e-001
3.974938550503169e-011	1.505150e-001	2.830984e-002	2.611899e-001
4.022272611283287e-011	1.356162e-001	2.946383e-002	2.649440e-001
4.073536526713457e-011	1.198021e-001	3.022242e-002	2.687418e-001
4.126517968208491e-011	1.042781e-001	3.022532e-002	2.720121e-001
4.183569741853791e-011	8.902270e-002	2.916172e-002	2.743373e-001
4.241167121161102e-011	7.560255e-002	2.694725e-002	2.749883e-001
4.296405798042454e-011	6.485838e-002	2.387519e-002	2.736801e-001
4.328306895852490e-011	5.963827e-002	2.176550e-002	2.719690e-001
4.357669310414751e-011	5.544141e-002	1.964336e-002	2.697515e-001
4.389532311324563e-011	5.152113e-002	1.728735e-002	2.667636e-001
4.421226588167176e-011	4.828402e-002	1.503986e-002	2.629201e-001
4.452086301897395e-011	4.559753e-002	1.269531e-002	2.583407e-001
4.492500499696443e-011	4.261930e-002	9.458987e-003	2.512624e-001
4.529200000000000e-011	4.034275e-002	6.553411e-003	2.439510e-001
4.540209850091067e-011	3.976488e-002	5.798058e-003	2.415593e-001
4.584249250455336e-011	3.744141e-002	2.501573e-003	2.315376e-001
4.612958307705379e-011	3.603110e-002	6.296774e-004	2.247304e-001
4.647893803673337e-011	3.440701e-002	-1.201811e-003	2.161438e-001
4.681066641243518e-011	3.287850e-002	-2.622006e-003	2.076117e-001
4.722290681302919e-011	3.087664e-002	-4.232138e-003	1.964245e-001
4.767680804927858e-011	2.844606e-002	-6.086036e-003	1.833832e-001
4.813404766088980e-011	2.573770e-002	-8.213251e-003	1.696338e-001
4.862722366704909e-011	2.262503e-002	-1.081935e-002	1.544325e-001
4.910426647462900e-011	1.962877e-002	-1.353434e-002	1.397441e-001
4.958578792628066e-011	1.690718e-002	-1.628858e-002	1.253508e-001
5.011207426438734e-011	1.466804e-002	-1.911058e-002	1.105704e-001
5.069429981328504e-011	1.357892e-002	-2.182998e-002	9.583596e-002
5.127870052535994e-011	1.442879e-002	-2.406927e-002	8.307418e-002
5.158479053233826e-011	1.577815e-002	-2.505495e-002	7.725162e-002
5.177387889345359e-011	1.695167e-002	-2.560849e-002	7.395183e-002
5.202599670827403e-011	1.893788e-002	-2.629302e-002	6.989223e-002
5.228340032917259e-011	2.147970e-002	-2.696684e-002	6.612082e-002
5.242380230420818e-011	2.306388e-002	-2.737121e-002	6.419035e-002
5.261100493758896e-011	2.535429e-002	-2.773108e-002	6.183775e-002
5.297016695977194e-011	3.058462e-002	-2.832752e-002	5.781238e-002
5.335194564504691e-011	3.741789e-002	-2.911673e-002	5.404631e-002
5.364741845626933e-011	4.353685e-002	-2.986590e-002	5.140735e-002
5.380108791495010e-011	4.697767e-002	-3.024929e-002	5.013988e-002
5.395475737363088e-011	5.055355e-002	-3.063157e-002	4.889568e-002
5.410842683231166e-011	5.426450e-002	-3.101272e-002	4.767474e-002
5.426209629099244e-011	5.811051e-002	-3.139276e-002	4.647707e-002
5.441576574967321e-011	6.209158e-002	-3.177167e-002	4.530266e-002
5.456943520835399e-011	6.620772e-002	-3.214947e-002	4.415151e-002
5.472310466703476e-011	7.045893e-002	-3.252614e-002	4.302363e-002
5.513087549489687e-011	8.183140e-002	-3.308239e-002	4.007212e-002
5.563986545032592e-011	9.664971e-002	-3.317464e-002	3.644381e-002
5.619023428325470e-011	1.135424e-001	-3.294670e-002	3.238809e-002
5.690431546263875e-011	1.366056e-001	-3.260852e-002	2.679717e-002
5.751135224649392e-011	1.567535e-001	-3.224892e-002	2.192073e-002
5.800300087518502e-011	1.729562e-001	-3.168873e-002	1.816446e-002
5.858054319869449e-011	1.912162e-001	-3.040015e-002	1.442930e-002
5.910347715237995e-011	2.065281e-001	-2.846464e-002	1.207641e-002
5.957428827344771e-011	2.189569e-001	-2.604384e-002	1.111316e-002
6.006453583085624e-011	2.302799e-001	-2.290080e-002	1.153683e-002
6.033186189572527e-011	2.357089e-001	-2.096131e-002	1.244853e-002
6.043534787026197e-011	2.376654e-001	-2.017616e-002	1.293881e-002
6.064231981933537e-011	2.413363e-001	-1.856169e-002	1.415724e-002
6.100276801806646e-011	2.469873e-001	-1.561671e-002	1.704021e-002
6.119937612646523e-011	2.496998e-001	-1.396245e-002	1.893993e-002
6.146152027099694e-011	2.528351e-001	-1.195789e-002	2.199454e-002
6.182572948819860e-011	2.565081e-001	-9.134945e-003	2.728302e-002
6.224376547067299e-011	2.599484e-001	-5.762122e-003	3.471888e-002
6.271200000000000e-011	2.630145e-001	-2.108409e-003	4.446860e-002
6.285247035879811e-011	2.637521e-001	-1.173105e-003	4.771964e-002
6.303976417052892e-011	2.647317e-001	1.740953e-004	5.219031e-002
6.327479718061144e-011	2.658921e-001	1.791427e-003	5.796425e-002
6.371005048069380e-011	2.677935e-001	4.164955e-003	6.907450e-002
6.413605118918757e-011	2.694453e-001	5.762999e-003	8.055518e-002
6.472446525426260e-011	2.717099e-001	7.443321e-003	9.758987e-002
6.532136735944385e-011	2.742272e-001	9.211970e-003	1.161971e-001
6.589981885619575e-011	2.768990e-001	1.135041e-002	1.350979e-001
6.640456924302831e-011	2.792415e-001	1.354756e-002	1.517914e-001
6.691958014012838e-011	2.813325e-001	1.593978e-002	1.684656e-001
6.746722676135455e-011	2.828109e-001	1.844215e-002	1.852332e-001
6.791708871576816e-011	2.831484e-001	2.035626e-002	1.979233e-001
6.842417718491362e-011	2.822522e-001	2.230923e-002	2.107659e-001
6.905959786023932e-011	2.788352e-001	2.449133e-002	2.244564e-001
6.919954380909968e-011	2.776924e-001	2.494666e-002	2.270965e-001
6.933948975796002e-011	2.764111e-001	2.540092e-002	2.296156e-001
6.947943570682037e-011	2.749914e-001	2.585413e-002	2.320137e-001
6.961938165568071e-011	2.734331e-001	2.630627e-002	2.342909e-001
6.975932760454107e-011	2.717363e-001	2.675736e-002	2.364471e-001
6.989927355340141e-011	2.699011e-001	2.720739e-002	2.384823e-001
7.003921950226176e-011	2.679273e-001	2.765636e-002	2.403965e-001
7.033986020768834e-011	2.631745e-001	2.848554e-002	2.441103e-001
7.066698098422977e-011	2.570898e-001	2.957154e-002	2.477020e-001
7.089585416097078e-011	2.522144e-001	3.050532e-002	2.499194e-001
7.112472733771177e-011	2.470454e-001	3.145635e-002	2.520325e-001
7.135360051445277e-011	2.415829e-001	3.242462e-002	2.540413e-001
7.158247369119377e-011	2.358269e-001	3.341014e-002	2.559459e-001
7.181134686793478e-011	2.297774e-001	3.441290e-002	2.577463e-001
7.204022004467577e-011	2.234343e-001	3.543291e-002	2.594425e-001
7.226909322141677e-011	2.167978e-001	3.647016e-002	2.610344e-001
7.262178744926610e-011	2.065756e-001	3.762226e-002	2.634213e-001
7.336673034870897e-011	1.839204e-001	3.924108e-002	2.682334e-001
7.427432047778225e-011	1.543696e-001	4.077936e-002	2.742398e-001
7.477153642055384e-011	1.376694e-001	4.142900e-002	2.775571e-001
7.524120293385359e-011	1.219593e-001	4.168598e-002	2.805088e-001
7.577082236595362e-011	1.047896e-001	4.127311e-002	2.833211e-001
7.626554780952121e-011	8.970244e-002	4.000505e-002	2.851450e-001
7.688029271522775e-011	7.283688e-002	3.708152e-002	2.858479e-001
7.747730213515340e-011	5.889755e-002	3.285458e-002	2.844523e-001
7.771746047274653e-011	5.403503e-002	3.080467e-002	2.832361e-001
7.800555429586558e-011	4.878647e-002	2.812766e-002	2.812380e-001
7.819729623796925e-011	4.564302e-002	2.623536e-002	2.795725e-001
7.844781112860922e-011	4.192061e-002	2.359441e-002	2.770106e-001
7.867905564304612e-011	3.889517e-002	2.114804e-002	2.743176e-001
7.898738166229531e-011	3.547977e-002	1.796303e-002	2.700011e-001
7.929145665332081e-011	3.264840e-002	1.465803e-002	2.649155e-001
7.975163486425932e-011	2.916894e-002	9.369752e-003	2.558427e-001
8.013200000000000e-011	2.690254e-002	4.983904e-003	2.473116e-001
8.020317617285592e-011	2.656062e-002	4.251188e-003	2.455930e-001
8.029807773666382e-011	2.609818e-002	3.215781e-003	2.432604e-001
8.048788086427961e-011	2.518978e-002	1.075380e-003	2.384886e-001
8.077243448566922e-011	2.393474e-002	-2.018970e-003	2.311425e-001
8.108497755513910e-011	2.272202e-002	-5.055196e-003	2.228346e-001
8.142256977982533e-011	2.154885e-002	-7.921429e-003	2.135295e-001
8.178329224225902e-011	2.035016e-002	-1.069080e-002	2.031292e-001
8.219208847452163e-011	1.894345e-002	-1.372075e-002	1.907305e-001
8.268906905462035e-011	1.706409e-002	-1.752698e-002	1.748690e-001
8.317107153518260e-011	1.506718e-002	-2.146455e-002	1.588969e-001
8.365168310140304e-011	1.302671e-002	-2.558736e-002	1.427601e-001
8.413931456769281e-011	1.113383e-002	-2.980967e-002	1.266057e-001
8.468556103829056e-011	9.596661e-003	-3.434392e-002	1.093160e-001
8.520394006870209e-011	9.088115e-003	-3.826484e-002	9.415448e-002
8.583041808107079e-011	1.024474e-002	-4.235583e-002	7.795572e-002
8.640621957969569e-011	1.341196e-002	-4.548309e-002	6.536393e-002
8.659355425390010e-011	1.492609e-002	-4.637903e-002	6.175835e-002
8.684333381950597e-011	1.734105e-002	-4.749566e-002	5.731824e-002
8.712566661804940e-011	2.063357e-002	-4.869193e-002	5.277577e-002
8.727966632634582e-011	2.265320e-002	-4.935746e-002	5.047888e-002
8.748499927074105e-011	2.555855e-002	-5.003060e-002	4.769932e-002
8.788105205994323e-011	3.214865e-002	-5.120612e-002	4.298535e-002
8.825129607085652e-011	3.951966e-002	-5.240165e-002	3.917449e-002
8.858209208999300e-011	4.698367e-002	-5.354488e-002	3.615787e-002
8.891997237300209e-011	5.528849e-002	-5.457303e-002	3.342063e-002
8.923186186501050e-011	6.359565e-002	-5.551590e-002	3.107637e-002
8.964771452102171e-011	7.519611e-002	-5.656100e-002	2.813501e-002
9.004163560207087e-011	8.652434e-002	-5.695661e-002	2.558442e-002
9.058533363137185e-011	1.027517e-001	-5.668582e-002	2.226834e-002
9.112748347768723e-011	1.196932e-001	-5.586818e-002	1.899622e-002
9.178476244706729e-011	1.410559e-001	-5.446037e-002	1.496355e-002
9.240732852305361e-011	1.616216e-001	-5.258510e-002	1.124603e-002
9.292802991118983e-011	1.785439e-001	-5.033725e-002	8.503502e-003
9.344745604705888e-011	1.946399e-001	-4.720553e-002	6.459048e-003
9.389106301148403e-011	2.074175e-001	-4.370421e-002	5.521071e-003
9.439633946759960e-011	2.205314e-001	-3.875708e-002	5.653208e-003
9.485976877822928e-011	2.309998e-001	-3.339168e-002	7.105007e-003
9.515180714999879e-011	2.367716e-001	-2.966107e-002	8.746894e-003
9.522592325646099e-011	2.381324e-001	-2.867755e-002	9.257898e-003
9.537415546938537e-011	2.407274e-001	-2.667325e-002	1.039797e-002
9.556664822310244e-011	2.438479e-001	-2.400496e-002	1.211620e-002
9.573016863164885e-011	2.462809e-001	-2.169074e-002	1.378951e-002
9.581342134435791e-011	2.474598e-001	-2.045954e-002	1.469692e-002
9.589667405706696e-011	2.485853e-001	-1.924098e-002	1.565371e-002
9.597992676977602e-011	2.496574e-001	-1.803509e-002	1.665986e-002
9.606317948248509e-011	2.506761e-001	-1.684184e-002	1.771537e-002
9.614643219519415e-011	2.516415e-001	-1.566125e-002	1.882026e-002
9.622968490790320e-011	2.525534e-001	-1.449332e-002	1.997451e-002
9.631293762061226e-011	2.534119e-001	-1.333804e-002	2.117813e-002
9.672752567332432e-011	2.571415e-001	-7.428959e-003	2.818347e-002
9.712372408027510e-011	2.599485e-001	-1.632719e-003	3.614700e-002
9.755200000000001e-011	2.623221e-001	4.507872e-003	4.587512e-002
9.768048277591748e-011	2.628767e-001	6.195527e-003	4.905492e-002
9.785179314380744e-011	2.636164e-001	8.536165e-003	5.340194e-002
9.807625696603297e-011	2.645288e-001	1.154356e-002	5.923055e-002
9.852093068919355e-011	2.660857e-001	1.682029e-002	7.114042e-002
9.893274797898294e-011	2.673164e-001	2.088584e-002	8.266614e-002
9.952341964150921e-011	2.690567e-001	2.590756e-002	1.002320e-001
1.001004787191665e-010	2.709728e-001	3.049937e-002	1.185392e-001
1.011728080945210e-010	2.750951e-001	3.909291e-002	1.541509e-001
1.016896891353830e-010	2.768960e-001	4.306625e-002	1.710240e-001
1.022399557965196e-010	2.781595e-001	4.688370e-002	1.879907e-001
1.026892821415985e-010	2.783923e-001	4.956919e-002	2.007359e-001
1.031979260812617e-010	2.774574e-001	5.208744e-002	2.136572e-001
1.038163280446070e-010	2.742369e-001	5.445141e-002	2.269891e-001
1.040715560541308e-010	2.721757e-001	5.523346e-002	2.316593e-001
1.043267840636546e-010	2.696393e-001	5.594838e-002	2.359409e-001
1.045820120731785e-010	2.666276e-001	5.659617e-002	2.398339e-001
1.048372400827023e-010	2.631408e-001	5.717683e-002	2.433383e-001
1.050924680922262e-010	2.591787e-001	5.769037e-002	2.464540e-001
