time	V(d_1p)	V(d_3p)	V(d_5p)
0.000000000000000e+000	0.000000e+000	0.000000e+000	0.000000e+000
4.571428491207636e-014	-2.665087e-005	2.091457e-006	4.320292e-005
9.142856982415272e-014	-4.192360e-005	4.528754e-006	8.067540e-005
1.371428547362291e-013	-4.581819e-005	7.311891e-006	1.124175e-004
1.828571396483054e-013	-3.833465e-005	1.044087e-005	1.384291e-004
2.285714245603818e-013	-1.947298e-005	1.391569e-005	1.587103e-004
2.742857094724582e-013	1.076683e-005	1.773634e-005	1.732610e-004
3.199999943845344e-013	5.238478e-005	2.190284e-005	1.820813e-004
6.399999887690688e-013	2.151097e-004	2.344466e-005	1.431556e-004
9.441252093531770e-013	2.055588e-004	-3.071225e-007	-1.052017e-005
1.373615065973194e-012	-4.104994e-005	-3.943880e-005	-2.500931e-004
1.586805667379205e-012	-2.017279e-004	-5.111658e-005	-3.346232e-004
1.742000000000000e-012	-3.073836e-004	-5.423522e-005	-3.690746e-004
1.788558299786239e-012	-3.028223e-004	-5.564342e-005	-4.185954e-004
1.850636032834557e-012	-3.256836e-004	-5.912460e-005	-4.714476e-004
1.974791498931193e-012	-4.271409e-004	-6.626317e-005	-5.329126e-004
2.223102431124466e-012	-6.427797e-004	-6.364465e-005	-5.037418e-004
2.529951059222641e-012	-7.008192e-004	-2.422189e-005	-2.583416e-004
2.853098900675324e-012	-4.480279e-004	4.003814e-005	1.312973e-004
3.199572738876876e-012	5.282643e-005	1.026909e-004	5.556482e-004
3.578928081430640e-012	6.622851e-004	1.399360e-004	8.958426e-004
4.007767252962106e-012	1.192981e-003	1.330873e-004	1.028732e-003
4.508767601865956e-012	1.391222e-003	6.948264e-005	8.240717e-004
5.005307112256256e-012	1.073216e-003	-2.709715e-005	3.112862e-004
5.520884394628867e-012	2.957784e-004	-1.281431e-004	-3.947624e-004
6.065261253744556e-012	-7.696162e-004	-2.015671e-004	-1.127428e-003
6.587636808407197e-012	-1.731276e-003	-2.183831e-004	-1.631666e-003
7.246134810278729e-012	-2.423541e-003	-1.560132e-004	-1.768450e-003
7.850557173967530e-012	-2.286419e-003	-3.072024e-005	-1.307331e-003
8.340732613557581e-012	-1.566021e-003	9.793973e-005	-5.294542e-004
8.805655340889098e-012	-4.393854e-004	2.208971e-004	4.691874e-004
9.346006409344775e-012	1.223213e-003	3.391444e-004	1.794397e-003
9.837298785614943e-012	2.841223e-003	4.047580e-004	2.985673e-003
1.035244812317268e-011	4.366011e-003	4.161922e-004	4.018533e-003
1.084545560449737e-011	5.419324e-003	3.671823e-004	4.629949e-003
1.137498990083732e-011	5.883654e-003	2.531959e-004	4.722360e-003
1.189754935581175e-011	5.529901e-003	9.125058e-005	4.156285e-003
1.256628748178394e-011	3.881178e-003	-1.529338e-004	2.500107e-003
1.326488466422673e-011	9.864180e-004	-4.006009e-004	-9.356179e-005
1.392496275049864e-011	-2.327930e-003	-5.730698e-004	-2.886466e-003
1.452647648287917e-011	-5.229563e-003	-6.369089e-004	-5.182704e-003
1.513305344853497e-011	-7.371643e-003	-5.806981e-004	-6.663963e-003
1.570012969520185e-011	-8.092265e-003	-4.017132e-004	-6.779968e-003
1.628706195969297e-011	-6.997592e-003	-7.937111e-005	-5.121262e-003
1.687850765623265e-011	-3.575971e-003	3.863369e-004	-1.225691e-003
1.742000000000000e-011	1.843705e-003	9.307149e-004	4.532840e-003
1.758244770313021e-011	3.958900e-003	1.105760e-003	6.576195e-003
1.779904464063715e-011	6.930505e-003	1.350785e-003	9.699640e-003
1.810621636180394e-011	1.180040e-002	1.746935e-003	1.489011e-002
1.845029725948463e-011	1.832190e-002	2.248787e-003	2.164555e-002
1.870265242679038e-011	2.377519e-002	2.639029e-003	2.715030e-002
1.920793475732096e-011	3.601292e-002	3.436063e-003	3.935526e-002
1.948354330124673e-011	4.338964e-002	3.889531e-003	4.668653e-002
2.006203615104399e-011	5.988271e-002	4.778366e-003	6.265810e-002
2.041824361454324e-011	7.027876e-002	5.303146e-003	7.299229e-002
2.092074500841205e-011	8.534773e-002	6.071843e-003	8.830084e-002
2.153280203435077e-011	1.044978e-001	7.062167e-003	1.079378e-001
2.230290867938431e-011	1.295965e-001	8.304104e-003	1.333733e-001
2.304153670454147e-011	1.538593e-001	9.340836e-003	1.573243e-001
2.374601042129613e-011	1.759515e-001	1.004373e-002	1.785343e-001
2.420257230438532e-011	1.891705e-001	1.030371e-002	1.909757e-001
2.465068185111612e-011	2.009571e-001	1.039120e-002	2.019450e-001
2.513558116089207e-011	2.121848e-001	1.029800e-002	2.123116e-001
2.575890829514101e-011	2.241683e-001	9.910830e-003	2.233159e-001
2.653145939148169e-011	2.354362e-001	9.077643e-003	2.336175e-001
2.715346555233020e-011	2.420857e-001	8.184165e-003	2.396539e-001
2.767637947587666e-011	2.464736e-001	7.324758e-003	2.435807e-001
2.823076028087705e-011	2.504087e-001	6.341430e-003	2.470153e-001
2.945127857465332e-011	2.584077e-001	4.027301e-003	2.536544e-001
3.062373629647000e-011	2.668887e-001	1.691359e-003	2.604520e-001
3.117089039109977e-011	2.710373e-001	5.651769e-004	2.637742e-001
3.168530098917397e-011	2.747504e-001	-5.183704e-004	2.667530e-001
3.277474860447097e-011	2.805593e-001	-2.896575e-003	2.713566e-001
3.336406864493433e-011	2.816296e-001	-4.223267e-003	2.720703e-001
3.430167750126771e-011	2.789478e-001	-6.360082e-003	2.693403e-001
3.464028194496774e-011	2.764630e-001	-7.136555e-003	2.670068e-001
3.497888638866778e-011	2.730691e-001	-7.897667e-003	2.638276e-001
3.531749083236781e-011	2.687663e-001	-8.643418e-003	2.598028e-001
3.565609527606784e-011	2.635545e-001	-9.373809e-003	2.549324e-001
3.599469971976787e-011	2.574338e-001	-1.008884e-002	2.492164e-001
3.633330416346790e-011	2.504040e-001	-1.078851e-002	2.426547e-001
3.667190860716794e-011	2.424653e-001	-1.147282e-002	2.352475e-001
3.724629931333029e-011	2.273697e-001	-1.247519e-002	2.216668e-001
3.789991827778739e-011	2.091882e-001	-1.334349e-002	2.050200e-001
3.869166826960267e-011	1.857741e-001	-1.419626e-002	1.827842e-001
3.918456460729562e-011	1.702733e-001	-1.462389e-002	1.680223e-001
3.966841346291302e-011	1.545192e-001	-1.492813e-002	1.532109e-001
4.014696368222320e-011	1.387086e-001	-1.507477e-002	1.386270e-001
4.064537714390709e-011	1.224203e-001	-1.502278e-002	1.239222e-001
4.120082129339108e-011	1.050620e-001	-1.468003e-002	1.085968e-001
4.173455220559240e-011	8.970537e-002	-1.404799e-002	9.531474e-002
4.233196971624436e-011	7.459354e-002	-1.299122e-002	8.246937e-002
4.293911420213234e-011	6.180905e-002	-1.157135e-002	7.175868e-002
4.340838213522756e-011	5.375797e-002	-1.026908e-002	6.507932e-002
4.385077149849540e-011	4.754659e-002	-8.912130e-003	5.995182e-002
4.433941711631187e-011	4.204369e-002	-7.306554e-003	5.541435e-002
4.480652495077491e-011	3.787177e-002	-5.703173e-003	5.195747e-002
4.532394998692897e-011	3.414724e-002	-3.891104e-003	4.882166e-002
4.586335203841016e-011	3.088646e-002	-2.002573e-003	4.598426e-002
4.643860601160110e-011	2.770743e-002	-2.900783e-005	4.307594e-002
4.699697582212216e-011	2.463017e-002	1.817293e-003	4.009767e-002
4.760821355572300e-011	2.110777e-002	3.736062e-003	3.649149e-002
4.827734480044411e-011	1.713085e-002	5.696106e-003	3.215722e-002
4.882108429477583e-011	1.401110e-002	7.172870e-003	2.850746e-002
4.930625570745152e-011	1.156643e-002	8.398866e-003	2.538085e-002
4.987855904902251e-011	9.478458e-003	9.729878e-003	2.221029e-002
5.040723195827248e-011	8.676064e-003	1.084459e-002	2.012981e-002
5.102766974212899e-011	9.612299e-003	1.200491e-002	1.923143e-002
5.167399073919049e-011	1.321696e-002	1.303408e-002	2.057456e-002
5.226000000000000e-011	1.911497e-002	1.379928e-002	2.416424e-002
5.243580277824285e-011	2.143966e-002	1.398501e-002	2.559874e-002
5.267020648256666e-011	2.473270e-002	1.420958e-002	2.796666e-002
5.303722290696430e-011	3.082149e-002	1.453614e-002	3.268630e-002
5.342930181808295e-011	3.872259e-002	1.483324e-002	3.893742e-002
5.372646895059848e-011	4.557789e-002	1.499984e-002	4.439817e-002
5.408465931482046e-011	5.458106e-002	1.511883e-002	5.175835e-002
5.441457625472131e-011	6.367506e-002	1.516326e-002	5.919476e-002
5.477060489622077e-011	7.397270e-002	1.509230e-002	6.758883e-002
5.520402203445584e-011	8.680534e-002	1.486829e-002	7.844423e-002
5.570448843206598e-011	1.020942e-001	1.449218e-002	9.196614e-002
5.628755638286134e-011	1.207388e-001	1.394235e-002	1.089873e-001
5.700200501102845e-011	1.446667e-001	1.308121e-002	1.311008e-001
5.769263775508415e-011	1.682420e-001	1.197829e-002	1.528155e-001
5.839300629106702e-011	1.914178e-001	1.050473e-002	1.739871e-001
5.885301462841946e-011	2.056467e-001	9.317527e-003	1.869338e-001
5.928236077879360e-011	2.178312e-001	8.048672e-003	1.980497e-001
5.977448535349287e-011	2.302111e-001	6.415515e-003	2.094576e-001
6.029224263085432e-011	2.412187e-001	4.518572e-003	2.198187e-001
6.102077919413534e-011	2.531688e-001	1.625502e-003	2.315965e-001
6.172336926719511e-011	2.611262e-001	-1.301556e-003	2.401853e-001
6.225446253417773e-011	2.652342e-001	-3.527025e-003	2.452265e-001
6.276888962241237e-011	2.680852e-001	-5.636870e-003	2.492754e-001
6.332373017464076e-011	2.703655e-001	-7.816173e-003	2.530876e-001
6.395733182311136e-011	2.724828e-001	-1.013658e-002	2.571617e-001
6.458699861755410e-011	2.744806e-001	-1.223103e-002	2.612477e-001
6.515962259544569e-011	2.763886e-001	-1.393536e-002	2.651390e-001
6.579363822225654e-011	2.785689e-001	-1.559198e-002	2.695937e-001
6.631924329147874e-011	2.802618e-001	-1.678143e-002	2.732367e-001
6.683076540406713e-011	2.815568e-001	-1.778081e-002	2.764921e-001
6.738639208171730e-011	2.822269e-001	-1.869209e-002	2.793657e-001
6.793375589552920e-011	2.817706e-001	-1.941428e-002	2.811519e-001
6.854272588752045e-011	2.795123e-001	-2.001408e-002	2.814530e-001
6.900998479441938e-011	2.762871e-001	-2.032878e-002	2.802168e-001
6.984321464610109e-011	2.667961e-001	-2.056392e-002	2.743936e-001
7.052945860701490e-011	2.555265e-001	-2.046203e-002	2.655533e-001
7.080850589951174e-011	2.496157e-001	-2.037413e-002	2.606978e-001
7.108755319200859e-011	2.432866e-001	-2.022815e-002	2.554092e-001
7.136660048450543e-011	2.365393e-001	-2.002409e-002	2.496873e-001
7.164564777700228e-011	2.293737e-001	-1.976196e-002	2.435322e-001
7.192469506949912e-011	2.217898e-001	-1.944174e-002	2.369438e-001
7.220374236199597e-011	2.137876e-001	-1.906344e-002	2.299223e-001
7.248278965449281e-011	2.053671e-001	-1.862707e-002	2.224675e-001
7.320121078234747e-011	1.839525e-001	-1.729142e-002	2.022575e-001
7.415712159575511e-011	1.535612e-001	-1.525467e-002	1.722417e-001
7.463299021337098e-011	1.378210e-001	-1.410592e-002	1.565639e-001
7.511570937995140e-011	1.218305e-001	-1.281429e-002	1.406690e-001
7.561131152077686e-011	1.058211e-001	-1.133107e-002	1.247800e-001
7.614786856307143e-011	8.949612e-002	-9.528943e-003	1.085278e-001
7.671919308774551e-011	7.384294e-002	-7.386161e-003	9.275216e-002
7.730597571525350e-011	6.010543e-002	-4.970362e-003	7.853499e-002
7.780449108926887e-011	5.049928e-002	-2.781967e-003	6.816794e-002
7.825173747719034e-011	4.351554e-002	-7.481310e-004	6.020572e-002
7.870082454748588e-011	3.796349e-002	1.324961e-003	5.340390e-002
7.919116437617964e-011	3.336573e-002	3.581359e-003	4.717912e-002
7.966349029882185e-011	3.011930e-002	5.708209e-003	4.216455e-002
8.017986896916976e-011	2.753568e-002	7.937415e-003	3.750247e-002
8.072253155850846e-011	2.549963e-002	1.013103e-002	3.320708e-002
8.130549941147418e-011	2.364922e-002	1.227909e-002	2.893709e-002
8.186923909156975e-011	2.187100e-002	1.412546e-002	2.489517e-002
8.248782075361475e-011	1.973144e-002	1.587373e-002	2.040772e-002
8.316445340286069e-011	1.719336e-002	1.744798e-002	1.548592e-002
8.373889811739025e-011	1.508151e-002	1.851056e-002	1.149795e-002
8.423672143291764e-011	1.354134e-002	1.923366e-002	8.430511e-003
8.476113940891113e-011	1.252589e-002	1.980361e-002	5.893516e-003
8.532408235175588e-011	1.250559e-002	2.020412e-002	4.331673e-003
8.592355087606804e-011	1.413613e-002	2.039889e-002	4.425724e-003
8.641314872144877e-011	1.700352e-002	2.038662e-002	6.126679e-003
8.710000000000000e-011	2.370789e-002	2.012048e-002	1.135923e-002
8.730605538356538e-011	2.639192e-002	1.997112e-002	1.348676e-002
8.758079589498587e-011	3.024584e-002	1.973945e-002	1.696135e-002
8.794367930793168e-011	3.627785e-002	1.940069e-002	2.262514e-002
8.839865556763894e-011	4.544447e-002	1.889605e-002	3.122562e-002
8.852508904034874e-011	4.827018e-002	1.873173e-002	3.388492e-002
8.865152251305855e-011	5.119186e-002	1.855820e-002	3.664414e-002
8.877795598576836e-011	5.420951e-002	1.837547e-002	3.950329e-002
8.890438945847817e-011	5.732311e-002	1.818353e-002	4.246236e-002
8.903082293118797e-011	6.053269e-002	1.798239e-002	4.552135e-002
8.915725640389779e-011	6.383822e-002	1.777204e-002	4.868027e-002
8.928368987660759e-011	6.723972e-002	1.755248e-002	5.193911e-002
8.970913822290906e-011	7.894066e-002	1.669865e-002	6.310070e-002
9.011709034798145e-011	9.038721e-002	1.576977e-002	7.445940e-002
9.067020775560782e-011	1.064038e-001	1.443103e-002	9.099547e-002
9.123299828929656e-011	1.234743e-001	1.301687e-002	1.090341e-001
9.188521525742161e-011	1.441119e-001	1.129952e-002	1.309038e-001
9.261053097193665e-011	1.673961e-001	9.225698e-003	1.553630e-001
9.332114236760703e-011	1.893767e-001	6.960406e-003	1.782474e-001
9.377938977817342e-011	2.025316e-001	5.359357e-003	1.919284e-001
9.421494522722179e-011	2.139223e-001	3.736975e-003	2.038634e-001
9.470402139520065e-011	2.251700e-001	1.814472e-003	2.158496e-001
9.527058263145639e-011	2.359859e-001	-5.083908e-004	2.277556e-001
9.601918199482360e-011	2.467006e-001	-3.636579e-003	2.403210e-001
9.667376446223378e-011	2.531195e-001	-6.327576e-003	2.486756e-001
9.719742905972055e-011	2.567063e-001	-8.382206e-003	2.539366e-001
9.772737528973370e-011	2.593894e-001	-1.032233e-002	2.583337e-001
9.829237963000799e-011	2.616603e-001	-1.219745e-002	2.623633e-001
9.895962951079747e-011	2.641100e-001	-1.411751e-002	2.666974e-001
9.956759631916187e-011	2.664643e-001	-1.557151e-002	2.705297e-001
1.001544696010421e-010	2.689788e-001	-1.670443e-002	2.742357e-001
1.007876373020914e-010	2.718498e-001	-1.763735e-002	2.781485e-001
1.013672108695999e-010	2.743545e-001	-1.824134e-002	2.814178e-001
1.019203945486592e-010	2.762787e-001	-1.860927e-002	2.839392e-001
1.024658612519995e-010	2.773431e-001	-1.878571e-002	2.854973e-001
1.030387134672889e-010	2.771446e-001	-1.878468e-002	2.857410e-001
1.038416597351872e-010	2.738534e-001	-1.848361e-002	2.829635e-001
1.042674486838144e-010	2.704478e-001	-1.818001e-002	2.797365e-001
1.046932376324417e-010	2.657263e-001	-1.780039e-002	2.751668e-001
1.051190265810689e-010	2.596889e-001	-1.734478e-002	2.692544e-001
1.055448155296961e-010	2.523357e-001	-1.681315e-002	2.619992e-001
1.059706044783233e-010	2.436666e-001	-1.620552e-002	2.534012e-001
1.063963934269506e-010	2.336817e-001	-1.552188e-002	2.434605e-001
1.068221823755778e-010	2.223808e-001	-1.476224e-002	2.321770e-001
1.078041329169562e-010	1.950882e-001	-1.255761e-002	2.045253e-001
1.086675951285410e-010	1.692219e-001	-1.048225e-002	1.770835e-001
1.096515431320463e-010	1.376939e-001	-7.996503e-003	1.438721e-001
1.101388660343539e-010	1.219413e-001	-6.657892e-003	1.275920e-001
1.106542029036045e-010	1.058084e-001	-5.130374e-003	1.111072e-001
1.111542935224350e-010	9.113893e-002	-3.526339e-003	9.621496e-002
1.118053403471317e-010	7.417574e-002	-1.266498e-003	7.896277e-002
1.124070242726621e-010	6.107186e-002	9.615437e-004	6.545416e-002
1.128564158041126e-010	5.302449e-002	2.680992e-003	5.696174e-002
1.132853284118409e-010	4.670374e-002	4.335237e-003	5.009108e-002
1.137402722335397e-010	4.132342e-002	6.071911e-003	4.401007e-002
1.142253967054138e-010	3.686396e-002	7.867177e-003	3.870816e-002
1.147117897094541e-010	3.342719e-002	9.572939e-003	3.437950e-002
1.152386392340225e-010	3.049885e-002	1.127773e-002	3.049677e-002
1.158108832192893e-010	2.782225e-002	1.292732e-002	2.686704e-002
1.163745692835858e-010	2.533001e-002	1.432340e-002	2.357328e-002
1.169648828136209e-010	2.260405e-002	1.552970e-002	2.018311e-002
1.175922785391365e-010	1.948324e-002	1.652522e-002	1.654975e-002
1.182560069308944e-010	1.608187e-002	1.726955e-002	1.278518e-002
1.188196468388671e-010	1.339385e-002	1.766746e-002	9.888916e-003
1.193152847169361e-010	1.148058e-002	1.785269e-002	7.831899e-003
1.198923878672990e-010	1.019452e-002	1.788953e-002	6.386518e-003
1.204430524603647e-010	1.029590e-002	1.775846e-002	6.317782e-003
1.211023252135709e-010	1.264617e-002	1.740595e-002	8.420297e-003
1.213037632408527e-010	1.390924e-002	1.725792e-002	9.597106e-003
1.215371239454364e-010	1.572519e-002	1.706423e-002	1.130745e-002
1.219400000000000e-010	1.978558e-002	1.667593e-002	1.517452e-002
1.220608628163691e-010	2.128347e-002	1.653971e-002	1.647128e-002
1.222220132381945e-010	2.332044e-002	1.634546e-002	1.842061e-002
1.225443140818454e-010	2.793251e-002	1.594643e-002	2.306252e-002
1.229235911236188e-010	3.454876e-002	1.546208e-002	2.967172e-002
1.232752427646622e-010	4.180006e-002	1.497499e-002	3.675434e-002
1.237226757235338e-010	5.225105e-002	1.427235e-002	4.691215e-002
1.239667300647365e-010	5.848774e-002	1.386356e-002	5.302520e-002
1.246221526598146e-010	7.649614e-002	1.257367e-002	7.026420e-002
1.250329757374638e-010	8.815975e-002	1.166418e-002	8.184300e-002
1.256163616013916e-010	1.053786e-001	1.034683e-002	9.942912e-002
1.261894755820042e-010	1.231920e-001	9.052231e-003	1.178290e-001
1.268415929831014e-010	1.443344e-001	7.551017e-003	1.394939e-001
1.275731828161540e-010	1.683011e-001	5.753054e-003	1.636035e-001
1.282122990501543e-010	1.884581e-001	4.023809e-003	1.835217e-001
1.286599855707409e-010	2.016092e-001	2.706090e-003	1.963946e-001
1.291086186756667e-010	2.136292e-001	1.297649e-003	2.081423e-001
1.295933339275827e-010	2.250715e-001	-3.094061e-004	2.193827e-001
1.301874575694532e-010	2.367300e-001	-2.362201e-003	2.310125e-001
1.309408678449668e-010	2.478648e-001	-5.003409e-003	2.425073e-001
1.315817602336068e-010	2.545170e-001	-7.194411e-003	2.497765e-001
1.321050615077143e-010	2.584613e-001	-8.884179e-003	2.543682e-001
1.326783232540530e-010	2.617658e-001	-1.058225e-002	2.584423e-001
1.332324314103863e-010	2.643923e-001	-1.203879e-002	2.618016e-001
1.339463696084521e-010	2.675564e-001	-1.361462e-002	2.658083e-001
1.345468378107432e-010	2.703164e-001	-1.466823e-002	2.691568e-001
1.352073059994469e-010	2.735461e-001	-1.554540e-002	2.729111e-001
1.358117168168399e-010	2.765134e-001	-1.610395e-002	2.762788e-001
1.363962274801846e-010	2.790670e-001	-1.644017e-002	2.791911e-001
1.369312125366646e-010	2.807768e-001	-1.658735e-002	2.812415e-001
1.374935865493152e-010	2.815125e-001	-1.659147e-002	2.823790e-001
1.380690461935952e-010	2.807178e-001	-1.644918e-002	2.820619e-001
1.387352784151575e-010	2.773364e-001	-1.611467e-002	2.793240e-001
1.395474164754528e-010	2.690448e-001	-1.546759e-002	2.720829e-001
1.402548510577617e-010	2.581233e-001	-1.473383e-002	2.616298e-001
1.405663309954660e-010	2.516972e-001	-1.439060e-002	2.555869e-001
1.408778109331703e-010	2.447798e-001	-1.400240e-002	2.490635e-001
1.411892908708747e-010	2.373711e-001	-1.356923e-002	2.420594e-001
1.415007708085790e-010	2.294711e-001	-1.309110e-002	2.345749e-001
1.418122507462833e-010	2.210797e-001	-1.256801e-002	2.266098e-001
1.421237306839877e-010	2.121970e-001	-1.199994e-002	2.181641e-001
1.424352106216920e-010	2.028231e-001	-1.138692e-002	2.092379e-001
1.432153512222548e-010	1.793824e-001	-9.825153e-003	1.856902e-001
1.441955576709904e-010	1.476890e-001	-7.826268e-003	1.536369e-001
1.446793357552827e-010	1.315982e-001	-6.771136e-003	1.376049e-001
1.451654589861250e-010	1.156403e-001	-5.626344e-003	1.219002e-001
1.457215173849578e-010	9.822788e-002	-4.186691e-003	1.049348e-001
1.462567891587401e-010	8.285159e-002	-2.659791e-003	9.002374e-002
1.468221813879110e-010	6.858152e-002	-9.064146e-004	7.613470e-002
1.473794356353869e-010	5.678769e-002	9.332969e-004	6.449489e-002
1.478350113241499e-010	4.888243e-002	2.489288e-003	5.650935e-002
1.482764005779181e-010	4.264997e-002	4.010479e-003	5.001690e-002
