Freq.	V(n_3p)
2.00000000000000e+007	(-1.07777582360923e+001dB,-1.80756653351112e+000°)
3.99900000000000e+007	(-1.07823395948560e+001dB,-3.54748475999824e+000°)
5.99800000000000e+007	(-1.07848331866917e+001dB,-5.29237145942537e+000°)
7.99700000000000e+007	(-1.07873653172509e+001dB,-7.04105413665669e+000°)
9.99600000000000e+007	(-1.07905695815054e+001dB,-8.78965813582866e+000°)
1.19950000000000e+008	(-1.07944819464788e+001dB,-1.05346446806289e+001°)
1.39940000000000e+008	(-1.07988466729356e+001dB,-1.22737172947608e+001°)
1.59930000000000e+008	(-1.08032988625201e+001dB,-1.40059809078155e+001°)
1.79920000000000e+008	(-1.08074793991474e+001dB,-1.57317442526742e+001°)
1.99910000000000e+008	(-1.08111011845479e+001dB,-1.74521738293416e+001°)
2.19900000000000e+008	(-1.08139786702931e+001dB,-1.91689172338402e+001°)
2.39890000000000e+008	(-1.08160304778874e+001dB,-2.08837674042974e+001°)
2.59880000000000e+008	(-1.08172644346349e+001dB,-2.25984093427562e+001°)
2.79870000000000e+008	(-1.08177538672782e+001dB,-2.43142641277944e+001°)
2.99860000000000e+008	(-1.08176124476762e+001dB,-2.60324222889949e+001°)
3.19850000000000e+008	(-1.08169724226040e+001dB,-2.77536444135347e+001°)
3.39840000000000e+008	(-1.08159684735973e+001dB,-2.94784026436077e+001°)
3.59830000000000e+008	(-1.08147274410132e+001dB,-3.12069400370643e+001°)
3.79820000000000e+008	(-1.08133629773182e+001dB,-3.29393315870570e+001°)
3.99810000000000e+008	(-1.08119737658254e+001dB,-3.46755377122812e+001°)
4.19800000000000e+008	(-1.08106439895996e+001dB,-3.64154464788461e+001°)
4.39790000000000e+008	(-1.08094450058400e+001dB,-3.81589042716718e+001°)
4.59780000000000e+008	(-1.08084374996737e+001dB,-3.99057364070044e+001°)
4.79770000000000e+008	(-1.08076736685675e+001dB,-4.16557598088718e+001°)
4.99760000000000e+008	(-1.08071991945080e+001dB,-4.34087898552386e+001°)
5.19750000000000e+008	(-1.08070548976761e+001dB,-4.51646431858449e+001°)
5.39740000000000e+008	(-1.08072780470980e+001dB,-4.69231378645201e+001°)
5.59730000000000e+008	(-1.08079033471450e+001dB,-4.86840919120617e+001°)
5.79720000000000e+008	(-1.08089636376184e+001dB,-5.04473209153017e+001°)
5.99710000000000e+008	(-1.08104903496219e+001dB,-5.22126351828439e+001°)
6.19700000000000e+008	(-1.08125137562250e+001dB,-5.39798367513717e+001°)
6.39690000000000e+008	(-1.08150630503069e+001dB,-5.57487164362991e+001°)
6.59680000000000e+008	(-1.08181662744541e+001dB,-5.75190510544201e+001°)
6.79670000000000e+008	(-1.08218501208648e+001dB,-5.92906009133975e+001°)
6.99660000000000e+008	(-1.08261396137588e+001dB,-6.10631076546740e+001°)
7.19650000000000e+008	(-1.08310576834060e+001dB,-6.28362925454972e+001°)
7.39640000000000e+008	(-1.08366246399705e+001dB,-6.46098553358089e+001°)
7.59630000000000e+008	(-1.08428575572570e+001dB,-6.63834738203197e+001°)
7.79620000000000e+008	(-1.08497695812913e+001dB,-6.81568042680908e+001°)
7.99610000000000e+008	(-1.08573691863893e+001dB,-6.99294828932972e+001°)
8.19600000000000e+008	(-1.08656594114578e+001dB,-7.17011285328209e+001°)
8.39590000000000e+008	(-1.08746371206698e+001dB,-7.34713466603700e+001°)
8.59580000000000e+008	(-1.08842923436540e+001dB,-7.52397347964093e+001°)
8.79570000000000e+008	(-1.08946077585757e+001dB,-7.70058892661327e+001°)
8.99560000000000e+008	(-1.09055583843154e+001dB,-7.87694131187516e+001°)
9.19550000000000e+008	(-1.09171115427621e+001dB,-8.05299248640068e+001°)
9.39540000000000e+008	(-1.09292271373791e+001dB,-8.22870675284585e+001°)
9.59530000000000e+008	(-1.09418582695140e+001dB,-8.40405174135509e+001°)
9.79520000000000e+008	(-1.09549521814678e+001dB,-8.57899918793272e+001°)
9.99510000000000e+008	(-1.09684514793342e+001dB,-8.75352555049725e+001°)
1.01950000000000e+009	(-1.09822955549219e+001dB,-8.92761240987898e+001°)
1.03949000000000e+009	(-1.09964221008992e+001dB,-9.10124662352563e+001°)
1.05948000000000e+009	(-1.10107686016940e+001dB,-9.27442022558534e+001°)
1.07947000000000e+009	(-1.10252736871156e+001dB,-9.44713009405507e+001°)
1.09946000000000e+009	(-1.10398782552996e+001dB,-9.61937742922144e+001°)
1.11945000000000e+009	(-1.10545263025202e+001dB,-9.79116710390867e+001°)
1.13944000000000e+009	(-1.10691654337357e+001dB,-9.96250695299418e+001°)
1.15943000000000e+009	(-1.10837470630868e+001dB,-1.01334070671925e+002°)
1.17942000000000e+009	(-1.10982263426368e+001dB,-1.03038791459555e+002°)
1.19941000000000e+009	(-1.11125618771484e+001dB,-1.04739359493163e+002°)
1.21940000000000e+009	(-1.11267152917046e+001dB,-1.06435908717553e+002°)
1.23939000000000e+009	(-1.11406507185409e+001dB,-1.08128576453907e+002°)
1.25938000000000e+009	(-1.11543342619090e+001dB,-1.09817501669016e+002°)
1.27937000000000e+009	(-1.11677334879683e+001dB,-1.11502824334812e+002°)
1.29936000000000e+009	(-1.11808169732456e+001dB,-1.13184685678847e+002°)
1.31935000000000e+009	(-1.11935539322061e+001dB,-1.14863229107774e+002°)
1.33934000000000e+009	(-1.12059139332684e+001dB,-1.16538601592891e+002°)
1.35933000000000e+009	(-1.12178667038580e+001dB,-1.18210955330656e+002°)
1.37932000000000e+009	(-1.12293820189173e+001dB,-1.19880449523842e+002°)
1.39931000000000e+009	(-1.12404296634575e+001dB,-1.21547252164550e+002°)
1.41930000000000e+009	(-1.12509794578233e+001dB,-1.23211541734347e+002°)
1.43929000000000e+009	(-1.12610013338542e+001dB,-1.24873508766870e+002°)
1.45928000000000e+009	(-1.12704654506243e+001dB,-1.26533357243213e+002°)
1.47927000000000e+009	(-1.12793423395394e+001dB,-1.28191305810150e+002°)
1.49926000000000e+009	(-1.12876030699675e+001dB,-1.29847588826247e+002°)
1.51925000000000e+009	(-1.12952194280692e+001dB,-1.31502457251887e+002°)
1.53924000000000e+009	(-1.13021641029472e+001dB,-1.33156179407194e+002°)
1.55923000000000e+009	(-1.13084108755559e+001dB,-1.34809041627681e+002°)
1.57922000000000e+009	(-1.13139348069816e+001dB,-1.36461348852010e+002°)
1.59921000000000e+009	(-1.13187124237039e+001dB,-1.38113425180494e+002°)
1.61920000000000e+009	(-1.13227218983034e+001dB,-1.39765614447517e+002°)
1.63919000000000e+009	(-1.13259432248099e+001dB,-1.41418280856870e+002°)
1.65918000000000e+009	(-1.13283583885413e+001dB,-1.43071809736875e+002°)
1.67917000000000e+009	(-1.13299515309126e+001dB,-1.44726608483217e+002°)
1.69916000000000e+009	(-1.13307091103735e+001dB,-1.46383107772993e+002°)
1.71915000000000e+009	(-1.13306200614580e+001dB,-1.48041763155504e+002°)
1.73914000000000e+009	(-1.13296759550548e+001dB,-1.49703057156494e+002°)
1.75913000000000e+009	(-1.13278711646353e+001dB,-1.51367502076718e+002°)
1.77912000000000e+009	(-1.13252030456803e+001dB,-1.53035643728818e+002°)
1.79911000000000e+009	(-1.13216721394787e+001dB,-1.54708066447330e+002°)
1.81910000000000e+009	(-1.13172824188002e+001dB,-1.56385399838726e+002°)
1.83909000000000e+009	(-1.13120416033036e+001dB,-1.58068327933263e+002°)
1.85908000000000e+009	(-1.13059615898069e+001dB,-1.59757601691648e+002°)
1.87907000000000e+009	(-1.12990590718809e+001dB,-1.61454056262509e+002°)
1.89906000000000e+009	(-1.12913564741258e+001dB,-1.63158635072107e+002°)
1.91905000000000e+009	(-1.12828834169883e+001dB,-1.64872423909335e+002°)
1.93904000000000e+009	(-1.12736790932559e+001dB,-1.66596699910975e+002°)
1.95903000000000e+009	(-1.12637962486766e+001dB,-1.68333003218703e+002°)
1.97902000000000e+009	(-1.12533080661832e+001dB,-1.70083243899594e+002°)
1.99901000000000e+009	(-1.12423204843576e+001dB,-1.71849864994860e+002°)
2.01900000000000e+009	(-1.12309950914015e+001dB,-1.73636096983635e+002°)
2.03899000000000e+009	(-1.12195935574821e+001dB,-1.75446364154090e+002°)
2.05898000000000e+009	(-1.12085683033038e+001dB,-1.77286945947369e+002°)
2.07897000000000e+009	(-1.11987585625834e+001dB,-1.79167057508557e+002°)
2.09896000000000e+009	(-1.11918429488300e+001dB,1.78899464337354e+002°)
2.11895000000000e+009	(-1.11914557863716e+001dB,1.76892145376173e+002°)
2.13894000000000e+009	(-1.12060495795935e+001dB,1.74785512213914e+002°)
2.15893000000000e+009	(-1.12553606864411e+001dB,1.72580071179282e+002°)
2.17892000000000e+009	(-1.13720601739131e+001dB,1.70453566941989e+002°)
2.19891000000000e+009	(-1.15578416648096e+001dB,1.68879087943350e+002°)
2.21890000000000e+009	(-1.17236371503799e+001dB,1.68619150070515e+002°)
2.23889000000000e+009	(-1.15983331650441e+001dB,1.68576558283125e+002°)
2.25888000000000e+009	(-1.14161570869542e+001dB,1.67156059165295e+002°)
2.27887000000000e+009	(-1.13016989348708e+001dB,1.65238468721109e+002°)
2.29886000000000e+009	(-1.12309430757399e+001dB,1.63232273726480e+002°)
2.31885000000000e+009	(-1.11833125600528e+001dB,1.61223508245028e+002°)
2.33884000000000e+009	(-1.11486451843936e+001dB,1.59225048908286e+002°)
2.35883000000000e+009	(-1.11219400513106e+001dB,1.57235033867133e+002°)
2.37882000000000e+009	(-1.11005979086722e+001dB,1.55249363986107e+002°)
2.39881000000000e+009	(-1.10831960807141e+001dB,1.53264328409892e+002°)
2.41880000000000e+009	(-1.10689274297644e+001dB,1.51277008432697e+002°)
2.43879000000000e+009	(-1.10573273501858e+001dB,1.49285194022201e+002°)
2.45878000000000e+009	(-1.10481326348508e+001dB,1.47287225355712e+002°)
2.47877000000000e+009	(-1.10412045081355e+001dB,1.45281852699948e+002°)
2.49876000000000e+009	(-1.10364847493910e+001dB,1.43268128589887e+002°)
2.51875000000000e+009	(-1.10339698327735e+001dB,1.41245327935851e+002°)
2.53874000000000e+009	(-1.10336954032815e+001dB,1.39212889121963e+002°)
2.55873000000000e+009	(-1.10357270116906e+001dB,1.37170370312497e+002°)
2.57872000000000e+009	(-1.10401548746194e+001dB,1.35117416872774e+002°)
2.59871000000000e+009	(-1.10470914123975e+001dB,1.33053737296607e+002°)
2.61870000000000e+009	(-1.10566708664278e+001dB,1.30979086235525e+002°)
2.63869000000000e+009	(-1.10690506121455e+001dB,1.28893254228986e+002°)
2.65868000000000e+009	(-1.10844139633187e+001dB,1.26796064645181e+002°)
2.67867000000000e+009	(-1.11029743559448e+001dB,1.24687379252089e+002°)
2.69866000000000e+009	(-1.11249808236817e+001dB,1.22567114821898e+002°)
2.71865000000000e+009	(-1.11507246306274e+001dB,1.20435274275275e+002°)
2.73864000000000e+009	(-1.11805467948105e+001dB,1.18291997098552e+002°)
2.75863000000000e+009	(-1.12148459862094e+001dB,1.16137635041506e+002°)
2.77862000000000e+009	(-1.12540858727684e+001dB,1.13972860211577e+002°)
2.79861000000000e+009	(-1.12988003656133e+001dB,1.11798813172226e+002°)
2.81860000000000e+009	(-1.13495943374088e+001dB,1.09617297712324e+002°)
2.83859000000000e+009	(-1.14071362554393e+001dB,1.07431025257942e+002°)
2.85858000000000e+009	(-1.14721378922981e+001dB,1.05243903555723e+002°)
2.87857000000000e+009	(-1.15453151743455e+001dB,1.03061349013462e+002°)
2.89856000000000e+009	(-1.16273239669361e+001dB,1.00890578139500e+002°)
2.91855000000000e+009	(-1.17186662712579e+001dB,9.87408013946152e+001°)
2.93854000000000e+009	(-1.18195673256489e+001dB,9.66232083701798e+001°)
2.95853000000000e+009	(-1.19298335957417e+001dB,9.45506112706104e+001°)
2.97852000000000e+009	(-1.20487152159686e+001dB,9.25366285295118e+001°)
2.99851000000000e+009	(-1.21748105720962e+001dB,9.05943687790456e+001°)
3.01850000000000e+009	(-1.23060579288578e+001dB,8.87347273740058e+001°)
3.03849000000000e+009	(-1.24398500842082e+001dB,8.69646009168965e+001°)
3.05848000000000e+009	(-1.25732781462103e+001dB,8.52854744296729e+001°)
3.07847000000000e+009	(-1.27034664831645e+001dB,8.36928347761282e+001°)
3.09846000000000e+009	(-1.28279222255400e+001dB,8.21766601381294e+001°)
3.11845000000000e+009	(-1.29448114806751e+001dB,8.07228934951784e+001°)
3.13844000000000e+009	(-1.30530992209515e+001dB,7.93154913579858e+001°)
3.15843000000000e+009	(-1.31525379344818e+001dB,7.79385030473565e+001°)
3.17842000000000e+009	(-1.32435365480906e+001dB,7.65777229220027e+001°)
3.19841000000000e+009	(-1.33269659885943e+001dB,7.52216846855869e+001°)
3.21840000000000e+009	(-1.34039569940361e+001dB,7.38620020874768e+001°)
3.23839000000000e+009	(-1.34757285139146e+001dB,7.24932123817032e+001°)
3.25838000000000e+009	(-1.35434638232152e+001dB,7.11123276386668e+001°)
3.27837000000000e+009	(-1.36082348981925e+001dB,6.97182739258351e+001°)
3.29836000000000e+009	(-1.36709664248726e+001dB,6.83113417212939e+001°)
3.31835000000000e+009	(-1.37324278918914e+001dB,6.68927139603184e+001°)
3.33834000000000e+009	(-1.37932430802294e+001dB,6.54640954807631e+001°)
3.35833000000000e+009	(-1.38539087068903e+001dB,6.40274417685951e+001°)
3.37832000000000e+009	(-1.39148166284061e+001dB,6.25847724094365e+001°)
3.39831000000000e+009	(-1.39762762223113e+001dB,6.11380507621606e+001°)
3.41830000000000e+009	(-1.40385351695157e+001dB,5.96891120760094e+001°)
3.43829000000000e+009	(-1.41017979174026e+001dB,5.82396248648883e+001°)
3.45828000000000e+009	(-1.41662417517015e+001dB,5.67910732538008e+001°)
3.47827000000000e+009	(-1.42320307902472e+001dB,5.53447504060106e+001°)
3.49826000000000e+009	(-1.42993284617135e+001dB,5.39017546303138e+001°)
3.51825000000000e+009	(-1.43683092620563e+001dB,5.24629801348281e+001°)
3.53824000000000e+009	(-1.44391709133518e+001dB,5.10290934301081e+001°)
3.55823000000000e+009	(-1.45121486521205e+001dB,4.96004838054647e+001°)
3.57822000000000e+009	(-1.45875345252450e+001dB,4.81771717314409e+001°)
3.59821000000000e+009	(-1.46657067745332e+001dB,4.67586521474834e+001°)
3.61820000000000e+009	(-1.47471785863640e+001dB,4.53436406186542e+001°)
3.63819000000000e+009	(-1.48326834422553e+001dB,4.39296816517996e+001°)
3.65818000000000e+009	(-1.49233293554932e+001dB,4.25125787200842e+001°)
3.67817000000000e+009	(-1.50208825873957e+001dB,4.10856406616478e+001°)
3.69816000000000e+009	(-1.51282941688985e+001dB,3.96388805219797e+001°)
3.71815000000000e+009	(-1.52506788755885e+001dB,3.81587416969383e+001°)
3.73814000000000e+009	(-1.53971247389792e+001dB,3.66301742082521e+001°)
3.75813000000000e+009	(-1.55839719718693e+001dB,3.50463451767619e+001°)
3.77812000000000e+009	(-1.58404265609823e+001dB,3.34409136811167e+001°)
3.79811000000000e+009	(-1.62164468241882e+001dB,3.19846888449774e+001°)
3.81810000000000e+009	(-1.67839411794431e+001dB,3.12555783231034e+001°)
3.83809000000000e+009	(-1.75724442501381e+001dB,3.28434519882660e+001°)
3.85808000000000e+009	(-1.82423719537138e+001dB,3.94092272524967e+001°)
3.87807000000000e+009	(-1.78432837585229e+001dB,4.91895226026227e+001°)
3.89806000000000e+009	(-1.64750401333234e+001dB,5.36193347997257e+001°)
3.91805000000000e+009	(-1.52472275696299e+001dB,5.19206610473859e+001°)
3.93804000000000e+009	(-1.44703114118994e+001dB,4.79612389452185e+001°)
3.95803000000000e+009	(-1.40188194155596e+001dB,4.37431825752289e+001°)
3.97802000000000e+009	(-1.37584490505825e+001dB,3.98395550939242e+001°)
3.99801000000000e+009	(-1.36077564269253e+001dB,3.63367288526962e+001°)
4.01800000000000e+009	(-1.35212483876735e+001dB,3.31945374262855e+001°)
4.03799000000000e+009	(-1.34731009618225e+001dB,3.03510159156582e+001°)
4.05798000000000e+009	(-1.34480837235109e+001dB,2.77490043020979e+001°)
4.07797000000000e+009	(-1.34368739382671e+001dB,2.53411642893579e+001°)
4.09796000000000e+009	(-1.34335933248191e+001dB,2.30894806255782e+001°)
4.11795000000000e+009	(-1.34344546908012e+001dB,2.09636419842667e+001°)
4.13794000000000e+009	(-1.34369825382529e+001dB,1.89394433733993e+001°)
4.15793000000000e+009	(-1.34395453208564e+001dB,1.69974574277077e+001°)
4.17792000000000e+009	(-1.34410652402912e+001dB,1.51219846688763e+001°)
4.19791000000000e+009	(-1.34408334625722e+001dB,1.33002383747111e+001°)
4.21790000000000e+009	(-1.34383900730143e+001dB,1.15217148122610e+001°)
4.23789000000000e+009	(-1.34334448619583e+001dB,9.77770670054825e+000°)
4.25788000000000e+009	(-1.34258244141277e+001dB,8.06092646483369e+000°)
4.27787000000000e+009	(-1.34154364363004e+001dB,6.36521347371308e+000°)
4.29786000000000e+009	(-1.34022455446836e+001dB,4.68530556063523e+000°)
4.31785000000000e+009	(-1.33862567644199e+001dB,3.01665985958811e+000°)
4.33784000000000e+009	(-1.33675042760082e+001dB,1.35531158917479e+000°)
4.35783000000000e+009	(-1.33460437675004e+001dB,-3.02237851691665e-001°)
4.37782000000000e+009	(-1.33219472889041e+001dB,-1.95911005317568e+000°)
4.39781000000000e+009	(-1.32952998605119e+001dB,-3.61812105178661e+000°)
4.41780000000000e+009	(-1.32661973245207e+001dB,-5.28183892551833e+000°)
4.43779000000000e+009	(-1.32347450901204e+001dB,-6.95263049020822e+000°)
4.45778000000000e+009	(-1.32010575323709e+001dB,-8.63269938862886e+000°)
4.47777000000000e+009	(-1.31652578817113e+001dB,-1.03241173531777e+001°)
4.49776000000000e+009	(-1.31274784950798e+001dB,-1.20288500334042e+001°)
4.51775000000000e+009	(-1.30878614389504e+001dB,-1.37487784806679e+001°)
4.53774000000000e+009	(-1.30465593442946e+001dB,-1.54857171509645e+001°)
4.55773000000000e+009	(-1.30037365172159e+001dB,-1.72414291052802e+001°)
4.57772000000000e+009	(-1.29595703095113e+001dB,-1.90176389402569e+001°)
4.59771000000000e+009	(-1.29142527727948e+001dB,-2.08160438576620e+001°)
4.61770000000000e+009	(-1.28679926398818e+001dB,-2.26383231669563e+001°)
4.63769000000000e+009	(-1.28210176994928e+001dB,-2.44861463977351e+001°)
4.65768000000000e+009	(-1.27735776565644e+001dB,-2.63611800617729e+001°)
4.67767000000000e+009	(-1.27259476020326e+001dB,-2.82650929260527e+001°)
4.69766000000000e+009	(-1.26784322542152e+001dB,-3.01995594082124e+001°)
4.71765000000000e+009	(-1.26313711796889e+001dB,-3.21662603405141e+001°)
4.73764000000000e+009	(-1.25851452544417e+001dB,-3.41668798043902e+001°)
4.75763000000000e+009	(-1.25401846831128e+001dB,-3.62030959235058e+001°)
4.77762000000000e+009	(-1.24969789471222e+001dB,-3.82765622896514e+001°)
4.79761000000000e+009	(-1.24560890834469e+001dB,-4.03888749052405e+001°)
4.81760000000000e+009	(-1.24181626688053e+001dB,-4.25415169284912e+001°)
4.83759000000000e+009	(-1.23839517319268e+001dB,-4.47357698347671e+001°)
4.85758000000000e+009	(-1.23543334201624e+001dB,-4.69725746184606e+001°)
4.87757000000000e+009	(-1.23303324049127e+001dB,-4.92523203157526e+001°)
4.89756000000000e+009	(-1.23131424060558e+001dB,-5.15745299958937e+001°)
4.91755000000000e+009	(-1.23041413954373e+001dB,-5.39374084332880e+001°)
4.93754000000000e+009	(-1.23048904654520e+001dB,-5.63372157952288e+001°)
4.95753000000000e+009	(-1.23170996513822e+001dB,-5.87674477696423e+001°)
4.97752000000000e+009	(-1.23425356719263e+001dB,-6.12178517615247e+001°)
4.99751000000000e+009	(-1.23828394058543e+001dB,-6.36734147828201e+001°)
5.01750000000000e+009	(-1.24392222386091e+001dB,-6.61136408378919e+001°)
5.03749000000000e+009	(-1.25120334357939e+001dB,-6.85126767658970e+001°)
5.05748000000000e+009	(-1.26002509217994e+001dB,-7.08410338721550e+001°)
5.07747000000000e+009	(-1.27010469453384e+001dB,-7.30695357395275e+001°)
5.09746000000000e+009	(-1.28096773440282e+001dB,-7.51753907505457e+001°)
5.11745000000000e+009	(-1.29199415792107e+001dB,-7.71489187013085e+001°)
5.13744000000000e+009	(-1.30252649138944e+001dB,-7.89981636713883e+001°)
5.15743000000000e+009	(-1.31201051890327e+001dB,-8.07486949102864e+001°)
5.17742000000000e+009	(-1.32011258881158e+001dB,-8.24379813906494e+001°)
5.19741000000000e+009	(-1.32676576817433e+001dB,-8.41066164608204e+001°)
5.21740000000000e+009	(-1.33213614560236e+001dB,-8.57901082101527e+001°)
5.23739000000000e+009	(-1.33653934174512e+001dB,-8.75139731466161e+001°)
5.25738000000000e+009	(-1.34034948686081e+001dB,-8.92926645685105e+001°)
5.27737000000000e+009	(-1.34392993193937e+001dB,-9.11311998327143e+001°)
5.29736000000000e+009	(-1.34759471326311e+001dB,-9.30279194739971e+001°)
5.31735000000000e+009	(-1.35159603449599e+001dB,-9.49772200159343e+001°)
5.33734000000000e+009	(-1.35612845500462e+001dB,-9.69717073641539e+001°)
5.35733000000000e+009	(-1.36134163367002e+001dB,-9.90036570458387e+001°)
5.37732000000000e+009	(-1.36735653176952e+001dB,-1.01065877682841e+002°)
5.39731000000000e+009	(-1.37428283822442e+001dB,-1.03152122190501e+002°)
5.41730000000000e+009	(-1.38223746746976e+001dB,-1.05257153386113e+002°)
5.43729000000000e+009	(-1.39136544608850e+001dB,-1.07376488149261e+002°)
5.45728000000000e+009	(-1.40186568713296e+001dB,-1.09505717486770e+002°)
5.47727000000000e+009	(-1.41402527189282e+001dB,-1.11639084592923e+002°)
5.49726000000000e+009	(-1.42826663064689e+001dB,-1.13766585365017e+002°)
