Freq.	V(n_3p)
2.00000000000000e+007	(-1.08421280136012e+001dB,-4.74643525966438e+000°)
3.99900000000000e+007	(-1.08692452170730e+001dB,-9.27837274481963e+000°)
5.99800000000000e+007	(-1.08875377115164e+001dB,-1.37606284141619e+001°)
7.99700000000000e+007	(-1.09023512239106e+001dB,-1.82311643201761e+001°)
9.99600000000000e+007	(-1.09156612534367e+001dB,-2.26936722008191e+001°)
1.19950000000000e+008	(-1.09280715914675e+001dB,-2.71492797629744e+001°)
1.39940000000000e+008	(-1.09398382744425e+001dB,-3.15990521212000e+001°)
1.59930000000000e+008	(-1.09510932843789e+001dB,-3.60437375453662e+001°)
1.79920000000000e+008	(-1.09618609740212e+001dB,-4.04837662018261e+001°)
1.99910000000000e+008	(-1.09720341400607e+001dB,-4.49195338328207e+001°)
2.19900000000000e+008	(-1.09813232390555e+001dB,-4.93519074408421e+001°)
2.39890000000000e+008	(-1.09891062193324e+001dB,-5.37836975898963e+001°)
2.59880000000000e+008	(-1.09944060263771e+001dB,-5.82275706298874e+001°)
2.79870000000000e+008	(-1.10012938163535e+001dB,-6.27156297963333e+001°)
2.99860000000000e+008	(-1.10168114953372e+001dB,-6.71880854286605e+001°)
3.19850000000000e+008	(-1.10305174774832e+001dB,-7.16294285985966e+001°)
3.39840000000000e+008	(-1.10429213130826e+001dB,-7.60757126974844e+001°)
3.59830000000000e+008	(-1.10561440677169e+001dB,-8.05287170642020e+001°)
3.79820000000000e+008	(-1.10710465887175e+001dB,-8.49840057694147e+001°)
3.99810000000000e+008	(-1.10879107803505e+001dB,-8.94367962999406e+001°)
4.19800000000000e+008	(-1.11066941026034e+001dB,-9.38827783964642e+001°)
4.39790000000000e+008	(-1.11271448384279e+001dB,-9.83184569872152e+001°)
4.59780000000000e+008	(-1.11488877492537e+001dB,-1.02741312131800e+002°)
4.79770000000000e+008	(-1.11714924953007e+001dB,-1.07149781825407e+002°)
4.99760000000000e+008	(-1.11945210582080e+001dB,-1.11543127080634e+002°)
5.19750000000000e+008	(-1.12175545923975e+001dB,-1.15921259443180e+002°)
5.39740000000000e+008	(-1.12402052590285e+001dB,-1.20284587812944e+002°)
5.59730000000000e+008	(-1.12621198413175e+001dB,-1.24633906456685e+002°)
5.79720000000000e+008	(-1.12829803186279e+001dB,-1.28970321610177e+002°)
5.99710000000000e+008	(-1.13025042434954e+001dB,-1.33295204295353e+002°)
6.19700000000000e+008	(-1.13204459756640e+001dB,-1.37610156808882e+002°)
6.39690000000000e+008	(-1.13365988409334e+001dB,-1.41916983874931e+002°)
6.59680000000000e+008	(-1.13507978969909e+001dB,-1.46217663229298e+002°)
6.79670000000000e+008	(-1.13629229378481e+001dB,-1.50514313158490e+002°)
6.99660000000000e+008	(-1.13729014823480e+001dB,-1.54809156119239e+002°)
7.19650000000000e+008	(-1.13807117306122e+001dB,-1.59104478079089e+002°)
7.39640000000000e+008	(-1.13863859828365e+001dB,-1.63402581843525e+002°)
7.59630000000000e+008	(-1.13900163514513e+001dB,-1.67705723312082e+002°)
7.79620000000000e+008	(-1.13917671386832e+001dB,-1.72015962579140e+002°)
7.99610000000000e+008	(-1.13918777299314e+001dB,-1.76334559421142e+002°)
8.19600000000000e+008	(-1.13901505959858e+001dB,1.79339617568733e+002°)
8.39590000000000e+008	(-1.13864270189529e+001dB,1.74995509529211e+002°)
8.59580000000000e+008	(-1.13823210925236e+001dB,1.70635603749596e+002°)
8.79570000000000e+008	(-1.13777138616167e+001dB,1.66261083141899e+002°)
8.99560000000000e+008	(-1.13728670880687e+001dB,1.61870685861801e+002°)
9.19550000000000e+008	(-1.13681571180423e+001dB,1.57463771739498e+002°)
9.39540000000000e+008	(-1.13639884780163e+001dB,1.53040229340309e+002°)
9.59530000000000e+008	(-1.13607740520390e+001dB,1.48600419795357e+002°)
9.79520000000000e+008	(-1.13589242088039e+001dB,1.44145168156329e+002°)
9.99510000000000e+008	(-1.13588368134333e+001dB,1.39675769984657e+002°)
1.01950000000000e+009	(-1.13608862866778e+001dB,1.35194002718077e+002°)
1.03949000000000e+009	(-1.13654105511893e+001dB,1.30702136692697e+002°)
1.05948000000000e+009	(-1.13726946326671e+001dB,1.26202938323300e+002°)
1.07947000000000e+009	(-1.13829499015643e+001dB,1.21699650985335e+002°)
1.09946000000000e+009	(-1.13962891008661e+001dB,1.17195930249696e+002°)
1.11945000000000e+009	(-1.14126998630882e+001dB,1.12695705015345e+002°)
1.13944000000000e+009	(-1.14320230665241e+001dB,1.08202944095895e+002°)
1.15943000000000e+009	(-1.14539453356605e+001dB,1.03721336918380e+002°)
1.17942000000000e+009	(-1.14780142288736e+001dB,9.92539429222500e+001°)
1.19941000000000e+009	(-1.15036781151465e+001dB,9.48029026765357e+001°)
1.21940000000000e+009	(-1.15303424305008e+001dB,9.03693013386003e+001°)
1.23939000000000e+009	(-1.15574262227950e+001dB,8.59532202397991e+001°)
1.25938000000000e+009	(-1.15844033832872e+001dB,8.15539350047141e+001°)
1.27937000000000e+009	(-1.16108213511702e+001dB,7.71701686756341e+001°)
1.29936000000000e+009	(-1.16363002291471e+001dB,7.28003117478031e+001°)
1.31935000000000e+009	(-1.16605211176461e+001dB,6.84425623296849e+001°)
1.33934000000000e+009	(-1.16832125669444e+001dB,6.40949847721594e+001°)
1.35933000000000e+009	(-1.17041407285756e+001dB,5.97555114445417e+001°)
1.37932000000000e+009	(-1.17231050812904e+001dB,5.54219174665781e+001°)
1.39931000000000e+009	(-1.17399391529171e+001dB,5.10917908692564e+001°)
1.41930000000000e+009	(-1.17545146543128e+001dB,4.67625099464519e+001°)
1.43929000000000e+009	(-1.17667474139592e+001dB,4.24312303621153e+001°)
1.45928000000000e+009	(-1.17766039453930e+001dB,3.80948779236990e+001°)
1.47927000000000e+009	(-1.17841081118197e+001dB,3.37501377227209e+001°)
1.49926000000000e+009	(-1.17893481608498e+001dB,2.93934244887461e+001°)
1.51925000000000e+009	(-1.17924856993412e+001dB,2.50208095005820e+001°)
1.53924000000000e+009	(-1.17937708943092e+001dB,2.06278613182728e+001°)
1.55923000000000e+009	(-1.17935749198122e+001dB,1.62093218623798e+001°)
1.57922000000000e+009	(-1.17924692215729e+001dB,1.17584704064144e+001°)
1.59921000000000e+009	(-1.17914369825726e+001dB,7.26591658403524e+000°)
1.61920000000000e+009	(-1.17924838750209e+001dB,2.71756523486697e+000°)
1.63919000000000e+009	(-1.18005220312599e+001dB,-1.90671958529890e+000°)
1.65918000000000e+009	(-1.18288509228550e+001dB,-6.61547654027291e+000°)
1.67917000000000e+009	(-1.19036233598178e+001dB,-1.12644751447584e+001°)
1.69916000000000e+009	(-1.19983542659586e+001dB,-1.53687537047593e+001°)
1.71915000000000e+009	(-1.19936640324340e+001dB,-1.92044957447693e+001°)
1.73914000000000e+009	(-1.19452830994274e+001dB,-2.35023816840947e+001°)
1.75913000000000e+009	(-1.19163046799610e+001dB,-2.80548865694469e+001°)
1.77912000000000e+009	(-1.19059836213067e+001dB,-3.26844619426408e+001°)
1.79911000000000e+009	(-1.19082725704319e+001dB,-3.73408362436990e+001°)
1.81910000000000e+009	(-1.19199371290081e+001dB,-4.20102439137490e+001°)
1.83909000000000e+009	(-1.19395762396373e+001dB,-4.66878664931546e+001°)
1.85908000000000e+009	(-1.19667745849388e+001dB,-5.13706550088018e+001°)
1.87907000000000e+009	(-1.20016956839441e+001dB,-5.60549308271701e+001°)
1.89906000000000e+009	(-1.20448620003214e+001dB,-6.07349178456924e+001°)
1.91905000000000e+009	(-1.20969387973873e+001dB,-6.54013045797484e+001°)
1.93904000000000e+009	(-1.21583898160981e+001dB,-7.00399996893213e+001°)
1.95903000000000e+009	(-1.22289443212884e+001dB,-7.46320478620952e+001°)
1.97902000000000e+009	(-1.23069867798184e+001dB,-7.91561536375214e+001°)
1.99901000000000e+009	(-1.23892297227101e+001dB,-8.35944705643800e+001°)
2.01900000000000e+009	(-1.24711034324733e+001dB,-8.79396909720237e+001°)
2.03899000000000e+009	(-1.25478944845615e+001dB,-9.21989991360032e+001°)
2.05898000000000e+009	(-1.26160186608111e+001dB,-9.63917514425253e+001°)
2.07897000000000e+009	(-1.26736658906494e+001dB,-1.00542550074459e+002°)
2.09896000000000e+009	(-1.27206145157807e+001dB,-1.04674426458631e+002°)
2.11895000000000e+009	(-1.27575997539700e+001dB,-1.08805329020201e+002°)
2.13894000000000e+009	(-1.27857043432226e+001dB,-1.12947910937955e+002°)
2.15893000000000e+009	(-1.28059894999843e+001dB,-1.17111016376201e+002°)
2.17892000000000e+009	(-1.28193593807729e+001dB,-1.21301459647438e+002°)
2.19891000000000e+009	(-1.28265719236260e+001dB,-1.25525441349684e+002°)
2.21890000000000e+009	(-1.28283198055151e+001dB,-1.29789482649146e+002°)
2.23889000000000e+009	(-1.28253402220831e+001dB,-1.34100978156530e+002°)
2.25888000000000e+009	(-1.28185418399998e+001dB,-1.38468496752641e+002°)
2.27887000000000e+009	(-1.28091577932390e+001dB,-1.42901905201973e+002°)
2.29886000000000e+009	(-1.27989493694695e+001dB,-1.47412283028868e+002°)
2.31885000000000e+009	(-1.27904985678101e+001dB,-1.52011397687932e+002°)
2.33884000000000e+009	(-1.27876283400970e+001dB,-1.56710098894262e+002°)
2.35883000000000e+009	(-1.27959219823089e+001dB,-1.61514238806055e+002°)
2.37882000000000e+009	(-1.28230193600770e+001dB,-1.66416143760062e+002°)
2.39881000000000e+009	(-1.28777802159625e+001dB,-1.71383249064566e+002°)
2.41880000000000e+009	(-1.29687046465798e+001dB,-1.76360563283267e+002°)
2.43879000000000e+009	(-1.31116736742151e+001dB,1.78726473066330e+002°)
2.45878000000000e+009	(-1.33376398652765e+001dB,1.74248472199771e+002°)
2.47877000000000e+009	(-1.35521490317376e+001dB,1.71074203741031e+002°)
2.49876000000000e+009	(-1.35210299335337e+001dB,1.68408309030022e+002°)
2.51875000000000e+009	(-1.33453122542202e+001dB,1.64628340327369e+002°)
2.53874000000000e+009	(-1.31971626183872e+001dB,1.59900634376522e+002°)
2.55873000000000e+009	(-1.31123276528175e+001dB,1.54742191200001e+002°)
2.57872000000000e+009	(-1.30820564551967e+001dB,1.49408228590945e+002°)
2.59871000000000e+009	(-1.30953590203245e+001dB,1.44000237104310e+002°)
2.61870000000000e+009	(-1.31452699957083e+001dB,1.38558586743958e+002°)
2.63869000000000e+009	(-1.32284552195384e+001dB,1.33099562973040e+002°)
2.65868000000000e+009	(-1.33446648234402e+001dB,1.27629499708408e+002°)
2.67867000000000e+009	(-1.34969763085009e+001dB,1.22152867305952e+002°)
2.69866000000000e+009	(-1.36928110108038e+001dB,1.16684203934392e+002°)
2.71865000000000e+009	(-1.39449465171098e+001dB,1.11275198832747e+002°)
2.73864000000000e+009	(-1.42690860558654e+001dB,1.06069665535717e+002°)
2.75863000000000e+009	(-1.46688553311685e+001dB,1.01367038936492e+002°)
2.77862000000000e+009	(-1.51027793895973e+001dB,9.75453989594434e+001°)
2.79861000000000e+009	(-1.54761677440487e+001dB,9.46607239439916e+001°)
2.81860000000000e+009	(-1.57208593087266e+001dB,9.21892761866956e+001°)
2.83859000000000e+009	(-1.58601086618803e+001dB,8.95403202889104e+001°)
2.85858000000000e+009	(-1.59555531264355e+001dB,8.65292036976626e+001°)
2.87857000000000e+009	(-1.60487410921108e+001dB,8.32497537461496e+001°)
2.89856000000000e+009	(-1.61561791828496e+001dB,7.98455105776354e+001°)
2.91855000000000e+009	(-1.62821083503934e+001dB,7.64270264958256e+001°)
2.93854000000000e+009	(-1.64279476707704e+001dB,7.30723196602207e+001°)
2.95853000000000e+009	(-1.65975853068583e+001dB,6.98544680677112e+001°)
2.97852000000000e+009	(-1.68004043116753e+001dB,6.68971153150444e+001°)
2.99851000000000e+009	(-1.70467817814519e+001dB,6.45019825473421e+001°)
3.01850000000000e+009	(-1.73029083855736e+001dB,6.33532917063689e+001°)
3.03849000000000e+009	(-1.73471540225317e+001dB,6.40992876109596e+001°)
3.05848000000000e+009	(-1.68451322589082e+001dB,6.48050327222363e+001°)
3.07847000000000e+009	(-1.60617081058012e+001dB,6.20658544054046e+001°)
3.09846000000000e+009	(-1.54941640860345e+001dB,5.66497502710856e+001°)
3.11845000000000e+009	(-1.52046360373423e+001dB,5.06523740383273e+001°)
3.13844000000000e+009	(-1.50844625803525e+001dB,4.49652372141461e+001°)
3.15843000000000e+009	(-1.50451595470561e+001dB,3.97496054436002e+001°)
3.17842000000000e+009	(-1.50362227424555e+001dB,3.49403027582210e+001°)
3.19841000000000e+009	(-1.50314613055687e+001dB,3.04295735065198e+001°)
3.21840000000000e+009	(-1.50179701218645e+001dB,2.61190168926600e+001°)
3.23839000000000e+009	(-1.49898089083547e+001dB,2.19294971527696e+001°)
3.25838000000000e+009	(-1.49446705053940e+001dB,1.77992284564970e+001°)
3.27837000000000e+009	(-1.48821855860653e+001dB,1.36795495792856e+001°)
3.29836000000000e+009	(-1.48030843477771e+001dB,9.53111308860989e+000°)
3.31835000000000e+009	(-1.47088015991180e+001dB,5.32105209710778e+000°)
3.33834000000000e+009	(-1.46013118766878e+001dB,1.02107051857021e+000°)
3.35833000000000e+009	(-1.44830846578843e+001dB,-3.39371763207988e+000°)
3.37832000000000e+009	(-1.43571014784090e+001dB,-7.94535307548746e+000°)
3.39831000000000e+009	(-1.42269018025226e+001dB,-1.26531064056804e+001°)
3.41830000000000e+009	(-1.40966360070464e+001dB,-1.75331318742805e+001°)
3.43829000000000e+009	(-1.39711089859647e+001dB,-2.25977474788799e+001°)
3.45828000000000e+009	(-1.38558010645602e+001dB,-2.78543818804600e+001°)
3.47827000000000e+009	(-1.37568571024216e+001dB,-3.33042191505094e+001°)
3.49826000000000e+009	(-1.36810404407034e+001dB,-3.89405226226990e+001°)
3.51825000000000e+009	(-1.36356484985719e+001dB,-4.47464614534178e+001°)
3.53824000000000e+009	(-1.36283522835854e+001dB,-5.06919371907758e+001°)
3.55823000000000e+009	(-1.36667808060470e+001dB,-5.67285999321986e+001°)
3.57822000000000e+009	(-1.37573395162850e+001dB,-6.27831730919386e+001°)
3.59821000000000e+009	(-1.39024734304841e+001dB,-6.87545335031823e+001°)
3.61820000000000e+009	(-1.40967527549731e+001dB,-7.45301570125821e+001°)
3.63819000000000e+009	(-1.43260869286532e+001dB,-8.00320428727201e+001°)
3.65818000000000e+009	(-1.45750469143393e+001dB,-8.52541569732570e+001°)
3.67817000000000e+009	(-1.48365305663308e+001dB,-9.02325793204573e+001°)
3.69816000000000e+009	(-1.51125503615163e+001dB,-9.49729706906151e+001°)
3.71815000000000e+009	(-1.54064099838217e+001dB,-9.93964155254500e+001°)
3.73814000000000e+009	(-1.57066496314628e+001dB,-1.03309045243871e+002°)
3.75813000000000e+009	(-1.59519503895725e+001dB,-1.06519572384914e+002°)
3.77812000000000e+009	(-1.60369210533830e+001dB,-1.09460707957672e+002°)
3.79811000000000e+009	(-1.59928770934590e+001dB,-1.13255166212513e+002°)
3.81810000000000e+009	(-1.59910243819732e+001dB,-1.18058238632511e+002°)
3.83809000000000e+009	(-1.60990440383802e+001dB,-1.23157691551486e+002°)
3.85808000000000e+009	(-1.62888214883126e+001dB,-1.28074940427680e+002°)
3.87807000000000e+009	(-1.65208251004476e+001dB,-1.32666305586206e+002°)
3.89806000000000e+009	(-1.67680749520573e+001dB,-1.36934514475409e+002°)
3.91805000000000e+009	(-1.70149630143008e+001dB,-1.40924326312717e+002°)
3.93804000000000e+009	(-1.72529402538409e+001dB,-1.44684751708094e+002°)
3.95803000000000e+009	(-1.74774206488640e+001dB,-1.48258353691623e+002°)
3.97802000000000e+009	(-1.76859745012304e+001dB,-1.51679744343791e+002°)
3.99801000000000e+009	(-1.78773393991469e+001dB,-1.54976693584185e+002°)
4.01800000000000e+009	(-1.80508887762993e+001dB,-1.58171662406365e+002°)
4.03799000000000e+009	(-1.82063460183409e+001dB,-1.61283137271365e+002°)
4.05798000000000e+009	(-1.83436289853841e+001dB,-1.64326657368202e+002°)
4.07797000000000e+009	(-1.84627641731964e+001dB,-1.67315573492730e+002°)
4.09796000000000e+009	(-1.85638385998562e+001dB,-1.70261603912679e+002°)
4.11795000000000e+009	(-1.86469725633829e+001dB,-1.73175244787909e+002°)
4.13794000000000e+009	(-1.87123042699347e+001dB,-1.76066078540012e+002°)
4.15793000000000e+009	(-1.87599814666131e+001dB,-1.78943011029374e+002°)
4.17792000000000e+009	(-1.87901574232227e+001dB,1.78185540997913e+002°)
4.19791000000000e+009	(-1.88029898140701e+001dB,1.75311497348553e+002°)
4.21790000000000e+009	(-1.87986417285022e+001dB,1.72426986417123e+002°)
4.23789000000000e+009	(-1.87772844345950e+001dB,1.69524234661639e+002°)
4.25788000000000e+009	(-1.87391017648557e+001dB,1.66595468553326e+002°)
4.27787000000000e+009	(-1.86842961560934e+001dB,1.63632825621957e+002°)
4.29786000000000e+009	(-1.86130964957861e+001dB,1.60628272443840e+002°)
4.31785000000000e+009	(-1.85257680249046e+001dB,1.57573528457239e+002°)
4.33784000000000e+009	(-1.84226246325903e+001dB,1.54459995473402e+002°)
4.35783000000000e+009	(-1.83040439549804e+001dB,1.51278693791805e+002°)
4.37782000000000e+009	(-1.81704857568772e+001dB,1.48020207026228e+002°)
4.39781000000000e+009	(-1.80225141232291e+001dB,1.44674639198877e+002°)
4.41780000000000e+009	(-1.78608240028984e+001dB,1.41231589451146e+002°)
4.43779000000000e+009	(-1.76862726065743e+001dB,1.37680151922541e+002°)
4.45778000000000e+009	(-1.74999160298796e+001dB,1.34008950993287e+002°)
4.47777000000000e+009	(-1.73030512061672e+001dB,1.30206225117197e+002°)
4.49776000000000e+009	(-1.70972628367626e+001dB,1.26259975686816e+002°)
4.51775000000000e+009	(-1.68844742465508e+001dB,1.22158200336718e+002°)
4.53774000000000e+009	(-1.66670001435394e+001dB,1.17889232055951e+002°)
4.55773000000000e+009	(-1.64475980720907e+001dB,1.13442205396929e+002°)
4.57772000000000e+009	(-1.62295141478324e+001dB,1.08807667872646e+002°)
4.59771000000000e+009	(-1.60165179157680e+001dB,1.03978348228466e+002°)
4.61770000000000e+009	(-1.58129216688190e+001dB,9.89500869307922e+001°)
4.63769000000000e+009	(-1.56235821867613e+001dB,9.37229395392643e+001°)
4.65768000000000e+009	(-1.54538874348463e+001dB,8.83025091763192e+001°)
4.67767000000000e+009	(-1.53097323102656e+001dB,8.27017063196566e+001°)
4.69766000000000e+009	(-1.51974658193980e+001dB,7.69434531094294e+001°)
4.71765000000000e+009	(-1.51236868898360e+001dB,7.10653467105270e+001°)
4.73764000000000e+009	(-1.50944429145855e+001dB,6.51273377856347e+001°)
4.75763000000000e+009	(-1.51127541774372e+001dB,5.92199299707269e+001°)
4.77762000000000e+009	(-1.51734599746846e+001dB,5.34563423496329e+001°)
4.79761000000000e+009	(-1.52591076518794e+001dB,4.79178632498342e+001°)
4.81760000000000e+009	(-1.53474567238758e+001dB,4.25784844809385e+001°)
4.83759000000000e+009	(-1.54273808838352e+001dB,3.73157156383632e+001°)
4.85758000000000e+009	(-1.55066942145103e+001dB,3.20026780000143e+001°)
4.87757000000000e+009	(-1.56049719329827e+001dB,2.66186886971651e+001°)
4.89756000000000e+009	(-1.57337562643593e+001dB,2.12494807951473e+001°)
4.91755000000000e+009	(-1.58915360209704e+001dB,1.59859973380006e+001°)
4.93754000000000e+009	(-1.60712098160561e+001dB,1.08799903325743e+001°)
4.95753000000000e+009	(-1.62652607121686e+001dB,5.95131644050489e+000°)
4.97752000000000e+009	(-1.64673484616991e+001dB,1.20189506223700e+000°)
4.99751000000000e+009	(-1.66724734085542e+001dB,-3.37533377337138e+000°)
5.01750000000000e+009	(-1.68767747857546e+001dB,-7.79160645165936e+000°)
5.03749000000000e+009	(-1.70772882341963e+001dB,-1.20598493742055e+001°)
5.05748000000000e+009	(-1.72717400110041e+001dB,-1.61933967264084e+001°)
5.07747000000000e+009	(-1.74583870115214e+001dB,-2.02053344296643e+001°)
5.09746000000000e+009	(-1.76358954736855e+001dB,-2.41081747895889e+001°)
5.11745000000000e+009	(-1.78032491973944e+001dB,-2.79137088990104e+001°)
5.13744000000000e+009	(-1.79596795880939e+001dB,-3.16329562664293e+001°)
5.15743000000000e+009	(-1.81046117848745e+001dB,-3.52761683959806e+001°)
5.17742000000000e+009	(-1.82376227633903e+001dB,-3.88528624575581e+001°)
5.19741000000000e+009	(-1.83584084972077e+001dB,-4.23718714754206e+001°)
5.21740000000000e+009	(-1.84667580908203e+001dB,-4.58414030605032e+001°)
5.23739000000000e+009	(-1.85625333657614e+001dB,-4.92691018666023e+001°)
5.25738000000000e+009	(-1.86456527728202e+001dB,-5.26621128054094e+001°)
5.27737000000000e+009	(-1.87160787784217e+001dB,-5.60271431923038e+001°)
5.29736000000000e+009	(-1.87738080713735e+001dB,-5.93705227156792e+001°)
5.31735000000000e+009	(-1.88188640826703e+001dB,-6.26982605889889e+001°)
5.33734000000000e+009	(-1.88512914218625e+001dB,-6.60160995473682e+001°)
5.35733000000000e+009	(-1.88711519187953e+001dB,-6.93295665438510e+001°)
5.37732000000000e+009	(-1.88785220259085e+001dB,-7.26440201184840e+001°)
5.39731000000000e+009	(-1.88734913881627e+001dB,-7.59646944808801e+001°)
5.41730000000000e+009	(-1.88561624280590e+001dB,-7.92967403807399e+001°)
5.43729000000000e+009	(-1.88266508244026e+001dB,-8.26452628561336e+001°)
5.45728000000000e+009	(-1.87850867872442e+001dB,-8.60153559591250e+001°)
5.47727000000000e+009	(-1.87316170496180e+001dB,-8.94121345756761e+001°)
5.49726000000000e+009	(-1.86664075114391e+001dB,-9.28407634952141e+001°)
