Freq.	V(n_3p)
2.00000000000000e+007	(-1.08157854099545e+001dB,-4.17496389054222e+000°)
3.99900000000000e+007	(-1.08366843323839e+001dB,-8.16018293773709e+000°)
5.99800000000000e+007	(-1.08507512051417e+001dB,-1.21195870764184e+001°)
7.99700000000000e+007	(-1.08631189898354e+001dB,-1.60749842420580e+001°)
9.99600000000000e+007	(-1.08755950449650e+001dB,-2.00246402579888e+001°)
1.19950000000000e+008	(-1.08885821916158e+001dB,-2.39653561689084e+001°)
1.39940000000000e+008	(-1.09019677176285e+001dB,-2.78949576171647e+001°)
1.59930000000000e+008	(-1.09154212394009e+001dB,-3.18123888052601e+001°)
1.79920000000000e+008	(-1.09285077548692e+001dB,-3.57176288660838e+001°)
1.99910000000000e+008	(-1.09407302548549e+001dB,-3.96116496270256e+001°)
2.19900000000000e+008	(-1.09515105172308e+001dB,-4.34965316107553e+001°)
2.39890000000000e+008	(-1.09600442367675e+001dB,-4.73765874521544e+001°)
2.59880000000000e+008	(-1.09652735274616e+001dB,-5.12659752480735e+001°)
2.79870000000000e+008	(-1.09712476786841e+001dB,-5.51977674541910e+001°)
2.99860000000000e+008	(-1.09848853079289e+001dB,-5.91133579884242e+001°)
3.19850000000000e+008	(-1.09958079340980e+001dB,-6.29990732163342e+001°)
3.39840000000000e+008	(-1.10046145790659e+001dB,-6.68918116507987e+001°)
3.59830000000000e+008	(-1.10134889683797e+001dB,-7.07942852328624e+001°)
3.79820000000000e+008	(-1.10233929336783e+001dB,-7.47030350331002e+001°)
3.99810000000000e+008	(-1.10347552960868e+001dB,-7.86141060022360e+001°)
4.19800000000000e+008	(-1.10477150380387e+001dB,-8.25237094505313e+001°)
4.39790000000000e+008	(-1.10622123993238e+001dB,-8.64284857539466e+001°)
4.59780000000000e+008	(-1.10780483191594e+001dB,-9.03256980436674e+001°)
4.79770000000000e+008	(-1.10949367978659e+001dB,-9.42133355501077e+001°)
4.99760000000000e+008	(-1.11125510290092e+001dB,-9.80901124547778e+001°)
5.19750000000000e+008	(-1.11305590694893e+001dB,-1.01955379938350e+002°)
5.39740000000000e+008	(-1.11486462388641e+001dB,-1.05808992340182e+002°)
5.59730000000000e+008	(-1.11665251440019e+001dB,-1.09651171839754e+002°)
5.79720000000000e+008	(-1.11839371276626e+001dB,-1.13482401511149e+002°)
5.99710000000000e+008	(-1.12006496253415e+001dB,-1.17303356184148e+002°)
6.19700000000000e+008	(-1.12164528471062e+001dB,-1.21114865560144e+002°)
6.39690000000000e+008	(-1.12311575868166e+001dB,-1.24917898049820e+002°)
6.59680000000000e+008	(-1.12445946687417e+001dB,-1.28713554396925e+002°)
6.79670000000000e+008	(-1.12566158279839e+001dB,-1.32503063461424e+002°)
6.99660000000000e+008	(-1.12670955702174e+001dB,-1.36287775924759e+002°)
7.19650000000000e+008	(-1.12759335609744e+001dB,-1.40069154113153e+002°)
7.39640000000000e+008	(-1.12830571973046e+001dB,-1.43848757546338e+002°)
7.59630000000000e+008	(-1.12884241324961e+001dB,-1.47628224496414e+002°)
7.79620000000000e+008	(-1.12920246310517e+001dB,-1.51409250090738e+002°)
7.99610000000000e+008	(-1.12938837353641e+001dB,-1.55193561518857e+002°)
8.19600000000000e+008	(-1.12940633696841e+001dB,-1.58982890767453e+002°)
8.39590000000000e+008	(-1.12926648008600e+001dB,-1.62778944789379e+002°)
8.59580000000000e+008	(-1.12898326348998e+001dB,-1.66583370873900e+002°)
8.79570000000000e+008	(-1.12857637694846e+001dB,-1.70397704841816e+002°)
8.99560000000000e+008	(-1.12807316839689e+001dB,-1.74223233061551e+002°)
9.19550000000000e+008	(-1.12751491634558e+001dB,-1.78060314511618e+002°)
9.39540000000000e+008	(-1.12694045674869e+001dB,1.78095642468515e+002°)
9.59530000000000e+008	(-1.12607959113090e+001dB,1.74246698308076e+002°)
9.79520000000000e+008	(-1.12515127242687e+001dB,1.70360151717560e+002°)
9.99510000000000e+008	(-1.12442469723193e+001dB,1.66457836126974e+002°)
1.01950000000000e+009	(-1.12379296918023e+001dB,1.62542882256090e+002°)
1.03949000000000e+009	(-1.12326317365774e+001dB,1.58613951911529e+002°)
1.05948000000000e+009	(-1.12286590802524e+001dB,1.54670901750019e+002°)
1.07947000000000e+009	(-1.12263499539610e+001dB,1.50714303455038e+002°)
1.09946000000000e+009	(-1.12260390326901e+001dB,1.46745201254030e+002°)
1.11945000000000e+009	(-1.12280466833124e+001dB,1.42765022148976e+002°)
1.13944000000000e+009	(-1.12326730062329e+001dB,1.38775539591227e+002°)
1.15943000000000e+009	(-1.12401929739711e+001dB,1.34778859837471e+002°)
1.17942000000000e+009	(-1.12508514176384e+001dB,1.30777422867909e+002°)
1.19941000000000e+009	(-1.12648566606244e+001dB,1.26774016104797e+002°)
1.21940000000000e+009	(-1.12823711042501e+001dB,1.22771798448510e+002°)
1.23939000000000e+009	(-1.13034965771710e+001dB,1.18774325983026e+002°)
1.25938000000000e+009	(-1.13282523204298e+001dB,1.14785559081705e+002°)
1.27937000000000e+009	(-1.13565449084625e+001dB,1.10809815302259e+002°)
1.29936000000000e+009	(-1.13881330652977e+001dB,1.06851620335313e+002°)
1.31935000000000e+009	(-1.14225962673628e+001dB,1.02915414551611e+002°)
1.33934000000000e+009	(-1.14593220591716e+001dB,9.90051120614832e+001°)
1.35933000000000e+009	(-1.14975281733398e+001dB,9.51235852008980e+001°)
1.37932000000000e+009	(-1.15363266649675e+001dB,9.12722276822362e+001°)
1.39931000000000e+009	(-1.15748189952871e+001dB,8.74507709271918e+001°)
1.41930000000000e+009	(-1.16121935070719e+001dB,8.36574460196998e+001°)
1.43929000000000e+009	(-1.16477934508399e+001dB,7.98894321594493e+001°)
1.45928000000000e+009	(-1.16811383441845e+001dB,7.61434120905075e+001°)
1.47927000000000e+009	(-1.17119033353855e+001dB,7.24160430648297e+001°)
1.49926000000000e+009	(-1.17398757837012e+001dB,6.87042352557953e+001°)
1.51925000000000e+009	(-1.17649095809867e+001dB,6.50052337858099e+001°)
1.53924000000000e+009	(-1.17868902156400e+001dB,6.13165650000509e+001°)
1.55923000000000e+009	(-1.18057146541008e+001dB,5.76359205261653e+001°)
1.57922000000000e+009	(-1.18212842236083e+001dB,5.39610344168910e+001°)
1.59921000000000e+009	(-1.18335064292674e+001dB,5.02895829671807e+001°)
1.61920000000000e+009	(-1.18423017499398e+001dB,4.66191166790432e+001°)
1.63919000000000e+009	(-1.18476125235747e+001dB,4.29470222747637e+001°)
1.65918000000000e+009	(-1.18494121953270e+001dB,3.92705076736454e+001°)
1.67917000000000e+009	(-1.18477141331958e+001dB,3.55866014657752e+001°)
1.69916000000000e+009	(-1.18425799062382e+001dB,3.18921582201094e+001°)
1.71915000000000e+009	(-1.18341275254876e+001dB,2.81838602446292e+001°)
1.73914000000000e+009	(-1.18225409701351e+001dB,2.44582037150951e+001°)
1.75913000000000e+009	(-1.18080839926555e+001dB,2.07114505132235e+001°)
1.77912000000000e+009	(-1.17911253275710e+001dB,1.69395136548258e+001°)
1.79911000000000e+009	(-1.17721937624592e+001dB,1.31377207903068e+001°)
1.81910000000000e+009	(-1.17521155059351e+001dB,9.30038089623038e+000°)
1.83909000000000e+009	(-1.17323965313000e+001dB,5.42023591324394e+000°)
1.85908000000000e+009	(-1.17163701821456e+001dB,1.48965026112632e+000°)
1.87907000000000e+009	(-1.17121718122703e+001dB,-2.48052850002844e+000°)
1.89906000000000e+009	(-1.17288193625099e+001dB,-6.35539713860601e+000°)
1.91905000000000e+009	(-1.17229700577256e+001dB,-9.97031684875578e+000°)
1.93904000000000e+009	(-1.16715052073957e+001dB,-1.37538459735620e+001°)
1.95903000000000e+009	(-1.16269882023931e+001dB,-1.77639536625993e+001°)
1.97902000000000e+009	(-1.15962152643111e+001dB,-2.18500973436303e+001°)
1.99901000000000e+009	(-1.15746267375226e+001dB,-2.59698082895062e+001°)
2.01900000000000e+009	(-1.15600087483879e+001dB,-3.01147717445844e+001°)
2.03899000000000e+009	(-1.15516921269127e+001dB,-3.42826211933611e+001°)
2.05898000000000e+009	(-1.15496782515595e+001dB,-3.84714148821061e+001°)
2.07897000000000e+009	(-1.15542627156172e+001dB,-4.26786301495465e+001°)
2.09896000000000e+009	(-1.15658811823490e+001dB,-4.69009952236142e+001°)
2.11895000000000e+009	(-1.15850453208363e+001dB,-5.11344186491361e+001°)
2.13894000000000e+009	(-1.16123133766579e+001dB,-5.53738400453981e+001°)
2.15893000000000e+009	(-1.16482657124291e+001dB,-5.96129473126411e+001°)
2.17892000000000e+009	(-1.16934609861068e+001dB,-6.38437568772981e+001°)
2.19891000000000e+009	(-1.17483473387768e+001dB,-6.80561270954772e+001°)
2.21890000000000e+009	(-1.18131051231418e+001dB,-7.22374026710920e+001°)
2.23889000000000e+009	(-1.18874157008471e+001dB,-7.63725555973074e+001°)
2.25888000000000e+009	(-1.19701963078469e+001dB,-8.04452923614508e+001°)
2.27887000000000e+009	(-1.20594085349234e+001dB,-8.44404282030452e+001°)
2.29886000000000e+009	(-1.21520930840185e+001dB,-8.83472104408437e+001°)
2.31885000000000e+009	(-1.22447325156917e+001dB,-9.21623981688498e+001°)
2.33884000000000e+009	(-1.23338729247767e+001dB,-9.58915035622215e+001°)
2.35883000000000e+009	(-1.24167531737452e+001dB,-9.95473428423138e+001°)
2.37882000000000e+009	(-1.24916671211102e+001dB,-1.03146572585606e+002°)
2.39881000000000e+009	(-1.25579542508773e+001dB,-1.06705923914215e+002°)
2.41880000000000e+009	(-1.26157220188616e+001dB,-1.10239612967490e+002°)
2.43879000000000e+009	(-1.26654894758986e+001dB,-1.13758388850970e+002°)
2.45878000000000e+009	(-1.27078953645865e+001dB,-1.17269829329837e+002°)
2.47877000000000e+009	(-1.27435229662894e+001dB,-1.20779228132995e+002°)
2.49876000000000e+009	(-1.27728294246234e+001dB,-1.24290566194421e+002°)
2.51875000000000e+009	(-1.27961441136992e+001dB,-1.27807314306424e+002°)
2.53874000000000e+009	(-1.28137034656317e+001dB,-1.31333004878452e+002°)
2.55873000000000e+009	(-1.28257012890834e+001dB,-1.34871605566544e+002°)
2.57872000000000e+009	(-1.28323448627530e+001dB,-1.38427756906698e+002°)
2.59871000000000e+009	(-1.28339155697960e+001dB,-1.42006933524641e+002°)
2.61870000000000e+009	(-1.28308394435208e+001dB,-1.45615574277419e+002°)
2.63869000000000e+009	(-1.28237799025320e+001dB,-1.49261206842612e+002°)
2.65868000000000e+009	(-1.28137752160002e+001dB,-1.52952558683839e+002°)
2.67867000000000e+009	(-1.28024612919828e+001dB,-1.56699566676124e+002°)
2.69866000000000e+009	(-1.27924521404929e+001dB,-1.60512978466318e+002°)
2.71865000000000e+009	(-1.27879967930029e+001dB,-1.64402622799538e+002°)
2.73864000000000e+009	(-1.27960472640652e+001dB,-1.68371788962706e+002°)
2.75863000000000e+009	(-1.28276030979721e+001dB,-1.72401627888861e+002°)
2.77862000000000e+009	(-1.28980557264836e+001dB,-1.76416307253530e+002°)
2.79861000000000e+009	(-1.30247363948302e+001dB,1.79781985527835e+002°)
2.81860000000000e+009	(-1.32060054303855e+001dB,1.76725002229245e+002°)
2.83859000000000e+009	(-1.32699331081072e+001dB,1.74989195423653e+002°)
2.85858000000000e+009	(-1.30517483601983e+001dB,1.72907059720649e+002°)
2.87857000000000e+009	(-1.27780692345522e+001dB,1.69401668418883e+002°)
2.89856000000000e+009	(-1.25738563061608e+001dB,1.65169149145385e+002°)
2.91855000000000e+009	(-1.24323702147799e+001dB,1.60695674148548e+002°)
2.93854000000000e+009	(-1.23324734735589e+001dB,1.56142176649748e+002°)
2.95853000000000e+009	(-1.22608636245030e+001dB,1.51551424351767e+002°)
2.97852000000000e+009	(-1.22105900965164e+001dB,1.46931866850961e+002°)
2.99851000000000e+009	(-1.21783292296148e+001dB,1.42283376957545e+002°)
3.01850000000000e+009	(-1.21627721003257e+001dB,1.37604756462392e+002°)
3.03849000000000e+009	(-1.21638080700293e+001dB,1.32895856084316e+002°)
3.05848000000000e+009	(-1.21821512517920e+001dB,1.28158287115234e+002°)
3.07847000000000e+009	(-1.22192058348884e+001dB,1.23396135312311e+002°)
3.09846000000000e+009	(-1.22770382632264e+001dB,1.18617387901945e+002°)
3.11845000000000e+009	(-1.23583188070356e+001dB,1.13836564316626e+002°)
3.13844000000000e+009	(-1.24660280807673e+001dB,1.09078676477224e+002°)
3.15843000000000e+009	(-1.26026435005749e+001dB,1.04383563905252e+002°)
3.17842000000000e+009	(-1.27685819786162e+001dB,9.98074629650224e+001°)
3.19841000000000e+009	(-1.29601573754987e+001dB,9.54163962124901e+001°)
3.21840000000000e+009	(-1.31682719545650e+001dB,9.12675947348688e+001°)
3.23839000000000e+009	(-1.33796010718514e+001dB,8.73847407562803e+001°)
3.25838000000000e+009	(-1.35806346499142e+001dB,8.37440959703178e+001°)
3.27837000000000e+009	(-1.37621850557833e+001dB,8.02846395165860e+001°)
3.29836000000000e+009	(-1.39212746059830e+001dB,7.69348617925838e+001°)
3.31835000000000e+009	(-1.40598400674141e+001dB,7.36363719132408e+001°)
3.33834000000000e+009	(-1.41821175437358e+001dB,7.03530096052061e+001°)
3.35833000000000e+009	(-1.42925440522228e+001dB,6.70681328223620e+001°)
3.37832000000000e+009	(-1.43947451959888e+001dB,6.37776055349036e+001°)
3.39831000000000e+009	(-1.44913364995908e+001dB,6.04834843824546e+001°)
3.41830000000000e+009	(-1.45841153167657e+001dB,5.71899471497902e+001°)
3.43829000000000e+009	(-1.46743653542801e+001dB,5.39012183593102e+001°)
3.45828000000000e+009	(-1.47631530211505e+001dB,5.06208092011545e+001°)
3.47827000000000e+009	(-1.48515904588310e+001dB,4.73514972726047e+001°)
3.49826000000000e+009	(-1.49410933901185e+001dB,4.40956771193304e+001°)
3.51825000000000e+009	(-1.50337151870727e+001dB,4.08559023153406e+001°)
3.53824000000000e+009	(-1.51327524514045e+001dB,3.76358113092970e+001°)
3.55823000000000e+009	(-1.52440882578138e+001dB,3.44432078042300e+001°)
3.57822000000000e+009	(-1.53791834059037e+001dB,3.13038417982371e+001°)
3.59821000000000e+009	(-1.55600057702289e+001dB,2.83185135537412e+001°)
3.61820000000000e+009	(-1.58158056624918e+001dB,2.58495814310495e+001°)
3.63819000000000e+009	(-1.61139996444250e+001dB,2.48231141465482e+001°)
3.65818000000000e+009	(-1.61726706347138e+001dB,2.58910868701813e+001°)
3.67817000000000e+009	(-1.57056789510236e+001dB,2.65720745526597e+001°)
3.69816000000000e+009	(-1.50458666808987e+001dB,2.43208818381951e+001°)
3.71815000000000e+009	(-1.45338748267985e+001dB,2.01366605365408e+001°)
3.73814000000000e+009	(-1.41936565425495e+001dB,1.53716810070445e+001°)
3.75813000000000e+009	(-1.39641243463294e+001dB,1.05716230464204e+001°)
3.77812000000000e+009	(-1.37972951878929e+001dB,5.87008028374818e+000°)
3.79811000000000e+009	(-1.36652377084270e+001dB,1.26651356896987e+000°)
3.81810000000000e+009	(-1.35529384437362e+001dB,-3.27343690463397e+000°)
3.83809000000000e+009	(-1.34527476711273e+001dB,-7.78715082112132e+000°)
3.85808000000000e+009	(-1.33611865774652e+001dB,-1.23067412528305e+001°)
3.87807000000000e+009	(-1.32772102235714e+001dB,-1.68576098421522e+001°)
3.89806000000000e+009	(-1.32012599691358e+001dB,-2.14588690635826e+001°)
3.91805000000000e+009	(-1.31347366780268e+001dB,-2.61240977094464e+001°)
3.93804000000000e+009	(-1.30797048002630e+001dB,-3.08619904532265e+001°)
3.95803000000000e+009	(-1.30387341946498e+001dB,-3.56767805347932e+001°)
3.97802000000000e+009	(-1.30148378301180e+001dB,-4.05683427917647e+001°)
3.99801000000000e+009	(-1.30114852893368e+001dB,-4.55317576246261e+001°)
4.01800000000000e+009	(-1.30326594098381e+001dB,-5.05558672057503e+001°)
4.03799000000000e+009	(-1.30828464439290e+001dB,-5.56200809562497e+001°)
4.05798000000000e+009	(-1.31666608469763e+001dB,-6.06888729071341e+001°)
4.07797000000000e+009	(-1.32875349849118e+001dB,-6.57054519771701e+001°)
4.09796000000000e+009	(-1.34449864273103e+001dB,-7.05917465768623e+001°)
4.11795000000000e+009	(-1.36314662520335e+001dB,-7.52676048302131e+001°)
4.13794000000000e+009	(-1.38325253518656e+001dB,-7.96911369147563e+001°)
4.15793000000000e+009	(-1.40331358325790e+001dB,-8.38877500945719e+001°)
4.17792000000000e+009	(-1.42254858180229e+001dB,-8.79298835728244e+001°)
4.19791000000000e+009	(-1.44105650414177e+001dB,-9.18866392979134e+001°)
4.21790000000000e+009	(-1.45938981185688e+001dB,-9.57937275223906e+001°)
4.23789000000000e+009	(-1.47811823670905e+001dB,-9.96556761992895e+001°)
4.25788000000000e+009	(-1.49765767914156e+001dB,-1.03460182824084e+002°)
4.27787000000000e+009	(-1.51829287505920e+001dB,-1.07189028439567e+002°)
4.29786000000000e+009	(-1.54027239887507e+001dB,-1.10822077031373e+002°)
4.31785000000000e+009	(-1.56391977228820e+001dB,-1.14335165472948e+002°)
4.33784000000000e+009	(-1.58974900034579e+001dB,-1.17691139214354e+002°)
4.35783000000000e+009	(-1.61856127659829e+001dB,-1.20818519404617e+002°)
4.37782000000000e+009	(-1.65135985498047e+001dB,-1.23564220597516e+002°)
4.39781000000000e+009	(-1.68836800742799e+001dB,-1.25603004823100e+002°)
4.41780000000000e+009	(-1.72499333383256e+001dB,-1.26361029028433e+002°)
4.43779000000000e+009	(-1.74333119651506e+001dB,-1.25423875769404e+002°)
4.45778000000000e+009	(-1.71797216178800e+001dB,-1.24053077694632e+002°)
4.47777000000000e+009	(-1.65811191520466e+001dB,-1.24886019512633e+002°)
4.49776000000000e+009	(-1.60163193502100e+001dB,-1.28327765094443e+002°)
4.51775000000000e+009	(-1.56502252758804e+001dB,-1.32982273928253e+002°)
4.53774000000000e+009	(-1.54526360100864e+001dB,-1.37840093097375e+002°)
4.55773000000000e+009	(-1.53605152434308e+001dB,-1.42518244771088e+002°)
4.57772000000000e+009	(-1.53272996600098e+001dB,-1.46925982505626e+002°)
4.59771000000000e+009	(-1.53236921865400e+001dB,-1.51074590711106e+002°)
4.61770000000000e+009	(-1.53318307501412e+001dB,-1.55005652596919e+002°)
4.63769000000000e+009	(-1.53409121817919e+001dB,-1.58766016061987e+002°)
4.65768000000000e+009	(-1.53444731228730e+001dB,-1.62399351150664e+002°)
4.67767000000000e+009	(-1.53387360257386e+001dB,-1.65943830068164e+002°)
4.69766000000000e+009	(-1.53216026062531e+001dB,-1.69432119141735e+002°)
4.71765000000000e+009	(-1.52920436851004e+001dB,-1.72892166087766e+002°)
4.73764000000000e+009	(-1.52497336430956e+001dB,-1.76348157003794e+002°)
4.75763000000000e+009	(-1.51948366136970e+001dB,-1.79821397481452e+002°)
4.77762000000000e+009	(-1.51278875890033e+001dB,1.76668962808252e+002°)
4.79761000000000e+009	(-1.50497339267463e+001dB,1.73105375236488e+002°)
4.81760000000000e+009	(-1.49615165263976e+001dB,1.69471497386051e+002°)
4.83759000000000e+009	(-1.48646784324579e+001dB,1.65751945815416e+002°)
4.85758000000000e+009	(-1.47609938774455e+001dB,1.61932190283157e+002°)
4.87757000000000e+009	(-1.46526140748632e+001dB,1.57998594837385e+002°)
4.89756000000000e+009	(-1.45421281324312e+001dB,1.53938628248912e+002°)
4.91755000000000e+009	(-1.44326384484115e+001dB,1.49741292663125e+002°)
4.93754000000000e+009	(-1.43278491658240e+001dB,1.45397862600251e+002°)
4.95753000000000e+009	(-1.42321610916832e+001dB,1.40903097179137e+002°)
4.97752000000000e+009	(-1.41507502838689e+001dB,1.36257192729276e+002°)
4.99751000000000e+009	(-1.40895662090598e+001dB,1.31468849778613e+002°)
5.01750000000000e+009	(-1.40550970829127e+001dB,1.26559772738787e+002°)
5.03749000000000e+009	(-1.40536069111542e+001dB,1.21570204771876e+002°)
5.05748000000000e+009	(-1.40894516578114e+001dB,1.16562784169130e+002°)
5.07747000000000e+009	(-1.41624268653740e+001dB,1.11617779411855e+002°)
5.09746000000000e+009	(-1.42654722435160e+001dB,1.06810976357121e+002°)
5.11745000000000e+009	(-1.43857945882504e+001dB,1.02177483228553e+002°)
5.13744000000000e+009	(-1.45110632475642e+001dB,9.76900436564709e+001°)
5.15743000000000e+009	(-1.46364735738578e+001dB,9.32810104471384e+001°)
5.17742000000000e+009	(-1.47662228576210e+001dB,8.88916923641835e+001°)
5.19741000000000e+009	(-1.49093339876331e+001dB,8.45049536733116e+001°)
5.21740000000000e+009	(-1.50749826436455e+001dB,8.01470670126158e+001°)
5.23739000000000e+009	(-1.52703194627815e+001dB,7.58781880179505e+001°)
5.25738000000000e+009	(-1.54997719243470e+001dB,7.17919388597475e+001°)
5.27737000000000e+009	(-1.57625328441483e+001dB,6.80310512131242e+001°)
5.29736000000000e+009	(-1.60428880736368e+001dB,6.48011739691289e+001°)
5.31735000000000e+009	(-1.62900094063401e+001dB,6.22900227355580e+001°)
5.33734000000000e+009	(-1.64154105070054e+001dB,6.03311547106477e+001°)
5.35733000000000e+009	(-1.63785141563632e+001dB,5.81465967104422e+001°)
5.37732000000000e+009	(-1.62686317234937e+001dB,5.50717114244150e+001°)
5.39731000000000e+009	(-1.61972472322763e+001dB,5.12522023078912e+001°)
5.41730000000000e+009	(-1.61985758325014e+001dB,4.71538033834346e+001°)
5.43729000000000e+009	(-1.62583587474586e+001dB,4.30812244157727e+001°)
5.45728000000000e+009	(-1.63542707605988e+001dB,3.91568213738064e+001°)
5.47727000000000e+009	(-1.64689130601494e+001dB,3.54102592299795e+001°)
5.49726000000000e+009	(-1.65905854103445e+001dB,3.18345979260211e+001°)
