Freq.	V(n_3p)
2.00000000000000e+007	(-1.07751598459399e+001dB,-4.29970426123302e+000°)
3.99900000000000e+007	(-1.07952200490227e+001dB,-8.41087583429123e+000°)
5.99800000000000e+007	(-1.08080049696364e+001dB,-1.24976164030420e+001°)
7.99700000000000e+007	(-1.08186827764156e+001dB,-1.65821132938713e+001°)
9.99600000000000e+007	(-1.08291116939155e+001dB,-2.06630066717339e+001°)
1.19950000000000e+008	(-1.08397529073620e+001dB,-2.47373993397059e+001°)
1.39940000000000e+008	(-1.08505553473015e+001dB,-2.88033463977860e+001°)
1.59930000000000e+008	(-1.08612513120737e+001dB,-3.28599528971527e+001°)
1.79920000000000e+008	(-1.08714674371277e+001dB,-3.69072948126070e+001°)
1.99910000000000e+008	(-1.08807651649122e+001dB,-4.09463847906835e+001°)
2.19900000000000e+008	(-1.08886191232101e+001dB,-4.49792999139522e+001°)
2.39890000000000e+008	(-1.08942674445092e+001dB,-4.90103268422912e+001°)
2.59880000000000e+008	(-1.08966720964869e+001dB,-5.30537035195933e+001°)
2.79870000000000e+008	(-1.08999482662613e+001dB,-5.71432141376565e+001°)
2.99860000000000e+008	(-1.09112750355052e+001dB,-6.12197568849963e+001°)
3.19850000000000e+008	(-1.09202038184402e+001dB,-6.52685897154932e+001°)
3.39840000000000e+008	(-1.09273544256122e+001dB,-6.93270149508526e+001°)
3.59830000000000e+008	(-1.09350139915250e+001dB,-7.33976323633472e+001°)
3.79820000000000e+008	(-1.09442361785631e+001dB,-7.74765533761796e+001°)
3.99810000000000e+008	(-1.09555223376894e+001dB,-8.15592043127952e+001°)
4.19800000000000e+008	(-1.09690581226601e+001dB,-8.56410428906606e+001°)
4.39790000000000e+008	(-1.09847992525582e+001dB,-8.97178868917294e+001°)
4.59780000000000e+008	(-1.10025300542261e+001dB,-9.37861827206958e+001°)
4.79770000000000e+008	(-1.10219195535455e+001dB,-9.78431743795037e+001°)
4.99760000000000e+008	(-1.10425741885271e+001dB,-1.01886946708397e+002°)
5.19750000000000e+008	(-1.10640808539014e+001dB,-1.05916359290698e+002°)
5.39740000000000e+008	(-1.10860361622158e+001dB,-1.09930916701174e+002°)
5.59730000000000e+008	(-1.11080622409193e+001dB,-1.13930624879717e+002°)
5.79720000000000e+008	(-1.11298126211746e+001dB,-1.17915867818804e+002°)
5.99710000000000e+008	(-1.11509726191519e+001dB,-1.21887317853037e+002°)
6.19700000000000e+008	(-1.11712577232724e+001dB,-1.25845877523844e+002°)
6.39690000000000e+008	(-1.11904120579897e+001dB,-1.29792644135472e+002°)
6.59680000000000e+008	(-1.12082077790500e+001dB,-1.33728887438494e+002°)
6.79670000000000e+008	(-1.12244455112362e+001dB,-1.37656033038236e+002°)
6.99660000000000e+008	(-1.12389555992318e+001dB,-1.41575646820545e+002°)
7.19650000000000e+008	(-1.12515998508254e+001dB,-1.45489417884378e+002°)
7.39640000000000e+008	(-1.12622734808869e+001dB,-1.49399138955652e+002°)
7.59630000000000e+008	(-1.12709070403209e+001dB,-1.53306684177950e+002°)
7.79620000000000e+008	(-1.12774682132855e+001dB,-1.57213984800163e+002°)
7.99610000000000e+008	(-1.12819635244707e+001dB,-1.61123003960347e+002°)
8.19600000000000e+008	(-1.12844404101533e+001dB,-1.65035713156089e+002°)
8.39590000000000e+008	(-1.12849917325190e+001dB,-1.68954077014819e+002°)
8.59580000000000e+008	(-1.12837749137028e+001dB,-1.72880067141697e+002°)
8.79570000000000e+008	(-1.12811846461862e+001dB,-1.76815276004456e+002°)
8.99560000000000e+008	(-1.12769093936963e+001dB,1.79245069762263e+002°)
9.19550000000000e+008	(-1.12707176219981e+001dB,1.75287906932634e+002°)
9.39540000000000e+008	(-1.12639301636672e+001dB,1.71316419808297e+002°)
9.59530000000000e+008	(-1.12565474749038e+001dB,1.67330935651579e+002°)
9.79520000000000e+008	(-1.12488120676824e+001dB,1.63330566682387e+002°)
9.99510000000000e+008	(-1.12410378646663e+001dB,1.59314767339433e+002°)
1.01950000000000e+009	(-1.12335634447558e+001dB,1.55283348941231e+002°)
1.03949000000000e+009	(-1.12267381199483e+001dB,1.51236472619387e+002°)
1.05948000000000e+009	(-1.12209135510007e+001dB,1.47174655057926e+002°)
1.07947000000000e+009	(-1.12164361406045e+001dB,1.43098778761595e+002°)
1.09946000000000e+009	(-1.12136389573624e+001dB,1.39010102923046e+002°)
1.11945000000000e+009	(-1.12128325259110e+001dB,1.34910272443693e+002°)
1.13944000000000e+009	(-1.12142938832137e+001dB,1.30801321610453e+002°)
1.15943000000000e+009	(-1.12182533937423e+001dB,1.26685666105483e+002°)
1.17942000000000e+009	(-1.12248792160081e+001dB,1.22566073187314e+002°)
1.19941000000000e+009	(-1.12342602299132e+001dB,1.18445596706106e+002°)
1.21940000000000e+009	(-1.12463896959772e+001dB,1.14327464126578e+002°)
1.23939000000000e+009	(-1.12611535385417e+001dB,1.10214910510402e+002°)
1.25938000000000e+009	(-1.12783280052735e+001dB,1.06110970948453e+002°)
1.27937000000000e+009	(-1.12975904184248e+001dB,1.02018264051747e+002°)
1.29936000000000e+009	(-1.13185433334911e+001dB,9.79388139774052e+001°)
1.31935000000000e+009	(-1.13407477516828e+001dB,9.38739550627798e+001°)
1.33934000000000e+009	(-1.13637575480551e+001dB,8.98243383865337e+001°)
1.35933000000000e+009	(-1.13871471379908e+001dB,8.57900248081687e+001°)
1.37932000000000e+009	(-1.14105276949771e+001dB,8.17706231276974e+001°)
1.39931000000000e+009	(-1.14335518810479e+001dB,7.77654271823463e+001°)
1.41930000000000e+009	(-1.14559105482339e+001dB,7.37735197617685e+001°)
1.43929000000000e+009	(-1.14773260019578e+001dB,6.97938323246075e+001°)
1.45928000000000e+009	(-1.14975455797490e+001dB,6.58251663733829e+001°)
1.47927000000000e+009	(-1.15163376341086e+001dB,6.18661903219061e+001°)
1.49926000000000e+009	(-1.15334904827270e+001dB,5.79154260508032e+001°)
1.51925000000000e+009	(-1.15488139279976e+001dB,5.39712357093860e+001°)
1.53924000000000e+009	(-1.15621425458924e+001dB,5.00318148071540e+001°)
1.55923000000000e+009	(-1.15733399140740e+001dB,4.60951939084654e+001°)
1.57922000000000e+009	(-1.15823030972049e+001dB,4.21592487453683e+001°)
1.59921000000000e+009	(-1.15889669043091e+001dB,3.82217170889498e+001°)
1.61920000000000e+009	(-1.15933076169055e+001dB,3.42802198333561e+001°)
1.63919000000000e+009	(-1.15953460451916e+001dB,3.03322829764257e+001°)
1.65918000000000e+009	(-1.15951499270288e+001dB,2.63753560197263e+001°)
1.67917000000000e+009	(-1.15928359084219e+001dB,2.24068200649818e+001°)
1.69916000000000e+009	(-1.15885717970717e+001dB,1.84239743104579e+001°)
1.71915000000000e+009	(-1.15825808935637e+001dB,1.44239801561134e+001°)
1.73914000000000e+009	(-1.15751532526371e+001dB,1.04037220004599e+001°)
1.75913000000000e+009	(-1.15666778780825e+001dB,6.35950094573620e+000°)
1.77912000000000e+009	(-1.15577401978544e+001dB,2.28639413159164e+000°)
1.79911000000000e+009	(-1.15494407208599e+001dB,-1.82295410267830e+000°)
1.81910000000000e+009	(-1.15445246833200e+001dB,-5.97927590549197e+000°)
1.83909000000000e+009	(-1.15510635550654e+001dB,-1.01825719734728e+001°)
1.85908000000000e+009	(-1.15809311401171e+001dB,-1.43057424177381e+001°)
1.87907000000000e+009	(-1.15928965507717e+001dB,-1.81774297437462e+001°)
1.89906000000000e+009	(-1.15684885825838e+001dB,-2.21797494242911e+001°)
1.91905000000000e+009	(-1.15488345090553e+001dB,-2.63432033459660e+001°)
1.93904000000000e+009	(-1.15388543165477e+001dB,-3.05632758502334e+001°)
1.95903000000000e+009	(-1.15360244756005e+001dB,-3.48083358736609e+001°)
1.97902000000000e+009	(-1.15390374504539e+001dB,-3.90697645245415e+001°)
1.99901000000000e+009	(-1.15475282729250e+001dB,-4.33437031174878e+001°)
2.01900000000000e+009	(-1.15615992206609e+001dB,-4.76266936993515e+001°)
2.03899000000000e+009	(-1.15815769148386e+001dB,-5.19143484772320e+001°)
2.05898000000000e+009	(-1.16078602027394e+001dB,-5.62006530051191e+001°)
2.07897000000000e+009	(-1.16407661844502e+001dB,-6.04774697777792e+001°)
2.09896000000000e+009	(-1.16803290263421e+001dB,-6.47343751720926e+001°)
2.11895000000000e+009	(-1.17260548575780e+001dB,-6.89592183471246e+001°)
2.13894000000000e+009	(-1.17767042000514e+001dB,-7.31397903669200e+001°)
2.15893000000000e+009	(-1.18302371888358e+001dB,-7.72665498567771e+001°)
2.17892000000000e+009	(-1.18840444083208e+001dB,-8.13355101860087e+001°)
2.19891000000000e+009	(-1.19354452047575e+001dB,-8.53497881913196e+001°)
2.21890000000000e+009	(-1.19822442998654e+001dB,-8.93187806142987e+001°)
2.23889000000000e+009	(-1.20230792957207e+001dB,-9.32553693630152e+001°)
2.25888000000000e+009	(-1.20574378090782e+001dB,-9.71726960175577e+001°)
2.27887000000000e+009	(-1.20854287985320e+001dB,-1.01081926863637e+002°)
2.29886000000000e+009	(-1.21074829180641e+001dB,-1.04991462030470e+002°)
2.31885000000000e+009	(-1.21241125737759e+001dB,-1.08907220598001e+002°)
2.33884000000000e+009	(-1.21357750467523e+001dB,-1.12833397148318e+002°)
2.35883000000000e+009	(-1.21428232754375e+001dB,-1.16773245019206e+002°)
2.37882000000000e+009	(-1.21455105472851e+001dB,-1.20729682958909e+002°)
2.39881000000000e+009	(-1.21440200279090e+001dB,-1.24705687602386e+002°)
2.41880000000000e+009	(-1.21385009119307e+001dB,-1.28704508417533e+002°)
2.43879000000000e+009	(-1.21291020604643e+001dB,-1.32729759160717e+002°)
2.45878000000000e+009	(-1.21159995690740e+001dB,-1.36785433222866e+002°)
2.47877000000000e+009	(-1.20994175015103e+001dB,-1.40875878067469e+002°)
2.49876000000000e+009	(-1.20796421412428e+001dB,-1.45005753953473e+002°)
2.51875000000000e+009	(-1.20570304049879e+001dB,-1.49179996561183e+002°)
2.53874000000000e+009	(-1.20320130700211e+001dB,-1.53403802372362e+002°)
2.55873000000000e+009	(-1.20050935536557e+001dB,-1.57682659988810e+002°)
2.57872000000000e+009	(-1.19768435127645e+001dB,-1.62022461137514e+002°)
2.59871000000000e+009	(-1.19478981110291e+001dB,-1.66429744561493e+002°)
2.61870000000000e+009	(-1.19189577465622e+001dB,-1.70912159262580e+002°)
2.63869000000000e+009	(-1.18908124467871e+001dB,-1.75479288183769e+002°)
2.65868000000000e+009	(-1.18644276090252e+001dB,1.79855944006272e+002°)
2.67867000000000e+009	(-1.18411840277416e+001dB,1.75074963199988e+002°)
2.69866000000000e+009	(-1.18234957244940e+001dB,1.70150080255968e+002°)
2.71865000000000e+009	(-1.18163225169908e+001dB,1.65040611049873e+002°)
2.73864000000000e+009	(-1.18305652701166e+001dB,1.59694420619902e+002°)
2.75863000000000e+009	(-1.18887950034709e+001dB,1.54077909784572e+002°)
2.77862000000000e+009	(-1.20261143941236e+001dB,1.48273361166402e+002°)
2.79861000000000e+009	(-1.22710277123782e+001dB,1.42541670627172e+002°)
2.81860000000000e+009	(-1.26514691635997e+001dB,1.37334000654827e+002°)
2.83859000000000e+009	(-1.30827438520259e+001dB,1.33758760397629e+002°)
2.85858000000000e+009	(-1.32876263828882e+001dB,1.31237104917793e+002°)
2.87857000000000e+009	(-1.33155953941881e+001dB,1.28099274100695e+002°)
2.89856000000000e+009	(-1.33136705487718e+001dB,1.24204322542002e+002°)
2.91855000000000e+009	(-1.33335035297569e+001dB,1.19851166227473e+002°)
2.93854000000000e+009	(-1.33851147375801e+001dB,1.15229629345679e+002°)
2.95853000000000e+009	(-1.34707510491208e+001dB,1.10425353546483e+002°)
2.97852000000000e+009	(-1.35952010181924e+001dB,1.05472894379485e+002°)
2.99851000000000e+009	(-1.37697489167669e+001dB,1.00397344204806e+002°)
3.01850000000000e+009	(-1.40141578866625e+001dB,9.52640593405364e+001°)
3.03849000000000e+009	(-1.43536863879382e+001dB,9.02577338080611e+001°)
3.05848000000000e+009	(-1.48009149247713e+001dB,8.57701129066003e+001°)
3.07847000000000e+009	(-1.53157978334240e+001dB,8.23377485544946e+001°)
3.09846000000000e+009	(-1.57842846040803e+001dB,8.02124184728734e+001°)
3.11845000000000e+009	(-1.60909249767507e+001dB,7.89280486563086e+001°)
3.13844000000000e+009	(-1.62189433416112e+001dB,7.76600096823161e+001°)
3.15843000000000e+009	(-1.62317173538648e+001dB,7.59117705740261e+001°)
3.17842000000000e+009	(-1.61956618347291e+001dB,7.36190720101487e+001°)
3.19841000000000e+009	(-1.61488861583452e+001dB,7.09040066406180e+001°)
3.21840000000000e+009	(-1.61068470157159e+001dB,6.79038087401387e+001°)
3.23839000000000e+009	(-1.60735082717379e+001dB,6.47191671485684e+001°)
3.25838000000000e+009	(-1.60482845195961e+001dB,6.14132822589006e+001°)
3.27837000000000e+009	(-1.60293138577683e+001dB,5.80221245393783e+001°)
3.29836000000000e+009	(-1.60148284428257e+001dB,5.45637161498891e+001°)
3.31835000000000e+009	(-1.60037142664020e+001dB,5.10444270113462e+001°)
3.33834000000000e+009	(-1.59957989773154e+001dB,4.74627625810369e+001°)
3.35833000000000e+009	(-1.59921605816144e+001dB,4.38113379187411e+001°)
3.37832000000000e+009	(-1.59957404274515e+001dB,4.00775940956281e+001°)
3.39831000000000e+009	(-1.60127964145221e+001dB,3.62444629107322e+001°)
3.41830000000000e+009	(-1.60563782552869e+001dB,3.22967520959765e+001°)
3.43829000000000e+009	(-1.61536864451216e+001dB,2.82584950457280e+001°)
3.45828000000000e+009	(-1.63549668430389e+001dB,2.43474152546595e+001°)
3.47827000000000e+009	(-1.67065852886083e+001dB,2.14057533421554e+001°)
3.49826000000000e+009	(-1.70536707507039e+001dB,2.10969093326159e+001°)
3.51825000000000e+009	(-1.68665562079366e+001dB,2.28440440314644e+001°)
3.53824000000000e+009	(-1.61195520482442e+001dB,2.21056655227508e+001°)
3.55823000000000e+009	(-1.53808123387579e+001dB,1.79668390532906e+001°)
3.57822000000000e+009	(-1.48557606518686e+001dB,1.22701316367430e+001°)
3.59821000000000e+009	(-1.45039626108549e+001dB,6.09389523532604e+000°)
3.61820000000000e+009	(-1.42665120054102e+001dB,-2.24376960853222e-001°)
3.63819000000000e+009	(-1.41084340321630e+001dB,-6.62270337441647e+000°)
3.65818000000000e+009	(-1.40137709386404e+001dB,-1.31171539680059e+001°)
3.67817000000000e+009	(-1.39783052490925e+001dB,-1.97386545486779e+001°)
3.69816000000000e+009	(-1.40055256470579e+001dB,-2.65151199820637e+001°)
3.71815000000000e+009	(-1.41054756917811e+001dB,-3.34668109193487e+001°)
3.73814000000000e+009	(-1.42963140208033e+001dB,-4.06008223560596e+001°)
3.75813000000000e+009	(-1.46091788568606e+001dB,-4.78872993888155e+001°)
3.77812000000000e+009	(-1.50961117080100e+001dB,-5.51732508901236e+001°)
3.79811000000000e+009	(-1.58298376948848e+001dB,-6.19306464519958e+001°)
3.81810000000000e+009	(-1.68356625007648e+001dB,-6.67925799829266e+001°)
3.83809000000000e+009	(-1.78553426230698e+001dB,-6.79339396467716e+001°)
3.85808000000000e+009	(-1.83502487542896e+001dB,-6.64689845075372e+001°)
3.87807000000000e+009	(-1.83200120272846e+001dB,-6.64606350429400e+001°)
3.89806000000000e+009	(-1.82160233891456e+001dB,-6.89474045169588e+001°)
3.91805000000000e+009	(-1.82568125373469e+001dB,-7.27162935246283e+001°)
3.93804000000000e+009	(-1.84633348015796e+001dB,-7.67700229877481e+001°)
3.95803000000000e+009	(-1.88150473736031e+001dB,-8.05746185287148e+001°)
3.97802000000000e+009	(-1.93005257252878e+001dB,-8.37566485880839e+001°)
3.99801000000000e+009	(-1.99198842358093e+001dB,-8.58121299534954e+001°)
4.01800000000000e+009	(-2.06475747252678e+001dB,-8.57653411397485e+001°)
4.03799000000000e+009	(-2.12795439705573e+001dB,-8.20012775372187e+001°)
4.05798000000000e+009	(-2.11755184236963e+001dB,-7.44409692514997e+001°)
4.07797000000000e+009	(-1.99026928822827e+001dB,-6.91694989050220e+001°)
4.09796000000000e+009	(-1.82998856246857e+001dB,-7.10717285985451e+001°)
4.11795000000000e+009	(-1.70974926683869e+001dB,-7.75188610414262e+001°)
4.13794000000000e+009	(-1.63303198828190e+001dB,-8.55389576007636e+001°)
4.15793000000000e+009	(-1.58928994006283e+001dB,-9.40171811445727e+001°)
4.17792000000000e+009	(-1.57303718634388e+001dB,-1.02444721525382e+002°)
4.19791000000000e+009	(-1.57960918226183e+001dB,-1.10344454362916e+002°)
4.21790000000000e+009	(-1.60214935616009e+001dB,-1.17367010771424e+002°)
4.23789000000000e+009	(-1.63322939834033e+001dB,-1.23410438750237e+002°)
4.25788000000000e+009	(-1.66701960567063e+001dB,-1.28566195013012e+002°)
4.27787000000000e+009	(-1.69988514482474e+001dB,-1.33005205806118e+002°)
4.29786000000000e+009	(-1.72992554389814e+001dB,-1.36900600269503e+002°)
4.31785000000000e+009	(-1.75631672873268e+001dB,-1.40396917868451e+002°)
4.33784000000000e+009	(-1.77881449097024e+001dB,-1.43605437598542e+002°)
4.35783000000000e+009	(-1.79745386390477e+001dB,-1.46609241177064e+002°)
4.37782000000000e+009	(-1.81238645238672e+001dB,-1.49470166002504e+002°)
4.39781000000000e+009	(-1.82379879176730e+001dB,-1.52234902220830e+002°)
4.41780000000000e+009	(-1.83187437616607e+001dB,-1.54939660744560e+002°)
4.43779000000000e+009	(-1.83677809661063e+001dB,-1.57613566282390e+002°)
4.45778000000000e+009	(-1.83865179792985e+001dB,-1.60281087947665e+002°)
4.47777000000000e+009	(-1.83761521694482e+001dB,-1.62963794218794e+002°)
4.49776000000000e+009	(-1.83376952311756e+001dB,-1.65681652379556e+002°)
4.51775000000000e+009	(-1.82720224060442e+001dB,-1.68454030526293e+002°)
4.53774000000000e+009	(-1.81799317040270e+001dB,-1.71300512847846e+002°)
4.55773000000000e+009	(-1.80622142621837e+001dB,-1.74241605000784e+002°)
4.57772000000000e+009	(-1.79197405540314e+001dB,-1.77299382018778e+002°)
4.59771000000000e+009	(-1.77535706559603e+001dB,1.79501888237090e+002°)
4.61770000000000e+009	(-1.75651012143283e+001dB,1.76135132869598e+002°)
4.63769000000000e+009	(-1.73562682827904e+001dB,1.72569887921572e+002°)
4.65768000000000e+009	(-1.71298353843303e+001dB,1.68771805566694e+002°)
4.67767000000000e+009	(-1.68898120903492e+001dB,1.64702432357247e+002°)
4.69766000000000e+009	(-1.66420715217151e+001dB,1.60319688176552e+002°)
4.71765000000000e+009	(-1.63952589955041e+001dB,1.55580060831155e+002°)
4.73764000000000e+009	(-1.61620635539402e+001dB,1.50444854402185e+002°)
4.75763000000000e+009	(-1.59606709454892e+001dB,1.44895442010538e+002°)
4.77762000000000e+009	(-1.58151563578473e+001dB,1.38965473306001e+002°)
4.79761000000000e+009	(-1.57508312238628e+001dB,1.32791320832414e+002°)
4.81760000000000e+009	(-1.57785930245354e+001dB,1.26635094312581e+002°)
4.83759000000000e+009	(-1.58759447123524e+001dB,1.20760933507217e+002°)
4.85758000000000e+009	(-1.60017885228925e+001dB,1.15195789299091e+002°)
4.87757000000000e+009	(-1.61455670717652e+001dB,1.09769732724410e+002°)
4.89756000000000e+009	(-1.63332831434013e+001dB,1.04478517405646e+002°)
4.91755000000000e+009	(-1.65740410926434e+001dB,9.96568812296018e+001°)
4.93754000000000e+009	(-1.67973320497795e+001dB,9.57106946574643e+001°)
4.95753000000000e+009	(-1.68616853443377e+001dB,9.23267232395354e+001°)
4.97752000000000e+009	(-1.67437776812613e+001dB,8.82190016762772e+001°)
4.99751000000000e+009	(-1.66153213041219e+001dB,8.26928813145045e+001°)
5.01750000000000e+009	(-1.66220053895435e+001dB,7.62495961943155e+001°)
5.03749000000000e+009	(-1.67927252333212e+001dB,6.96398473228176e+001°)
5.05748000000000e+009	(-1.70943589595228e+001dB,6.33571985182618e+001°)
5.07747000000000e+009	(-1.74792938679898e+001dB,5.76181347902803e+001°)
5.09746000000000e+009	(-1.79067712407140e+001dB,5.24589331671872e+001°)
5.11745000000000e+009	(-1.83484859334614e+001dB,4.78296509816431e+001°)
5.13744000000000e+009	(-1.87869362873080e+001dB,4.36534718100986e+001°)
5.15743000000000e+009	(-1.92120330023180e+001dB,3.98544872101158e+001°)
5.17742000000000e+009	(-1.96182494088458e+001dB,3.63671846857159e+001°)
5.19741000000000e+009	(-2.00027260515470e+001dB,3.31378422452781e+001°)
5.21740000000000e+009	(-2.03641261286373e+001dB,3.01231212629303e+001°)
5.23739000000000e+009	(-2.07019712787816e+001dB,2.72880662028605e+001°)
5.25738000000000e+009	(-2.10162606204034e+001dB,2.46042718200222e+001°)
5.27737000000000e+009	(-2.13072517291929e+001dB,2.20484019301159e+001°)
5.29736000000000e+009	(-2.15753336152562e+001dB,1.96010466703055e+001°)
5.31735000000000e+009	(-2.18209523035767e+001dB,1.72458539630514e+001°)
5.33734000000000e+009	(-2.20445668772787e+001dB,1.49688693506464e+001°)
5.35733000000000e+009	(-2.22466234316225e+001dB,1.27580302879883e+001°)
5.37732000000000e+009	(-2.24275397181750e+001dB,1.06027740761013e+001°)
5.39731000000000e+009	(-2.25876962533221e+001dB,8.49372945176218e+000°)
5.41730000000000e+009	(-2.27274313738522e+001dB,6.42246998699411e+000°)
5.43729000000000e+009	(-2.28470387157128e+001dB,4.38131332376510e+000°)
5.45728000000000e+009	(-2.29467661820992e+001dB,2.36315443213701e+000°)
5.47727000000000e+009	(-2.30268158261700e+001dB,3.61324010126338e-001°)
5.49726000000000e+009	(-2.30873442988418e+001dB,-1.63053480269369e+000°)
