Freq.	mag(V(n_3p))
Step Information: Rs=10  (Run: 1/10)
2.00000000000000e+007	(-7.99161990904909e+000dB,0.00000000000000e+000°)
3.99900000000000e+007	(-7.99640186178562e+000dB,0.00000000000000e+000°)
5.99800000000000e+007	(-7.99854467251983e+000dB,0.00000000000000e+000°)
7.99700000000000e+007	(-8.00014262148060e+000dB,0.00000000000000e+000°)
9.99600000000000e+007	(-8.00156563587027e+000dB,0.00000000000000e+000°)
1.19950000000000e+008	(-8.00268686718068e+000dB,0.00000000000000e+000°)
1.39940000000000e+008	(-8.00319688492742e+000dB,0.00000000000000e+000°)
1.59930000000000e+008	(-8.00274415490745e+000dB,0.00000000000000e+000°)
1.79920000000000e+008	(-8.00101757860770e+000dB,0.00000000000000e+000°)
1.99910000000000e+008	(-7.99779495306616e+000dB,0.00000000000000e+000°)
2.19900000000000e+008	(-7.99296415723147e+000dB,0.00000000000000e+000°)
2.39890000000000e+008	(-7.98652199356359e+000dB,0.00000000000000e+000°)
2.59880000000000e+008	(-7.97855722816457e+000dB,0.00000000000000e+000°)
2.79870000000000e+008	(-7.96922550404367e+000dB,0.00000000000000e+000°)
2.99860000000000e+008	(-7.95872311268607e+000dB,0.00000000000000e+000°)
3.19850000000000e+008	(-7.94726445661091e+000dB,0.00000000000000e+000°)
3.39840000000000e+008	(-7.93506547861771e+000dB,0.00000000000000e+000°)
3.59830000000000e+008	(-7.92233326136394e+000dB,0.00000000000000e+000°)
3.79820000000000e+008	(-7.90926077808904e+000dB,0.00000000000000e+000°)
3.99810000000000e+008	(-7.89602532768253e+000dB,0.00000000000000e+000°)
4.19800000000000e+008	(-7.88278924637105e+000dB,0.00000000000000e+000°)
4.39790000000000e+008	(-7.86970178433552e+000dB,0.00000000000000e+000°)
4.59780000000000e+008	(-7.85690138251049e+000dB,0.00000000000000e+000°)
4.79770000000000e+008	(-7.84451788679371e+000dB,0.00000000000000e+000°)
4.99760000000000e+008	(-7.83267446194429e+000dB,0.00000000000000e+000°)
5.19750000000000e+008	(-7.82148911814163e+000dB,0.00000000000000e+000°)
5.39740000000000e+008	(-7.81107585576823e+000dB,0.00000000000000e+000°)
5.59730000000000e+008	(-7.80154548684443e+000dB,0.00000000000000e+000°)
5.79720000000000e+008	(-7.79300622037300e+000dB,0.00000000000000e+000°)
5.99710000000000e+008	(-7.78556411546330e+000dB,0.00000000000000e+000°)
6.19700000000000e+008	(-7.77932351896979e+000dB,0.00000000000000e+000°)
6.39690000000000e+008	(-7.77438761961323e+000dB,0.00000000000000e+000°)
6.59680000000000e+008	(-7.77085927299517e+000dB,0.00000000000000e+000°)
6.79670000000000e+008	(-7.76884228587634e+000dB,0.00000000000000e+000°)
6.99660000000000e+008	(-7.76844339785407e+000dB,0.00000000000000e+000°)
7.19650000000000e+008	(-7.76977526824926e+000dB,0.00000000000000e+000°)
7.39640000000000e+008	(-7.77296086817542e+000dB,0.00000000000000e+000°)
7.59630000000000e+008	(-7.77813978957171e+000dB,0.00000000000000e+000°)
7.79620000000000e+008	(-7.78547709677354e+000dB,0.00000000000000e+000°)
7.99610000000000e+008	(-7.79517540872777e+000dB,0.00000000000000e+000°)
8.19600000000000e+008	(-7.80749077982717e+000dB,0.00000000000000e+000°)
8.39590000000000e+008	(-7.82275235398356e+000dB,0.00000000000000e+000°)
8.59580000000000e+008	(-7.84138411613711e+000dB,0.00000000000000e+000°)
8.79570000000000e+008	(-7.86392331657321e+000dB,0.00000000000000e+000°)
8.99560000000000e+008	(-7.89102279098427e+000dB,0.00000000000000e+000°)
9.19550000000000e+008	(-7.92341227877376e+000dB,0.00000000000000e+000°)
9.39540000000000e+008	(-7.96177926928277e+000dB,0.00000000000000e+000°)
9.59530000000000e+008	(-8.00652590522031e+000dB,0.00000000000000e+000°)
9.79520000000000e+008	(-8.05739658399681e+000dB,0.00000000000000e+000°)
9.99510000000000e+008	(-8.11308747875371e+000dB,0.00000000000000e+000°)
1.01950000000000e+009	(-8.17111320372499e+000dB,0.00000000000000e+000°)
1.03949000000000e+009	(-8.22823041814647e+000dB,0.00000000000000e+000°)
1.05948000000000e+009	(-8.28139150236952e+000dB,0.00000000000000e+000°)
1.07947000000000e+009	(-8.32870704691374e+000dB,0.00000000000000e+000°)
1.09946000000000e+009	(-8.36981653387366e+000dB,0.00000000000000e+000°)
1.11945000000000e+009	(-8.40556167805747e+000dB,0.00000000000000e+000°)
1.13944000000000e+009	(-8.43734506648476e+000dB,0.00000000000000e+000°)
1.15943000000000e+009	(-8.46658584749968e+000dB,0.00000000000000e+000°)
1.17942000000000e+009	(-8.49443136328176e+000dB,0.00000000000000e+000°)
1.19941000000000e+009	(-8.52168134038097e+000dB,0.00000000000000e+000°)
1.21940000000000e+009	(-8.54882479212104e+000dB,0.00000000000000e+000°)
1.23939000000000e+009	(-8.57611380378157e+000dB,0.00000000000000e+000°)
1.25938000000000e+009	(-8.60363566658080e+000dB,0.00000000000000e+000°)
1.27937000000000e+009	(-8.63137000281314e+000dB,0.00000000000000e+000°)
1.29936000000000e+009	(-8.65922962575101e+000dB,0.00000000000000e+000°)
1.31935000000000e+009	(-8.68708812041565e+000dB,0.00000000000000e+000°)
1.33934000000000e+009	(-8.71479779761883e+000dB,0.00000000000000e+000°)
1.35933000000000e+009	(-8.74220109184532e+000dB,0.00000000000000e+000°)
1.37932000000000e+009	(-8.76913765331948e+000dB,0.00000000000000e+000°)
1.39931000000000e+009	(-8.79544867512353e+000dB,0.00000000000000e+000°)
1.41930000000000e+009	(-8.82097947133832e+000dB,0.00000000000000e+000°)
1.43929000000000e+009	(-8.84558096138970e+000dB,0.00000000000000e+000°)
1.45928000000000e+009	(-8.86911047746344e+000dB,0.00000000000000e+000°)
1.47927000000000e+009	(-8.89143215798013e+000dB,0.00000000000000e+000°)
1.49926000000000e+009	(-8.91241709210257e+000dB,0.00000000000000e+000°)
1.51925000000000e+009	(-8.93194331831105e+000dB,0.00000000000000e+000°)
1.53924000000000e+009	(-8.94989574114541e+000dB,0.00000000000000e+000°)
1.55923000000000e+009	(-8.96616600581595e+000dB,0.00000000000000e+000°)
1.57922000000000e+009	(-8.98065235514291e+000dB,0.00000000000000e+000°)
1.59921000000000e+009	(-8.99325948377215e+000dB,0.00000000000000e+000°)
1.61920000000000e+009	(-9.00389839869122e+000dB,0.00000000000000e+000°)
1.63919000000000e+009	(-9.01248629136485e+000dB,0.00000000000000e+000°)
1.65918000000000e+009	(-9.01894642446228e+000dB,0.00000000000000e+000°)
1.67917000000000e+009	(-9.02320803461985e+000dB,0.00000000000000e+000°)
1.69916000000000e+009	(-9.02520625160297e+000dB,0.00000000000000e+000°)
1.71915000000000e+009	(-9.02488203336929e+000dB,0.00000000000000e+000°)
1.73914000000000e+009	(-9.02218211572627e+000dB,0.00000000000000e+000°)
1.75913000000000e+009	(-9.01705897437016e+000dB,0.00000000000000e+000°)
1.77912000000000e+009	(-9.00947079599279e+000dB,0.00000000000000e+000°)
1.79911000000000e+009	(-8.99938145369701e+000dB,0.00000000000000e+000°)
1.81910000000000e+009	(-8.98676048004775e+000dB,0.00000000000000e+000°)
1.83909000000000e+009	(-8.97158302850912e+000dB,0.00000000000000e+000°)
1.85908000000000e+009	(-8.95382981057111e+000dB,0.00000000000000e+000°)
1.87907000000000e+009	(-8.93348699128744e+000dB,0.00000000000000e+000°)
1.89906000000000e+009	(-8.91054601996841e+000dB,0.00000000000000e+000°)
1.91905000000000e+009	(-8.88500336524596e+000dB,0.00000000000000e+000°)
1.93904000000000e+009	(-8.85686011493937e+000dB,0.00000000000000e+000°)
1.95903000000000e+009	(-8.82612139270020e+000dB,0.00000000000000e+000°)
1.97902000000000e+009	(-8.79279554046720e+000dB,0.00000000000000e+000°)
1.99901000000000e+009	(-8.75689303293654e+000dB,0.00000000000000e+000°)
2.01900000000000e+009	(-8.71842516730190e+000dB,0.00000000000000e+000°)
2.03899000000000e+009	(-8.67740281652486e+000dB,0.00000000000000e+000°)
2.05898000000000e+009	(-8.63383624839509e+000dB,0.00000000000000e+000°)
2.07897000000000e+009	(-8.58773906959820e+000dB,0.00000000000000e+000°)
2.09896000000000e+009	(-8.53914544011601e+000dB,0.00000000000000e+000°)
2.11895000000000e+009	(-8.48816868136151e+000dB,0.00000000000000e+000°)
2.13894000000000e+009	(-8.43519299182130e+000dB,0.00000000000000e+000°)
2.15893000000000e+009	(-8.38152078122171e+000dB,0.00000000000000e+000°)
2.17892000000000e+009	(-8.33167146985295e+000dB,0.00000000000000e+000°)
2.19891000000000e+009	(-8.30106903660023e+000dB,0.00000000000000e+000°)
2.21890000000000e+009	(-8.32587175881112e+000dB,0.00000000000000e+000°)
2.23889000000000e+009	(-8.42329289006513e+000dB,0.00000000000000e+000°)
2.25888000000000e+009	(-8.50611245202895e+000dB,0.00000000000000e+000°)
2.27887000000000e+009	(-8.41374874538725e+000dB,0.00000000000000e+000°)
2.29886000000000e+009	(-8.28818114416682e+000dB,0.00000000000000e+000°)
2.31885000000000e+009	(-8.18608735822054e+000dB,0.00000000000000e+000°)
2.33884000000000e+009	(-8.10247351622687e+000dB,0.00000000000000e+000°)
2.35883000000000e+009	(-8.03050158991253e+000dB,0.00000000000000e+000°)
2.37882000000000e+009	(-7.96634760658054e+000dB,0.00000000000000e+000°)
2.39881000000000e+009	(-7.90805491604114e+000dB,0.00000000000000e+000°)
2.41880000000000e+009	(-7.85465922209957e+000dB,0.00000000000000e+000°)
2.43879000000000e+009	(-7.80573226242490e+000dB,0.00000000000000e+000°)
2.45878000000000e+009	(-7.76114760348928e+000dB,0.00000000000000e+000°)
2.47877000000000e+009	(-7.72095503877822e+000dB,0.00000000000000e+000°)
2.49876000000000e+009	(-7.68530909805764e+000dB,0.00000000000000e+000°)
2.51875000000000e+009	(-7.65442562073068e+000dB,0.00000000000000e+000°)
2.53874000000000e+009	(-7.62855355536538e+000dB,0.00000000000000e+000°)
2.55873000000000e+009	(-7.60795544060399e+000dB,0.00000000000000e+000°)
2.57872000000000e+009	(-7.59289315266222e+000dB,0.00000000000000e+000°)
2.59871000000000e+009	(-7.58361714126608e+000dB,0.00000000000000e+000°)
2.61870000000000e+009	(-7.58035828275278e+000dB,0.00000000000000e+000°)
2.63869000000000e+009	(-7.58332202107670e+000dB,0.00000000000000e+000°)
2.65868000000000e+009	(-7.59268483029465e+000dB,0.00000000000000e+000°)
2.67867000000000e+009	(-7.60859332098592e+000dB,0.00000000000000e+000°)
2.69866000000000e+009	(-7.63116660036621e+000dB,0.00000000000000e+000°)
2.71865000000000e+009	(-7.66050284754283e+000dB,0.00000000000000e+000°)
2.73864000000000e+009	(-7.69669155977209e+000dB,0.00000000000000e+000°)
2.75863000000000e+009	(-7.73983367202656e+000dB,0.00000000000000e+000°)
2.77862000000000e+009	(-7.79007291393161e+000dB,0.00000000000000e+000°)
2.79861000000000e+009	(-7.84764359293083e+000dB,0.00000000000000e+000°)
2.81860000000000e+009	(-7.91294284853770e+000dB,0.00000000000000e+000°)
2.83859000000000e+009	(-7.98663982070652e+000dB,0.00000000000000e+000°)
2.85858000000000e+009	(-8.06984070477549e+000dB,0.00000000000000e+000°)
2.87857000000000e+009	(-8.16433760706281e+000dB,0.00000000000000e+000°)
2.89856000000000e+009	(-8.27297905903962e+000dB,0.00000000000000e+000°)
2.91855000000000e+009	(-8.40020372952798e+000dB,0.00000000000000e+000°)
2.93854000000000e+009	(-8.55275208789956e+000dB,0.00000000000000e+000°)
2.95853000000000e+009	(-8.74044721958206e+000dB,0.00000000000000e+000°)
2.97852000000000e+009	(-8.97656737848097e+000dB,0.00000000000000e+000°)
2.99851000000000e+009	(-9.27649859472691e+000dB,0.00000000000000e+000°)
3.01850000000000e+009	(-9.65213454916749e+000dB,0.00000000000000e+000°)
3.03849000000000e+009	(-1.00996300032307e+001dB,0.00000000000000e+000°)
3.05848000000000e+009	(-1.05843739638029e+001dB,0.00000000000000e+000°)
3.07847000000000e+009	(-1.10403054633420e+001dB,0.00000000000000e+000°)
3.09846000000000e+009	(-1.13997912227533e+001dB,0.00000000000000e+000°)
3.11845000000000e+009	(-1.16337852237897e+001dB,0.00000000000000e+000°)
3.13844000000000e+009	(-1.17599111059510e+001dB,0.00000000000000e+000°)
3.15843000000000e+009	(-1.18174022403218e+001dB,0.00000000000000e+000°)
3.17842000000000e+009	(-1.18421270444891e+001dB,0.00000000000000e+000°)
3.19841000000000e+009	(-1.18575749020319e+001dB,0.00000000000000e+000°)
3.21840000000000e+009	(-1.18762321133929e+001dB,0.00000000000000e+000°)
3.23839000000000e+009	(-1.19035365498635e+001dB,0.00000000000000e+000°)
3.25838000000000e+009	(-1.19410951401217e+001dB,0.00000000000000e+000°)
3.27837000000000e+009	(-1.19886640890808e+001dB,0.00000000000000e+000°)
3.29836000000000e+009	(-1.20452217979938e+001dB,0.00000000000000e+000°)
3.31835000000000e+009	(-1.21095065723896e+001dB,0.00000000000000e+000°)
3.33834000000000e+009	(-1.21802678953080e+001dB,0.00000000000000e+000°)
3.35833000000000e+009	(-1.22563727377912e+001dB,0.00000000000000e+000°)
3.37832000000000e+009	(-1.23368417564100e+001dB,0.00000000000000e+000°)
3.39831000000000e+009	(-1.24208534894883e+001dB,0.00000000000000e+000°)
3.41830000000000e+009	(-1.25077354649986e+001dB,0.00000000000000e+000°)
3.43829000000000e+009	(-1.25969513840918e+001dB,0.00000000000000e+000°)
3.45828000000000e+009	(-1.26880886986249e+001dB,0.00000000000000e+000°)
3.47827000000000e+009	(-1.27808485607145e+001dB,0.00000000000000e+000°)
3.49826000000000e+009	(-1.28750390612468e+001dB,0.00000000000000e+000°)
3.51825000000000e+009	(-1.29705722809300e+001dB,0.00000000000000e+000°)
3.53824000000000e+009	(-1.30674656623387e+001dB,0.00000000000000e+000°)
3.55823000000000e+009	(-1.31658484631322e+001dB,0.00000000000000e+000°)
3.57822000000000e+009	(-1.32659745771662e+001dB,0.00000000000000e+000°)
3.59821000000000e+009	(-1.33682439379541e+001dB,0.00000000000000e+000°)
3.61820000000000e+009	(-1.34732363541628e+001dB,0.00000000000000e+000°)
3.63819000000000e+009	(-1.35817646227229e+001dB,0.00000000000000e+000°)
3.65818000000000e+009	(-1.36949595127453e+001dB,0.00000000000000e+000°)
3.67817000000000e+009	(-1.38144107465483e+001dB,0.00000000000000e+000°)
3.69816000000000e+009	(-1.39424122098489e+001dB,0.00000000000000e+000°)
3.71815000000000e+009	(-1.40824117565898e+001dB,0.00000000000000e+000°)
3.73814000000000e+009	(-1.42398812818869e+001dB,0.00000000000000e+000°)
3.75813000000000e+009	(-1.44240774770804e+001dB,0.00000000000000e+000°)
3.77812000000000e+009	(-1.46516942935619e+001dB,0.00000000000000e+000°)
3.79811000000000e+009	(-1.49542568360008e+001dB,0.00000000000000e+000°)
3.81810000000000e+009	(-1.53906266586363e+001dB,0.00000000000000e+000°)
3.83809000000000e+009	(-1.60496547204222e+001dB,0.00000000000000e+000°)
3.85808000000000e+009	(-1.69082015997509e+001dB,0.00000000000000e+000°)
3.87807000000000e+009	(-1.70900694151423e+001dB,0.00000000000000e+000°)
3.89806000000000e+009	(-1.52565253761317e+001dB,0.00000000000000e+000°)
3.91805000000000e+009	(-1.30326732815604e+001dB,0.00000000000000e+000°)
3.93804000000000e+009	(-1.18015913981482e+001dB,0.00000000000000e+000°)
3.95803000000000e+009	(-1.13532306593951e+001dB,0.00000000000000e+000°)
3.97802000000000e+009	(-1.12818364163485e+001dB,0.00000000000000e+000°)
3.99801000000000e+009	(-1.13581804314385e+001dB,0.00000000000000e+000°)
4.01800000000000e+009	(-1.14800270470517e+001dB,0.00000000000000e+000°)
4.03799000000000e+009	(-1.16056291949539e+001dB,0.00000000000000e+000°)
4.05798000000000e+009	(-1.17192061704336e+001dB,0.00000000000000e+000°)
4.07797000000000e+009	(-1.18157429497392e+001dB,0.00000000000000e+000°)
4.09796000000000e+009	(-1.18945534578992e+001dB,0.00000000000000e+000°)
4.11795000000000e+009	(-1.19565752985008e+001dB,0.00000000000000e+000°)
4.13794000000000e+009	(-1.20032413948247e+001dB,0.00000000000000e+000°)
4.15793000000000e+009	(-1.20360225284314e+001dB,0.00000000000000e+000°)
4.17792000000000e+009	(-1.20562566231132e+001dB,0.00000000000000e+000°)
4.19791000000000e+009	(-1.20650995460328e+001dB,0.00000000000000e+000°)
4.21790000000000e+009	(-1.20635255513407e+001dB,0.00000000000000e+000°)
4.23789000000000e+009	(-1.20523460393181e+001dB,0.00000000000000e+000°)
4.25788000000000e+009	(-1.20322331859174e+001dB,0.00000000000000e+000°)
4.27787000000000e+009	(-1.20037429483127e+001dB,0.00000000000000e+000°)
4.29786000000000e+009	(-1.19673354752363e+001dB,0.00000000000000e+000°)
4.31785000000000e+009	(-1.19233924767705e+001dB,0.00000000000000e+000°)
4.33784000000000e+009	(-1.18722317302598e+001dB,0.00000000000000e+000°)
4.35783000000000e+009	(-1.18141191159079e+001dB,0.00000000000000e+000°)
4.37782000000000e+009	(-1.17492786167560e+001dB,0.00000000000000e+000°)
4.39781000000000e+009	(-1.16779006883238e+001dB,0.00000000000000e+000°)
4.41780000000000e+009	(-1.16001493508394e+001dB,0.00000000000000e+000°)
4.43779000000000e+009	(-1.15161683023201e+001dB,0.00000000000000e+000°)
4.45778000000000e+009	(-1.14260863020031e+001dB,0.00000000000000e+000°)
4.47777000000000e+009	(-1.13300220332797e+001dB,0.00000000000000e+000°)
4.49776000000000e+009	(-1.12280886234538e+001dB,0.00000000000000e+000°)
4.51775000000000e+009	(-1.11203979734714e+001dB,0.00000000000000e+000°)
4.53774000000000e+009	(-1.10070650331420e+001dB,0.00000000000000e+000°)
4.55773000000000e+009	(-1.08882121452157e+001dB,0.00000000000000e+000°)
4.57772000000000e+009	(-1.07639735740498e+001dB,0.00000000000000e+000°)
4.59771000000000e+009	(-1.06345003307472e+001dB,0.00000000000000e+000°)
4.61770000000000e+009	(-1.04999654059973e+001dB,0.00000000000000e+000°)
4.63769000000000e+009	(-1.03605695240467e+001dB,0.00000000000000e+000°)
4.65768000000000e+009	(-1.02165475361873e+001dB,0.00000000000000e+000°)
4.67767000000000e+009	(-1.00681755801783e+001dB,0.00000000000000e+000°)
4.69766000000000e+009	(-9.91577914404590e+000dB,0.00000000000000e+000°)
4.71765000000000e+009	(-9.75974219073010e+000dB,0.00000000000000e+000°)
4.73764000000000e+009	(-9.60051752778946e+000dB,0.00000000000000e+000°)
4.75763000000000e+009	(-9.43863865051942e+000dB,0.00000000000000e+000°)
4.77762000000000e+009	(-9.27473335884908e+000dB,0.00000000000000e+000°)
4.79761000000000e+009	(-9.10953956755551e+000dB,0.00000000000000e+000°)
4.81760000000000e+009	(-8.94392392733699e+000dB,0.00000000000000e+000°)
4.83759000000000e+009	(-8.77890420205194e+000dB,0.00000000000000e+000°)
4.85758000000000e+009	(-8.61567688475548e+000dB,0.00000000000000e+000°)
4.87757000000000e+009	(-8.45565240293779e+000dB,0.00000000000000e+000°)
4.89756000000000e+009	(-8.30050163510495e+000dB,0.00000000000000e+000°)
4.91755000000000e+009	(-8.15221956199941e+000dB,0.00000000000000e+000°)
4.93754000000000e+009	(-8.01321493520801e+000dB,0.00000000000000e+000°)
4.95753000000000e+009	(-7.88643890359605e+000dB,0.00000000000000e+000°)
4.97752000000000e+009	(-7.77556986359954e+000dB,0.00000000000000e+000°)
4.99751000000000e+009	(-7.68527334249668e+000dB,0.00000000000000e+000°)
5.01750000000000e+009	(-7.62154537896438e+000dB,0.00000000000000e+000°)
5.03749000000000e+009	(-7.59210261038488e+000dB,0.00000000000000e+000°)
5.05748000000000e+009	(-7.60665270353980e+000dB,0.00000000000000e+000°)
5.07747000000000e+009	(-7.67658516862775e+000dB,0.00000000000000e+000°)
5.09746000000000e+009	(-7.81312523884766e+000dB,0.00000000000000e+000°)
5.11745000000000e+009	(-8.02260513787518e+000dB,0.00000000000000e+000°)
5.13744000000000e+009	(-8.29850256490781e+000dB,0.00000000000000e+000°)
5.15743000000000e+009	(-8.61415812955087e+000dB,0.00000000000000e+000°)
5.17742000000000e+009	(-8.92556770873085e+000dB,0.00000000000000e+000°)
5.19741000000000e+009	(-9.18962414806051e+000dB,0.00000000000000e+000°)
5.21740000000000e+009	(-9.38556098504491e+000dB,0.00000000000000e+000°)
5.23739000000000e+009	(-9.52008809931248e+000dB,0.00000000000000e+000°)
5.25738000000000e+009	(-9.61529784715175e+000dB,0.00000000000000e+000°)
5.27737000000000e+009	(-9.69429437715665e+000dB,0.00000000000000e+000°)
5.29736000000000e+009	(-9.77400528870776e+000dB,0.00000000000000e+000°)
5.31735000000000e+009	(-9.86434846357401e+000dB,0.00000000000000e+000°)
5.33734000000000e+009	(-9.96998083579833e+000dB,0.00000000000000e+000°)
5.35733000000000e+009	(-1.00922908813099e+001dB,0.00000000000000e+000°)
5.37732000000000e+009	(-1.02308779130214e+001dB,0.00000000000000e+000°)
5.39731000000000e+009	(-1.03844855460823e+001dB,0.00000000000000e+000°)
5.41730000000000e+009	(-1.05515450935468e+001dB,0.00000000000000e+000°)
5.43729000000000e+009	(-1.07304789511432e+001dB,0.00000000000000e+000°)
5.45728000000000e+009	(-1.09198684069166e+001dB,0.00000000000000e+000°)
5.47727000000000e+009	(-1.11185513992028e+001dB,0.00000000000000e+000°)
5.49726000000000e+009	(-1.13256910185407e+001dB,0.00000000000000e+000°)
5.51725000000000e+009	(-1.15408425165412e+001dB,0.00000000000000e+000°)
5.53724000000000e+009	(-1.17640419612323e+001dB,0.00000000000000e+000°)
