Freq.	V(n_3p)
2.00000000000000e+007	(-1.08323549928771e+001dB,-4.68487307610517e+000°)
3.99900000000000e+007	(-1.08530345672211e+001dB,-9.22601148544011e+000°)
5.99800000000000e+007	(-1.08689943576794e+001dB,-1.37240567359495e+001°)
7.99700000000000e+007	(-1.08830386202461e+001dB,-1.82064962147173e+001°)
9.99600000000000e+007	(-1.08962118076254e+001dB,-2.26775301209585e+001°)
1.19950000000000e+008	(-1.09087811053800e+001dB,-2.71392609858389e+001°)
1.39940000000000e+008	(-1.09208578028548e+001dB,-3.15934170361943e+001°)
1.59930000000000e+008	(-1.09325013497057e+001dB,-3.60411838760726e+001°)
1.79920000000000e+008	(-1.09436959576272e+001dB,-4.04832969534184e+001°)
1.99910000000000e+008	(-1.09543113070161e+001dB,-4.49203774853274e+001°)
2.19900000000000e+008	(-1.09640448040089e+001dB,-4.93534650757845e+001°)
2.39890000000000e+008	(-1.09722676600973e+001dB,-5.37855048462120e+001°)
2.59880000000000e+008	(-1.09780001871100e+001dB,-5.82292720355665e+001°)
2.79870000000000e+008	(-1.09853165494177e+001dB,-6.27169625159591e+001°)
2.99860000000000e+008	(-1.10012646399939e+001dB,-6.71888051967217e+001°)
3.19850000000000e+008	(-1.10154002036159e+001dB,-7.16293168243805e+001°)
3.39840000000000e+008	(-1.10282363530233e+001dB,-7.60745848085189e+001°)
3.59830000000000e+008	(-1.10418976255649e+001dB,-8.05263886095324e+001°)
3.79820000000000e+008	(-1.10572461742675e+001dB,-8.49802798034811e+001°)
3.99810000000000e+008	(-1.10745632645471e+001dB,-8.94314603450943e+001°)
4.19800000000000e+008	(-1.10938042616936e+001dB,-9.38756074431003e+001°)
4.39790000000000e+008	(-1.11147146374530e+001dB,-9.83092193961603e+001°)
4.59780000000000e+008	(-1.11369163043551e+001dB,-1.02729775009608e+002°)
4.79770000000000e+008	(-1.11599763833339e+001dB,-1.07135713873862e+002°)
4.99760000000000e+008	(-1.11834546172974e+001dB,-1.11526298927538e+002°)
5.19750000000000e+008	(-1.12069300169038e+001dB,-1.15901442657759e+002°)
5.39740000000000e+008	(-1.12300124707137e+001dB,-1.20261553885704e+002°)
5.59730000000000e+008	(-1.12523462158836e+001dB,-1.24607426495604e+002°)
5.79720000000000e+008	(-1.12736103616097e+001dB,-1.28940166940591e+002°)
5.99710000000000e+008	(-1.12935192818060e+001dB,-1.33261147799733e+002°)
6.19700000000000e+008	(-1.13118238945862e+001dB,-1.37571974695994e+002°)
6.39690000000000e+008	(-1.13283138646433e+001dB,-1.41874457522853e+002°)
6.59680000000000e+008	(-1.13428203813810e+001dB,-1.46170580698218e+002°)
6.79670000000000e+008	(-1.13552191021055e+001dB,-1.50462469817503e+002°)
6.99660000000000e+008	(-1.13654329110210e+001dB,-1.54752353434666e+002°)
7.19650000000000e+008	(-1.13734342132716e+001dB,-1.59042518684504e+002°)
7.39640000000000e+008	(-1.13792463987481e+001dB,-1.63335257026530e+002°)
7.59630000000000e+008	(-1.13829429944931e+001dB,-1.67632786660444e+002°)
7.79620000000000e+008	(-1.13846333549796e+001dB,-1.71937110202900e+002°)
7.99610000000000e+008	(-1.13843510844245e+001dB,-1.76250070660787e+002°)
8.19600000000000e+008	(-1.13822588296122e+001dB,1.79423579029704e+002°)
8.39590000000000e+008	(-1.13791614695360e+001dB,1.75083179905993e+002°)
8.59580000000000e+008	(-1.13751705288484e+001dB,1.70729418088100e+002°)
8.79570000000000e+008	(-1.13704716109843e+001dB,1.66360520399999e+002°)
8.99560000000000e+008	(-1.13654455673635e+001dB,1.61975279412800e+002°)
9.19550000000000e+008	(-1.13605006686136e+001dB,1.57573138473992e+002°)
9.39540000000000e+008	(-1.13560550085296e+001dB,1.53154009020022e+002°)
9.59530000000000e+008	(-1.13525309219680e+001dB,1.48718246855225e+002°)
9.79520000000000e+008	(-1.13503477564250e+001dB,1.44266661702168e+002°)
9.99510000000000e+008	(-1.13499130172300e+001dB,1.39800533454622e+002°)
1.01950000000000e+009	(-1.13516117785341e+001dB,1.35321629835613e+002°)
1.03949000000000e+009	(-1.13557936154934e+001dB,1.30832222535416e+002°)
1.05948000000000e+009	(-1.13627558946757e+001dB,1.26335095075705e+002°)
1.07947000000000e+009	(-1.13727223720084e+001dB,1.21833527789125e+002°)
1.09946000000000e+009	(-1.13858172090761e+001dB,1.17331235636518e+002°)
1.11945000000000e+009	(-1.14020371766764e+001dB,1.12832228885852e+002°)
1.13944000000000e+009	(-1.14212286495960e+001dB,1.08340574724549e+002°)
1.15943000000000e+009	(-1.14430791403197e+001dB,1.03860068169678e+002°)
1.17942000000000e+009	(-1.14671323763485e+001dB,9.93938688351576e+001°)
1.19941000000000e+009	(-1.14928291006168e+001dB,9.49442006311686e+001°)
1.21940000000000e+009	(-1.15195649728642e+001dB,9.05122091517308e+001°)
1.23939000000000e+009	(-1.15467488057690e+001dB,8.60980141353699e+001°)
1.25938000000000e+009	(-1.15738449084819e+001dB,8.17009135424920e+001°)
1.27937000000000e+009	(-1.16003920934426e+001dB,7.73196439593775e+001°)
1.29936000000000e+009	(-1.16260024673210e+001dB,7.29526060433761e+001°)
1.31935000000000e+009	(-1.16503491749134e+001dB,6.85980069429310e+001°)
1.33934000000000e+009	(-1.16731522985804e+001dB,6.42539184123757e+001°)
1.35933000000000e+009	(-1.16941686457096e+001dB,5.99182763711612e+001°)
1.37932000000000e+009	(-1.17131873234669e+001dB,5.55888527167039e+001°)
1.39931000000000e+009	(-1.17300304821980e+001dB,5.12632224915407e+001°)
1.41930000000000e+009	(-1.17445575883207e+001dB,4.69387384396947e+001°)
1.43929000000000e+009	(-1.17566715668416e+001dB,4.26125155579776e+001°)
1.45928000000000e+009	(-1.17663256071453e+001dB,3.82814214708336e+001°)
1.47927000000000e+009	(-1.17735300593171e+001dB,3.39420631824689e+001°)
1.49926000000000e+009	(-1.17783596398132e+001dB,2.95907548453207e+001°)
1.51925000000000e+009	(-1.17809624065136e+001dB,2.52234415623418e+001°)
1.53924000000000e+009	(-1.17815745284280e+001dB,2.08355358392318e+001°)
1.55923000000000e+009	(-1.17805511958806e+001dB,1.64215865391611e+001°)
1.57922000000000e+009	(-1.17784413646972e+001dB,1.19746273157335e+001°)
1.59921000000000e+009	(-1.17761861285679e+001dB,7.48492236813168e+000°)
1.61920000000000e+009	(-1.17756908986732e+001dB,2.93773674035790e+000°)
1.63919000000000e+009	(-1.17816065954685e+001dB,-1.68899624013963e+000°)
1.65918000000000e+009	(-1.18068039506771e+001dB,-6.41242448099207e+000°)
1.67917000000000e+009	(-1.18803044418804e+001dB,-1.11173594368919e+001°)
1.69916000000000e+009	(-1.19905441836191e+001dB,-1.52718095517346e+001°)
1.71915000000000e+009	(-1.19966177895347e+001dB,-1.89869751148774e+001°)
1.73914000000000e+009	(-1.19387828264884e+001dB,-2.32116753360504e+001°)
1.75913000000000e+009	(-1.19015737767932e+001dB,-2.77553152211268e+001°)
1.77912000000000e+009	(-1.18859814013068e+001dB,-3.23919074379302e+001°)
1.79911000000000e+009	(-1.18845845734597e+001dB,-3.70588296725622e+001°)
1.81910000000000e+009	(-1.18934104259252e+001dB,-4.17400070590395e+001°)
1.83909000000000e+009	(-1.19107324375341e+001dB,-4.64303588358178e+001°)
1.85908000000000e+009	(-1.19359979714603e+001dB,-5.11269666214012e+001°)
1.87907000000000e+009	(-1.19693248383322e+001dB,-5.58263253992745e+001°)
1.89906000000000e+009	(-1.20112439346972e+001dB,-6.05227836946073e+001°)
1.91905000000000e+009	(-1.20624690484198e+001dB,-6.52070352766577e+001°)
1.93904000000000e+009	(-1.21235427121832e+001dB,-6.98647628406727e+001°)
1.95903000000000e+009	(-1.21942823600655e+001dB,-7.44764131278865e+001°)
1.97902000000000e+009	(-1.22731286082785e+001dB,-7.90196524681120e+001°)
1.99901000000000e+009	(-1.23567668895500e+001dB,-8.34753192817159e+001°)
2.01900000000000e+009	(-1.24404937079006e+001dB,-8.78349514318212e+001°)
2.03899000000000e+009	(-1.25193928118132e+001dB,-9.21052018726102e+001°)
2.05898000000000e+009	(-1.25896875256566e+001dB,-9.63056373647795e+001°)
2.07897000000000e+009	(-1.26494463331875e+001dB,-1.00461519705165e+002°)
2.09896000000000e+009	(-1.26984040674249e+001dB,-1.04596577363115e+002°)
2.11895000000000e+009	(-1.27373002650895e+001dB,-1.08729244568383e+002°)
2.13894000000000e+009	(-1.27672356142331e+001dB,-1.12872409653533e+002°)
2.15893000000000e+009	(-1.27892816486087e+001dB,-1.17034973774577e+002°)
2.17892000000000e+009	(-1.28043370120702e+001dB,-1.21223721963998e+002°)
2.19891000000000e+009	(-1.28131374363374e+001dB,-1.25444810780760e+002°)
2.21890000000000e+009	(-1.28163383281637e+001dB,-1.29704750178736e+002°)
2.23889000000000e+009	(-1.28146260786579e+001dB,-1.34010989946522e+002°)
2.25888000000000e+009	(-1.28088453861085e+001dB,-1.38372252679659e+002°)
2.27887000000000e+009	(-1.28001511829939e+001dB,-1.42798702420671e+002°)
2.29886000000000e+009	(-1.27902102177481e+001dB,-1.47301938143960e+002°)
2.31885000000000e+009	(-1.27814928446234e+001dB,-1.51894617107048e+002°)
2.33884000000000e+009	(-1.27777029896073e+001dB,-1.56589125628380e+002°)
2.35883000000000e+009	(-1.27843465908679e+001dB,-1.61393947653146e+002°)
2.37882000000000e+009	(-1.28091793375365e+001dB,-1.66305502364295e+002°)
2.39881000000000e+009	(-1.28616092869806e+001dB,-1.71295655679841e+002°)
2.41880000000000e+009	(-1.29506524877646e+001dB,-1.76310916067860e+002°)
2.43879000000000e+009	(-1.30908167483840e+001dB,1.78706946592225e+002°)
2.45878000000000e+009	(-1.33223175686594e+001dB,1.74041847319736e+002°)
2.47877000000000e+009	(-1.35932734151677e+001dB,1.70728130914353e+002°)
2.49876000000000e+009	(-1.36107489369329e+001dB,1.68433218355159e+002°)
2.51875000000000e+009	(-1.34162631204271e+001dB,1.65012688367315e+002°)
2.53874000000000e+009	(-1.32363086375742e+001dB,1.60408430496652e+002°)
2.55873000000000e+009	(-1.31274163231915e+001dB,1.55264376746862e+002°)
2.57872000000000e+009	(-1.30801600829190e+001dB,1.49907953399621e+002°)
2.59871000000000e+009	(-1.30809146315222e+001dB,1.44464266430561e+002°)
2.61870000000000e+009	(-1.31210259445256e+001dB,1.38980455918686e+002°)
2.63869000000000e+009	(-1.31962205915722e+001dB,1.33474286628407e+002°)
2.65868000000000e+009	(-1.33057174036445e+001dB,1.27951599071520e+002°)
2.67867000000000e+009	(-1.34522952976062e+001dB,1.22414912860166e+002°)
2.69866000000000e+009	(-1.36433362711215e+001dB,1.16874673406231e+002°)
2.71865000000000e+009	(-1.38922242345416e+001dB,1.11375381763047e+002°)
2.73864000000000e+009	(-1.42169575509678e+001dB,1.06052834658250e+002°)
2.75863000000000e+009	(-1.46262586309020e+001dB,1.01213894775545e+002°)
2.77862000000000e+009	(-1.50829533609203e+001dB,9.72927029232476e+001°)
2.79861000000000e+009	(-1.54842084009860e+001dB,9.44252631791643e+001°)
2.81860000000000e+009	(-1.57445656902172e+001dB,9.20656497032445e+001°)
2.83859000000000e+009	(-1.58841374215450e+001dB,8.95178024459297e+001°)
2.85858000000000e+009	(-1.59737921790860e+001dB,8.65485465627447e+001°)
2.87857000000000e+009	(-1.60620533065352e+001dB,8.32634472981704e+001°)
2.89856000000000e+009	(-1.61676611581273e+001dB,7.98278355709716e+001°)
2.91855000000000e+009	(-1.62949350817823e+001dB,7.63659893711052e+001°)
2.93854000000000e+009	(-1.64448702095900e+001dB,7.29614338590291e+001°)
2.95853000000000e+009	(-1.66210813974916e+001dB,6.96857145118008e+001°)
2.97852000000000e+009	(-1.68336166477479e+001dB,6.66511167059764e+001°)
2.99851000000000e+009	(-1.70977130786263e+001dB,6.41336677811562e+001°)
3.01850000000000e+009	(-1.73988220823472e+001dB,6.28204965108423e+001°)
3.03849000000000e+009	(-1.75427499329699e+001dB,6.36720217606548e+001°)
3.05848000000000e+009	(-1.71041344077186e+001dB,6.52788503702490e+001°)
3.07847000000000e+009	(-1.62353762787232e+001dB,6.33419797225076e+001°)
3.09846000000000e+009	(-1.55614048312108e+001dB,5.79888395056800e+001°)
3.11845000000000e+009	(-1.52130705829692e+001dB,5.17585128628903e+001°)
3.13844000000000e+009	(-1.50689216980092e+001dB,4.58248254265088e+001°)
3.15843000000000e+009	(-1.50234269881318e+001dB,4.04157298313557e+001°)
3.17842000000000e+009	(-1.50166225183307e+001dB,3.54677869973229e+001°)
3.19841000000000e+009	(-1.50176358642359e+001dB,3.08622656530342e+001°)
3.21840000000000e+009	(-1.50112800932279e+001dB,2.64898432883417e+001°)
3.23839000000000e+009	(-1.49905000681232e+001dB,2.22629434733325e+001°)
3.25838000000000e+009	(-1.49524360394943e+001dB,1.81137226169693e+001°)
3.27837000000000e+009	(-1.48964327713811e+001dB,1.39892542872246e+001°)
3.29836000000000e+009	(-1.48230564406632e+001dB,9.84715641179264e+000°)
3.31835000000000e+009	(-1.47336288823046e+001dB,5.65232457480367e+000°)
3.33834000000000e+009	(-1.46300287229513e+001dB,1.37470577823440e+000°)
3.35833000000000e+009	(-1.45146317460720e+001dB,-3.01209393612633e+000°)
3.37832000000000e+009	(-1.43903240583390e+001dB,-7.53154880228014e+000°)
3.39831000000000e+009	(-1.42605513367022e+001dB,-1.22044235613338e+001°)
3.41830000000000e+009	(-1.41293812008138e+001dB,-1.70485309158100e+001°)
3.43829000000000e+009	(-1.40015618108137e+001dB,-2.20780829647892e+001°)
3.45828000000000e+009	(-1.38825629905804e+001dB,-2.73026688144626e+001°)
3.47827000000000e+009	(-1.37785897352153e+001dB,-3.27258760604020e+001°)
3.49826000000000e+009	(-1.36965628151899e+001dB,-3.83435228526581e+001°)
3.51825000000000e+009	(-1.36440608057778e+001dB,-4.41413107051486e+001°)
3.53824000000000e+009	(-1.36291836441803e+001dB,-5.00913746403516e+001°)
3.55823000000000e+009	(-1.36601546137586e+001dB,-5.61468585128904e+001°)
3.57822000000000e+009	(-1.37441266614120e+001dB,-6.22345027293036e+001°)
3.59821000000000e+009	(-1.38843228383144e+001dB,-6.82507219125557e+001°)
3.61820000000000e+009	(-1.40757932560641e+001dB,-7.40778742582504e+001°)
3.63819000000000e+009	(-1.43043352869767e+001dB,-7.96329041836822e+001°)
3.65818000000000e+009	(-1.45541919446413e+001dB,-8.49085548628634e+001°)
3.67817000000000e+009	(-1.48184863937335e+001dB,-8.99420475868861e+001°)
3.69816000000000e+009	(-1.51000896982812e+001dB,-9.47375148858463e+001°)
3.71815000000000e+009	(-1.54035124197488e+001dB,-9.92092638420809e+001°)
3.73814000000000e+009	(-1.57189590582934e+001dB,-1.03145266249968e+002°)
3.75813000000000e+009	(-1.59845011516101e+001dB,-1.06301524691757e+002°)
3.77812000000000e+009	(-1.60785278452825e+001dB,-1.09059541092939e+002°)
3.79811000000000e+009	(-1.60140932821191e+001dB,-1.12691171504306e+002°)
3.81810000000000e+009	(-1.59836199717335e+001dB,-1.17503004586313e+002°)
3.83809000000000e+009	(-1.60749518125138e+001dB,-1.22710725503986e+002°)
3.85808000000000e+009	(-1.62600512709949e+001dB,-1.27750302248267e+002°)
3.87807000000000e+009	(-1.64947213600396e+001dB,-1.32446411498296e+002°)
3.89806000000000e+009	(-1.67485235634882e+001dB,-1.36796077449031e+002°)
3.91805000000000e+009	(-1.70038512680197e+001dB,-1.40846304263821e+002°)
3.93804000000000e+009	(-1.72510766363474e+001dB,-1.44649916181077e+002°)
3.95803000000000e+009	(-1.74850461124217e+001dB,-1.48252966675482e+002°)
3.97802000000000e+009	(-1.77030353958979e+001dB,-1.51692833410801e+002°)
3.99801000000000e+009	(-1.79036310003157e+001dB,-1.54999372201428e+002°)
4.01800000000000e+009	(-1.80861303007178e+001dB,-1.58196594660062e+002°)
4.03799000000000e+009	(-1.82502195634625e+001dB,-1.61304140903474e+002°)
4.05798000000000e+009	(-1.83957993711684e+001dB,-1.64338415104022e+002°)
4.07797000000000e+009	(-1.85228885551888e+001dB,-1.67313423467253e+002°)
4.09796000000000e+009	(-1.86315705125057e+001dB,-1.70241386512217e+002°)
4.11795000000000e+009	(-1.87219628633237e+001dB,-1.73133189629606e+002°)
4.13794000000000e+009	(-1.87942003001972e+001dB,-1.75998720288518e+002°)
4.15793000000000e+009	(-1.88484251520376e+001dB,-1.78847126315994e+002°)
4.17792000000000e+009	(-1.88847826778605e+001dB,1.78312980805918e+002°)
4.19791000000000e+009	(-1.89034194610390e+001dB,1.75473361058490e+002°)
4.21790000000000e+009	(-1.89044840332023e+001dB,1.72626007919343e+002°)
4.23789000000000e+009	(-1.88881292977154e+001dB,1.69763029276183e+002°)
4.25788000000000e+009	(-1.88545165937096e+001dB,1.66876541589929e+002°)
4.27787000000000e+009	(-1.88038214222678e+001dB,1.63958573394330e+002°)
4.29786000000000e+009	(-1.87362409899419e+001dB,1.61000975519785e+002°)
4.31785000000000e+009	(-1.86520038351725e+001dB,1.57995336504151e+002°)
4.33784000000000e+009	(-1.85513819031621e+001dB,1.54932902650443e+002°)
4.35783000000000e+009	(-1.84347055300058e+001dB,1.51804503234416e+002°)
4.37782000000000e+009	(-1.83023818875112e+001dB,1.48600482568913e+002°)
4.39781000000000e+009	(-1.81549175204867e+001dB,1.45310642110877e+002°)
4.41780000000000e+009	(-1.79929456656363e+001dB,1.41924197667431e+002°)
4.43779000000000e+009	(-1.78172590534263e+001dB,1.38429759132155e+002°)
4.45778000000000e+009	(-1.76288488268433e+001dB,1.34815343151633e+002°)
4.47777000000000e+009	(-1.74289500141124e+001dB,1.31068432715389e+002°)
4.49776000000000e+009	(-1.72190936006517e+001dB,1.27176101783395e+002°)
4.51775000000000e+009	(-1.70011645829611e+001dB,1.23125227397038e+002°)
4.53774000000000e+009	(-1.67774643864378e+001dB,1.18902815609593e+002°)
4.55773000000000e+009	(-1.65507746744618e+001dB,1.14496469963367e+002°)
4.57772000000000e+009	(-1.63244179828743e+001dB,1.09895030813111e+002°)
4.59771000000000e+009	(-1.61023091466161e+001dB,1.05089409712982e+002°)
4.61770000000000e+009	(-1.58889908653747e+001dB,1.00073637124535e+002°)
4.63769000000000e+009	(-1.56896479552379e+001dB,9.48461430956718e+001°)
4.65768000000000e+009	(-1.55100981221313e+001dB,8.94113251829743e+001°)
4.67767000000000e+009	(-1.53567584837993e+001dB,8.37815814184371e+001°)
4.69766000000000e+009	(-1.52365677747358e+001dB,7.79802862293451e+001°)
4.71765000000000e+009	(-1.51567444575875e+001dB,7.20466886287659e+001°)
4.73764000000000e+009	(-1.51239414189313e+001dB,6.60438211985066e+001°)
4.75763000000000e+009	(-1.51417086564985e+001dB,6.00670952219327e+001°)
4.77762000000000e+009	(-1.52051736168096e+001dB,5.42371059681364e+001°)
4.79761000000000e+009	(-1.52965206337668e+001dB,4.86447196362823e+001°)
4.81760000000000e+009	(-1.53920484905549e+001dB,4.32717909803746e+001°)
4.83759000000000e+009	(-1.54783513195088e+001dB,3.79942142210985e+001°)
4.85758000000000e+009	(-1.55620773285510e+001dB,3.26698176015789e+001°)
4.87757000000000e+009	(-1.56643966705942e+001dB,2.72654439117102e+001°)
4.89756000000000e+009	(-1.57987108121387e+001dB,2.18706567939137e+001°)
4.91755000000000e+009	(-1.59638529274850e+001dB,1.65850839663441e+001°)
4.93754000000000e+009	(-1.61522623649930e+001dB,1.14657900047817e+001°)
4.95753000000000e+009	(-1.63558439236114e+001dB,6.53467869334691e+000°)
4.97752000000000e+009	(-1.65677669122419e+001dB,1.79393147750327e+000°)
4.99751000000000e+009	(-1.67826552382933e+001dB,-2.76411872138965e+000°)
5.01750000000000e+009	(-1.69963717698507e+001dB,-7.15171403315507e+000°)
5.03749000000000e+009	(-1.72057565791911e+001dB,-1.13829362659378e+001°)
5.05748000000000e+009	(-1.74084032351430e+001dB,-1.54722879516861e+001°)
5.07747000000000e+009	(-1.76024835165155e+001dB,-1.94339628537848e+001°)
5.09746000000000e+009	(-1.77866136194820e+001dB,-2.32814851146899e+001°)
5.11745000000000e+009	(-1.79597525377665e+001dB,-2.70275489058119e+001°)
5.13744000000000e+009	(-1.81211245834378e+001dB,-3.06839683777772e+001°)
5.15743000000000e+009	(-1.82701598954683e+001dB,-3.42616885114219e+001°)
5.17742000000000e+009	(-1.84064484220179e+001dB,-3.77708292528368e+001°)
5.19741000000000e+009	(-1.85297041064092e+001dB,-4.12207471613620e+001°)
5.21740000000000e+009	(-1.86397369009090e+001dB,-4.46201053853761e+001°)
5.23739000000000e+009	(-1.87364308633110e+001dB,-4.79769465438997e+001°)
5.25738000000000e+009	(-1.88197270371089e+001dB,-5.12987653084765e+001°)
5.27737000000000e+009	(-1.88896101352033e+001dB,-5.45925788233776e+001°)
5.29736000000000e+009	(-1.89460982799077e+001dB,-5.78649939346255e+001°)
5.31735000000000e+009	(-1.89892352253331e+001dB,-6.11222707190786e+001°)
5.33734000000000e+009	(-1.90190846196891e+001dB,-6.43703821279722e+001°)
5.35733000000000e+009	(-1.90357259663172e+001dB,-6.76150697528920e+001°)
5.37732000000000e+009	(-1.90392520212231e+001dB,-7.08618958286373e+001°)
5.39731000000000e+009	(-1.90297674268392e+001dB,-7.41162916344829e+001°)
5.41730000000000e+009	(-1.90073884304660e+001dB,-7.73836024619534e+001°)
5.43729000000000e+009	(-1.89722435739385e+001dB,-8.06691292973928e+001°)
5.45728000000000e+009	(-1.89244752704877e+001dB,-8.39781673327249e+001°)
5.47727000000000e+009	(-1.88642422070467e+001dB,-8.73160413785071e+001°)
5.49726000000000e+009	(-1.87917225268853e+001dB,-9.06881382208011e+001°)
