Freq.	V(n_3p)
2.00000000000000e+007	(-1.08265053632755e+001dB,-4.01739070507923e+000°)
3.99900000000000e+007	(-1.08477392373273e+001dB,-7.88132212628640e+000°)
5.99800000000000e+007	(-1.08643706729004e+001dB,-1.16951792188950e+001°)
7.99700000000000e+007	(-1.08777185916012e+001dB,-1.54932795826273e+001°)
9.99600000000000e+007	(-1.08897284752478e+001dB,-1.92854125551791e+001°)
1.19950000000000e+008	(-1.09013855034461e+001dB,-2.30717303134498e+001°)
1.39940000000000e+008	(-1.09129291318572e+001dB,-2.68507689550289e+001°)
1.59930000000000e+008	(-1.09242414009496e+001dB,-3.06219041471343e+001°)
1.79920000000000e+008	(-1.09351025363219e+001dB,-3.43857304602647e+001°)
1.99910000000000e+008	(-1.09453302870729e+001dB,-3.81437785590604e+001°)
2.19900000000000e+008	(-1.09548429266564e+001dB,-4.18980679412593e+001°)
2.39890000000000e+008	(-1.09636741616390e+001dB,-4.56506826342534e+001°)
2.59880000000000e+008	(-1.09719594607688e+001dB,-4.94034444283762e+001°)
2.79870000000000e+008	(-1.09799080578883e+001dB,-5.31577047475750e+001°)
2.99860000000000e+008	(-1.09877706727362e+001dB,-5.69142454370734e+001°)
3.19850000000000e+008	(-1.09958090385070e+001dB,-6.06732634785481e+001°)
3.39840000000000e+008	(-1.10042699699032e+001dB,-6.44344123429023e+001°)
3.59830000000000e+008	(-1.10133644822492e+001dB,-6.81968790837260e+001°)
3.79820000000000e+008	(-1.10232516076106e+001dB,-7.19594858150592e+001°)
3.99810000000000e+008	(-1.10340268712702e+001dB,-7.57208115372442e+001°)
4.19800000000000e+008	(-1.10457163267246e+001dB,-7.94793312993265e+001°)
4.39790000000000e+008	(-1.10582777010400e+001dB,-8.32335631467403e+001°)
4.59780000000000e+008	(-1.10716096376937e+001dB,-8.69822027225437e+001°)
4.79770000000000e+008	(-1.10855679381190e+001dB,-9.07242191315614e+001°)
4.99760000000000e+008	(-1.10999850346424e+001dB,-9.44588920099150e+001°)
5.19750000000000e+008	(-1.11146874982080e+001dB,-9.81857888681153e+001°)
5.39740000000000e+008	(-1.11295074256416e+001dB,-1.01904703184049e+002°)
5.59730000000000e+008	(-1.11442864906745e+001dB,-1.05615584158976e+002°)
5.79720000000000e+008	(-1.11588743884439e+001dB,-1.09318483795115e+002°)
5.99710000000000e+008	(-1.11731248053325e+001dB,-1.13013532369243e+002°)
6.19700000000000e+008	(-1.11868917239205e+001dB,-1.16700939532304e+002°)
6.39690000000000e+008	(-1.12000276520345e+001dB,-1.20381011032630e+002°)
6.59680000000000e+008	(-1.12123841503793e+001dB,-1.24054170409550e+002°)
6.79670000000000e+008	(-1.12238142764830e+001dB,-1.27720977928319e+002°)
6.99660000000000e+008	(-1.12341762823183e+001dB,-1.31382142652455e+002°)
7.19650000000000e+008	(-1.12433379265040e+001dB,-1.35038526365022e+002°)
7.39640000000000e+008	(-1.12511809133319e+001dB,-1.38691139713586e+002°)
7.59630000000000e+008	(-1.12576051400457e+001dB,-1.42341131691390e+002°)
7.79620000000000e+008	(-1.12625325742038e+001dB,-1.45989773733515e+002°)
7.99610000000000e+008	(-1.12659106872986e+001dB,-1.49638439581734e+002°)
8.19600000000000e+008	(-1.12677154517754e+001dB,-1.53288581813571e+002°)
8.39590000000000e+008	(-1.12679539917109e+001dB,-1.56941705571526e+002°)
8.59580000000000e+008	(-1.12666671093989e+001dB,-1.60599339419861e+002°)
8.79570000000000e+008	(-1.12639321956930e+001dB,-1.64263001780220e+002°)
8.99560000000000e+008	(-1.12598677448883e+001dB,-1.67934156660082e+002°)
9.19550000000000e+008	(-1.12546425586769e+001dB,-1.71614133830130e+002°)
9.39540000000000e+008	(-1.12484966894797e+001dB,-1.75303900665629e+002°)
9.59530000000000e+008	(-1.12417662218121e+001dB,-1.79003078428653e+002°)
9.79520000000000e+008	(-1.12343652999435e+001dB,1.77294062274024e+002°)
9.99510000000000e+008	(-1.12231572528656e+001dB,1.73578763596783e+002°)
1.01950000000000e+009	(-1.12128594477721e+001dB,1.69825164460332e+002°)
1.03949000000000e+009	(-1.12043681409250e+001dB,1.66061417981489e+002°)
1.05948000000000e+009	(-1.11964704901732e+001dB,1.62286370135042e+002°)
1.07947000000000e+009	(-1.11893067444676e+001dB,1.58497827592007e+002°)
1.09946000000000e+009	(-1.11831992754724e+001dB,1.54695292477858e+002°)
1.11945000000000e+009	(-1.11784873059875e+001dB,1.50879035881893e+002°)
1.13944000000000e+009	(-1.11755059132398e+001dB,1.47049795471137e+002°)
1.15943000000000e+009	(-1.11745809012868e+001dB,1.43208682376033e+002°)
1.17942000000000e+009	(-1.11760252054548e+001dB,1.39357153346492e+002°)
1.19941000000000e+009	(-1.11801349098475e+001dB,1.35497008770619e+002°)
1.21940000000000e+009	(-1.11871842155473e+001dB,1.31630405746098e+002°)
1.23939000000000e+009	(-1.11974184189142e+001dB,1.27759882899698e+002°)
1.25938000000000e+009	(-1.12110434184645e+001dB,1.23888393313890e+002°)
1.27937000000000e+009	(-1.12282098237133e+001dB,1.20019336360816e+002°)
1.29936000000000e+009	(-1.12489898282100e+001dB,1.16156568824681e+002°)
1.31935000000000e+009	(-1.12733463155098e+001dB,1.12304362032446e+002°)
1.33934000000000e+009	(-1.13010969318214e+001dB,1.08467260703091e+002°)
1.35933000000000e+009	(-1.13318811805719e+001dB,1.04649802908633e+002°)
1.37932000000000e+009	(-1.13651442667070e+001dB,1.00856093749289e+002°)
1.39931000000000e+009	(-1.14001532768387e+001dB,9.70892926617040e+001°)
1.41930000000000e+009	(-1.14360544723817e+001dB,9.33511517858772e+001°)
1.43929000000000e+009	(-1.14719643637100e+001dB,8.96417762399716e+001°)
1.45928000000000e+009	(-1.15070695244790e+001dB,8.59597185967646e+001°)
1.47927000000000e+009	(-1.15407033119098e+001dB,8.23023831915358e+001°)
1.49926000000000e+009	(-1.15723780711733e+001dB,7.86665847393445e+001°)
1.51925000000000e+009	(-1.16017720889443e+001dB,7.50490650720886e+001°)
1.53924000000000e+009	(-1.16286876276089e+001dB,7.14468330196258e+001°)
1.55923000000000e+009	(-1.16530013177255e+001dB,6.78572957409653e+001°)
1.57922000000000e+009	(-1.16746227047272e+001dB,6.42782283712628e+001°)
1.59921000000000e+009	(-1.16934677268266e+001dB,6.07076567390695e+001°)
1.61920000000000e+009	(-1.17094468172971e+001dB,5.71437173820333e+001°)
1.63919000000000e+009	(-1.17224638939573e+001dB,5.35845339801185e+001°)
1.65918000000000e+009	(-1.17324219237742e+001dB,5.00281263386867e+001°)
1.67917000000000e+009	(-1.17392315938064e+001dB,4.64723532412668e+001°)
1.69916000000000e+009	(-1.17428208150641e+001dB,4.29148832974264e+001°)
1.71915000000000e+009	(-1.17431438175996e+001dB,3.93531855819021e+001°)
1.73914000000000e+009	(-1.17401893291843e+001dB,3.57845317957968e+001°)
1.75913000000000e+009	(-1.17339878197720e+001dB,3.22060020683479e+001°)
1.77912000000000e+009	(-1.17246181697531e+001dB,2.86144861510712e+001°)
1.79911000000000e+009	(-1.17122145698256e+001dB,2.50066695565042e+001°)
1.81910000000000e+009	(-1.16969753135353e+001dB,2.13789885703158e+001°)
1.83909000000000e+009	(-1.16791771561567e+001dB,1.77275259184713e+001°)
1.85908000000000e+009	(-1.16592041507655e+001dB,1.40477938822506e+001°)
1.87907000000000e+009	(-1.16376146556476e+001dB,1.03343024955350e+001°)
1.89906000000000e+009	(-1.16153158874944e+001dB,6.57973122480185e+000°)
1.91905000000000e+009	(-1.15940705214580e+001dB,2.77355108655905e+000°)
1.93904000000000e+009	(-1.15781133959924e+001dB,-1.09833738923416e+000°)
1.95903000000000e+009	(-1.15790515327463e+001dB,-5.03380090649058e+000°)
1.97902000000000e+009	(-1.16161544800180e+001dB,-8.86052689971641e+000°)
1.99901000000000e+009	(-1.16350957177445e+001dB,-1.22250723466247e+001°)
2.01900000000000e+009	(-1.15734632843375e+001dB,-1.57333804072644e+001°)
2.03899000000000e+009	(-1.15149294889195e+001dB,-1.96044520938505e+001°)
2.05898000000000e+009	(-1.14763501719606e+001dB,-2.35902619544750e+001°)
2.07897000000000e+009	(-1.14505008355002e+001dB,-2.76149963879241e+001°)
2.09896000000000e+009	(-1.14334267760490e+001dB,-3.16641843730488e+001°)
2.11895000000000e+009	(-1.14236412935617e+001dB,-3.57347676966587e+001°)
2.13894000000000e+009	(-1.14207494373812e+001dB,-3.98252295781316e+001°)
2.15893000000000e+009	(-1.14248517976560e+001dB,-4.39337092105835e+001°)
2.17892000000000e+009	(-1.14363028380160e+001dB,-4.80576352300665e+001°)
2.19891000000000e+009	(-1.14556131578292e+001dB,-5.21935866028931e+001°)
2.21890000000000e+009	(-1.14834091573692e+001dB,-5.63370739303638e+001°)
2.23889000000000e+009	(-1.15204063650256e+001dB,-6.04821415886753e+001°)
2.25888000000000e+009	(-1.15673623255726e+001dB,-6.46207633439807e+001°)
2.27887000000000e+009	(-1.16249723441598e+001dB,-6.87420963325770e+001°)
2.29886000000000e+009	(-1.16936705808442e+001dB,-7.28318312517867e+001°)
2.31885000000000e+009	(-1.17733182995309e+001dB,-7.68721320506259e+001°)
2.33884000000000e+009	(-1.18628216496056e+001dB,-8.08428697075972e+001°)
2.35883000000000e+009	(-1.19598240531914e+001dB,-8.47247037265958e+001°)
2.37882000000000e+009	(-1.20607028239845e+001dB,-8.85037081174386e+001°)
2.39881000000000e+009	(-1.21610446629484e+001dB,-9.21758614460302e+001°)
2.41880000000000e+009	(-1.22565195354704e+001dB,-9.57489523238189e+001°)
2.43879000000000e+009	(-1.23437768975569e+001dB,-9.92405053747100e+001°)
2.45878000000000e+009	(-1.24209414692723e+001dB,-1.02672740835981e+002°)
2.47877000000000e+009	(-1.24875563795411e+001dB,-1.06067218813515e+002°)
2.49876000000000e+009	(-1.25441483721779e+001dB,-1.09441371874237e+002°)
2.51875000000000e+009	(-1.25917090583404e+001dB,-1.12807476748103e+002°)
2.53874000000000e+009	(-1.26312959683751e+001dB,-1.16173345347733e+002°)
2.55873000000000e+009	(-1.26638120491838e+001dB,-1.19543717884677e+002°)
2.57872000000000e+009	(-1.26899309059036e+001dB,-1.22921647835313e+002°)
2.59871000000000e+009	(-1.27101098714015e+001dB,-1.26309572731249e+002°)
2.61870000000000e+009	(-1.27246434740581e+001dB,-1.29710030622516e+002°)
2.63869000000000e+009	(-1.27337290380304e+001dB,-1.33126096525613e+002°)
2.65868000000000e+009	(-1.27375318770639e+001dB,-1.36561636792595e+002°)
2.67867000000000e+009	(-1.27362476768842e+001dB,-1.40021465710388e+002°)
2.69866000000000e+009	(-1.27301659135898e+001dB,-1.43511466771852e+002°)
2.71865000000000e+009	(-1.27197430332280e+001dB,-1.47038721291453e+002°)
2.73864000000000e+009	(-1.27057001911729e+001dB,-1.50611668205609e+002°)
2.75863000000000e+009	(-1.26891706800098e+001dB,-1.54240289002766e+002°)
2.77862000000000e+009	(-1.26719411575464e+001dB,-1.57936236600250e+002°)
2.79861000000000e+009	(-1.26568640543030e+001dB,-1.61712612609797e+002°)
2.81860000000000e+009	(-1.26485649930348e+001dB,-1.65582493623039e+002°)
2.83859000000000e+009	(-1.26545735677572e+001dB,-1.69553759095974e+002°)
2.85858000000000e+009	(-1.26866867426361e+001dB,-1.73614950521782e+002°)
2.87857000000000e+009	(-1.27612886726979e+001dB,-1.77708599357261e+002°)
2.89856000000000e+009	(-1.29007586498397e+001dB,1.78292689866360e+002°)
2.91855000000000e+009	(-1.31523016141927e+001dB,1.74825261851246e+002°)
2.93854000000000e+009	(-1.34079155925481e+001dB,1.73423146521461e+002°)
2.95853000000000e+009	(-1.32228809395828e+001dB,1.72793348526871e+002°)
2.97852000000000e+009	(-1.28464376991576e+001dB,1.69998570882416e+002°)
2.99851000000000e+009	(-1.25615798829771e+001dB,1.65916126263454e+002°)
3.01850000000000e+009	(-1.23719713015872e+001dB,1.61438783519781e+002°)
3.03849000000000e+009	(-1.22434517461962e+001dB,1.56852711412772e+002°)
3.05848000000000e+009	(-1.21544041549417e+001dB,1.52230511167397e+002°)
3.07847000000000e+009	(-1.20935330627230e+001dB,1.47586083731710e+002°)
3.09846000000000e+009	(-1.20552064703341e+001dB,1.42918673770869e+002°)
3.11845000000000e+009	(-1.20368248009899e+001dB,1.38224893560874e+002°)
3.13844000000000e+009	(-1.20375371367240e+001dB,1.33501798209418e+002°)
3.15843000000000e+009	(-1.20576804113166e+001dB,1.28747588797924e+002°)
3.17842000000000e+009	(-1.20986226433762e+001dB,1.23962112324710e+002°)
3.19841000000000e+009	(-1.21628443793099e+001dB,1.19148271110712e+002°)
3.21840000000000e+009	(-1.22541133873533e+001dB,1.14315400011144e+002°)
3.23839000000000e+009	(-1.23774934358685e+001dB,1.09485759106653e+002°)
3.25838000000000e+009	(-1.25386565343557e+001dB,1.04704511310972e+002°)
3.27837000000000e+009	(-1.27416637888612e+001dB,1.00050005336740e+002°)
3.29836000000000e+009	(-1.29846900993921e+001dB,9.56333816273633e+001°)
3.31835000000000e+009	(-1.32552752266722e+001dB,9.15703143743488e+001°)
3.33834000000000e+009	(-1.35300507592810e+001dB,8.79226685353945e+001°)
3.35833000000000e+009	(-1.37829873096607e+001dB,8.46501080684619e+001°)
3.37832000000000e+009	(-1.39973452807736e+001dB,8.16252259408436e+001°)
3.39831000000000e+009	(-1.41708415772370e+001dB,7.87031136737446e+001°)
3.41830000000000e+009	(-1.43113678829488e+001dB,7.57806066266691e+001°)
3.43829000000000e+009	(-1.44297742956506e+001dB,7.28100273990743e+001°)
3.45828000000000e+009	(-1.45352942251553e+001dB,6.97832143147534e+001°)
3.47827000000000e+009	(-1.46342282061865e+001dB,6.67111811346972e+001°)
3.49826000000000e+009	(-1.47303417393254e+001dB,6.36105010736188e+001°)
3.51825000000000e+009	(-1.48257148902509e+001dB,6.04967083482928e+001°)
3.53824000000000e+009	(-1.49215061634689e+001dB,5.73819967006689e+001°)
3.55823000000000e+009	(-1.50185210745151e+001dB,5.42749285129851e+001°)
3.57822000000000e+009	(-1.51176413800031e+001dB,5.11808290862128e+001°)
3.59821000000000e+009	(-1.52202335918982e+001dB,4.81021941162570e+001°)
3.61820000000000e+009	(-1.53287338330260e+001dB,4.50388417595836e+001°)
3.63819000000000e+009	(-1.54478143388217e+001dB,4.19882419089633e+001°)
3.65818000000000e+009	(-1.55870473933764e+001dB,3.89493849056023e+001°)
3.67817000000000e+009	(-1.57668836162833e+001dB,3.59459772183278e+001°)
3.69816000000000e+009	(-1.60291402251117e+001dB,3.31311594330011e+001°)
3.71815000000000e+009	(-1.64340651340999e+001dB,3.11607926156904e+001°)
3.73814000000000e+009	(-1.69131458329284e+001dB,3.18733308376069e+001°)
3.75813000000000e+009	(-1.68524297117463e+001dB,3.60693356531805e+001°)
3.77812000000000e+009	(-1.59260106752314e+001dB,3.77335963685532e+001°)
3.79811000000000e+009	(-1.49979333049588e+001dB,3.43794439322556e+001°)
3.81810000000000e+009	(-1.44189259013416e+001dB,2.91528366125238e+001°)
3.83809000000000e+009	(-1.40826385266922e+001dB,2.37925650229655e+001°)
3.85808000000000e+009	(-1.38744025293194e+001dB,1.87119913893960e+001°)
3.87807000000000e+009	(-1.37297582903982e+001dB,1.39235047400774e+001°)
3.89806000000000e+009	(-1.36157022281111e+001dB,9.35433492693815e+000°)
3.91805000000000e+009	(-1.35156059743331e+001dB,4.92744976790749e+000°)
3.93804000000000e+009	(-1.34213194669020e+001dB,5.78648565240839e-001°)
3.95803000000000e+009	(-1.33292371238852e+001dB,-3.74241190881911e+000°)
3.97802000000000e+009	(-1.32383149213601e+001dB,-8.07460455499797e+000°)
3.99801000000000e+009	(-1.31490468644320e+001dB,-1.24478511532166e+001°)
4.01800000000000e+009	(-1.30629232574233e+001dB,-1.68850556852654e+001°)
4.03799000000000e+009	(-1.29821373931658e+001dB,-2.14034250492232e+001°)
4.05798000000000e+009	(-1.29094259076414e+001dB,-2.60153071293974e+001°)
4.07797000000000e+009	(-1.28479895304343e+001dB,-3.07286743551332e+001°)
4.09796000000000e+009	(-1.28014768287148e+001dB,-3.55473143039306e+001°)
4.11795000000000e+009	(-1.27740369998344e+001dB,-4.04706495901460e+001°)
4.13794000000000e+009	(-1.27704579565188e+001dB,-4.54928305525189e+001°)
4.15793000000000e+009	(-1.27963783306298e+001dB,-5.06002246576707e+001°)
4.17792000000000e+009	(-1.28584196849104e+001dB,-5.57656851621232e+001°)
4.19791000000000e+009	(-1.29636726082089e+001dB,-6.09378701300853e+001°)
4.21790000000000e+009	(-1.31172366125596e+001dB,-6.60279370503306e+001°)
4.23789000000000e+009	(-1.33165293440613e+001dB,-7.09104072006241e+001°)
4.25788000000000e+009	(-1.35452172801725e+001dB,-7.54707448135031e+001°)
4.27787000000000e+009	(-1.37769802302302e+001dB,-7.96933526484365e+001°)
4.29786000000000e+009	(-1.39924666336238e+001dB,-8.36874835656232e+001°)
4.31785000000000e+009	(-1.41908061662892e+001dB,-8.75943346218376e+001°)
4.33784000000000e+009	(-1.43832200787262e+001dB,-9.14922711557427e+001°)
4.35783000000000e+009	(-1.45816819023061e+001dB,-9.53887617863252e+001°)
4.37782000000000e+009	(-1.47941644783149e+001dB,-9.92560003090529e+001°)
4.39781000000000e+009	(-1.50252879161595e+001dB,-1.03058335979912e+002°)
4.41780000000000e+009	(-1.52785254046699e+001dB,-1.06761597783359e+002°)
4.43779000000000e+009	(-1.55584068706255e+001dB,-1.10329772221717e+002°)
4.45778000000000e+009	(-1.58726496366841e+001dB,-1.13710404487950e+002°)
4.47777000000000e+009	(-1.62341382610860e+001dB,-1.16799184851512e+002°)
4.49776000000000e+009	(-1.66600812269627e+001dB,-1.19355313916621e+002°)
4.51775000000000e+009	(-1.71533711193168e+001dB,-1.20824224482362e+002°)
4.53774000000000e+009	(-1.76145228159886e+001dB,-1.20215455276868e+002°)
4.55773000000000e+009	(-1.76822194312756e+001dB,-1.17320353267616e+002°)
4.57772000000000e+009	(-1.70818057712975e+001dB,-1.15543671382737e+002°)
4.59771000000000e+009	(-1.62961678877405e+001dB,-1.17864044603598e+002°)
4.61770000000000e+009	(-1.57723903271314e+001dB,-1.22638278163053e+002°)
4.63769000000000e+009	(-1.55151878605531e+001dB,-1.27915925260883e+002°)
4.65768000000000e+009	(-1.54231776175612e+001dB,-1.32967106743747e+002°)
4.67767000000000e+009	(-1.54228227860538e+001dB,-1.37629383540611e+002°)
4.69766000000000e+009	(-1.54701818201680e+001dB,-1.41909112072458e+002°)
4.71765000000000e+009	(-1.55389340753273e+001dB,-1.45857905836665e+002°)
4.73764000000000e+009	(-1.56131162008644e+001dB,-1.49536308613285e+002°)
4.75763000000000e+009	(-1.56831102674942e+001dB,-1.53001454514752e+002°)
4.77762000000000e+009	(-1.57432347570974e+001dB,-1.56302931183866e+002°)
4.79761000000000e+009	(-1.57902305831725e+001dB,-1.59482174109890e+002°)
4.81760000000000e+009	(-1.58223114466334e+001dB,-1.62573357591048e+002°)
4.83759000000000e+009	(-1.58385796616335e+001dB,-1.65604756410141e+002°)
4.85758000000000e+009	(-1.58386747441248e+001dB,-1.68600101383098e+002°)
4.87757000000000e+009	(-1.58225671388242e+001dB,-1.71579748962919e+002°)
4.89756000000000e+009	(-1.57904413524585e+001dB,-1.74561627278896e+002°)
4.91755000000000e+009	(-1.57426342262775e+001dB,-1.77561978411240e+002°)
4.93754000000000e+009	(-1.56796078494148e+001dB,1.79404066784668e+002°)
4.95753000000000e+009	(-1.56019451836777e+001dB,1.76322045838573e+002°)
4.97752000000000e+009	(-1.55103617399512e+001dB,1.73177825368667e+002°)
4.99751000000000e+009	(-1.54057299099095e+001dB,1.69957345401629e+002°)
5.01750000000000e+009	(-1.52891146443781e+001dB,1.66646435841899e+002°)
5.03749000000000e+009	(-1.51618206047112e+001dB,1.63230701956078e+002°)
5.05748000000000e+009	(-1.50254520328602e+001dB,1.59695484696407e+002°)
5.07747000000000e+009	(-1.48819876171860e+001dB,1.56025912798153e+002°)
5.09746000000000e+009	(-1.47338737186771e+001dB,1.52207079642881e+002°)
5.11745000000000e+009	(-1.45841404569618e+001dB,1.48224404096707e+002°)
5.13744000000000e+009	(-1.44365458718775e+001dB,1.44064280619277e+002°)
5.15743000000000e+009	(-1.42957518525612e+001dB,1.39715206950894e+002°)
5.17742000000000e+009	(-1.41675262659222e+001dB,1.35169722929142e+002°)
5.19741000000000e+009	(-1.40589343795570e+001dB,1.30427721304560e+002°)
5.21740000000000e+009	(-1.39783973815436e+001dB,1.25501944055168e+002°)
5.23739000000000e+009	(-1.39353040976967e+001dB,1.20426388014268e+002°)
5.25738000000000e+009	(-1.39385448200971e+001dB,1.15266722507054e+002°)
5.27737000000000e+009	(-1.39931587580407e+001dB,1.10126409930246e+002°)
5.29736000000000e+009	(-1.40952719843851e+001dB,1.05132903436043e+002°)
5.31735000000000e+009	(-1.42288686993866e+001dB,1.00388103662459e+002°)
5.33734000000000e+009	(-1.43708324807245e+001dB,9.59023540637731e+001°)
5.35733000000000e+009	(-1.45044693527120e+001dB,9.15802965049342e+001°)
5.37732000000000e+009	(-1.46294141998477e+001dB,8.72915553372658e+001°)
5.39731000000000e+009	(-1.47586819344337e+001dB,8.29568075854656e+001°)
5.41730000000000e+009	(-1.49093053064912e+001dB,7.85774228917635e+001°)
5.43729000000000e+009	(-1.50962604985381e+001dB,7.42224204420185e+001°)
5.45728000000000e+009	(-1.53306667851464e+001dB,7.00227883749136e+001°)
5.47727000000000e+009	(-1.56155482294203e+001dB,6.62019454184195e+001°)
5.49726000000000e+009	(-1.59252528209879e+001dB,6.31056661089811e+001°)
