Freq.	V(n_3p)
2.00000000000000e+007	(-1.08300001732644e+001dB,-4.19574681324213e+000°)
3.99900000000000e+007	(-1.08508829245546e+001dB,-8.20164839395036e+000°)
5.99800000000000e+007	(-1.08649096418402e+001dB,-1.21818432648640e+001°)
7.99700000000000e+007	(-1.08772244895803e+001dB,-1.61582137773982e+001°)
9.99600000000000e+007	(-1.08896451568130e+001dB,-2.01290659664483e+001°)
1.19950000000000e+008	(-1.09025850907454e+001dB,-2.40912259553753e+001°)
1.39940000000000e+008	(-1.09159429691176e+001dB,-2.80425300436917e+001°)
1.59930000000000e+008	(-1.09294004635965e+001dB,-3.19819169926829e+001°)
1.79920000000000e+008	(-1.09425349714631e+001dB,-3.59093426552233e+001°)
1.99910000000000e+008	(-1.09548617855427e+001dB,-3.98257361710294e+001°)
2.19900000000000e+008	(-1.09658143036074e+001dB,-4.37331146348533e+001°)
2.39890000000000e+008	(-1.09745982732905e+001dB,-4.76357066398566e+001°)
2.59880000000000e+008	(-1.09801634052067e+001dB,-5.15475760916754e+001°)
2.79870000000000e+008	(-1.09865716760405e+001dB,-5.55017040424250e+001°)
2.99860000000000e+008	(-1.10007539796898e+001dB,-5.94392151934001e+001°)
3.19850000000000e+008	(-1.10123085638410e+001dB,-6.33462172940843e+001°)
3.39840000000000e+008	(-1.10218189371536e+001dB,-6.72594616626681e+001°)
3.59830000000000e+008	(-1.10314432903598e+001dB,-7.11814737179718e+001°)
3.79820000000000e+008	(-1.10421029291700e+001dB,-7.51086540123783e+001°)
3.99810000000000e+008	(-1.10541752596187e+001dB,-7.90370077977938e+001°)
4.19800000000000e+008	(-1.10677445894522e+001dB,-8.29628449361892e+001°)
4.39790000000000e+008	(-1.10827038513085e+001dB,-8.68830507332345e+001°)
4.59780000000000e+008	(-1.10988246591939e+001dB,-9.07952463900990e+001°)
4.79770000000000e+008	(-1.11158161431573e+001dB,-9.46978229863077e+001°)
4.99760000000000e+008	(-1.11333707097036e+001dB,-9.85898589172560e+001°)
5.19750000000000e+008	(-1.11511930039647e+001dB,-1.02470968408692e+002°)
5.39740000000000e+008	(-1.11690125110806e+001dB,-1.06341140569496e+002°)
5.59730000000000e+008	(-1.11865844824411e+001dB,-1.10200612971821e+002°)
5.79720000000000e+008	(-1.12036853515994e+001dB,-1.14049795847844e+002°)
5.99710000000000e+008	(-1.12201075598745e+001dB,-1.17889240145389e+002°)
6.19700000000000e+008	(-1.12356563757138e+001dB,-1.21719632732353e+002°)
6.39690000000000e+008	(-1.12501493182906e+001dB,-1.25541802676825e+002°)
6.59680000000000e+008	(-1.12634177175318e+001dB,-1.29356727802401e+002°)
6.79670000000000e+008	(-1.12753096155563e+001dB,-1.33165536129354e+002°)
6.99660000000000e+008	(-1.12856932926255e+001dB,-1.36969500532246e+002°)
7.19650000000000e+008	(-1.12944609119752e+001dB,-1.40770026897034e+002°)
7.39640000000000e+008	(-1.13015319828308e+001dB,-1.44568636804142e+002°)
7.59630000000000e+008	(-1.13068564967624e+001dB,-1.48366945863845e+002°)
7.79620000000000e+008	(-1.13104177076432e+001dB,-1.52166638657224e+002°)
7.99610000000000e+008	(-1.13122346353934e+001dB,-1.55969440952704e+002°)
8.19600000000000e+008	(-1.13123645482163e+001dB,-1.59777089412193e+002°)
8.39590000000000e+008	(-1.13109060834160e+001dB,-1.63591297803520e+002°)
8.59580000000000e+008	(-1.13080047903821e+001dB,-1.67413714148574e+002°)
8.79570000000000e+008	(-1.13038662960111e+001dB,-1.71245841392265e+002°)
8.99560000000000e+008	(-1.12987920968456e+001dB,-1.75088766002256e+002°)
9.19550000000000e+008	(-1.12932369024184e+001dB,-1.78941628730835e+002°)
9.39540000000000e+008	(-1.12866895705671e+001dB,1.77204173982121e+002°)
9.59530000000000e+008	(-1.12763351856833e+001dB,1.73326073395227e+002°)
9.79520000000000e+008	(-1.12679836220600e+001dB,1.69418692372349e+002°)
9.99510000000000e+008	(-1.12607328035277e+001dB,1.65500086649222e+002°)
1.01950000000000e+009	(-1.12541740373085e+001dB,1.61568075887754e+002°)
1.03949000000000e+009	(-1.12485661168439e+001dB,1.57621630721436e+002°)
1.05948000000000e+009	(-1.12442546391208e+001dB,1.53660812968724e+002°)
1.07947000000000e+009	(-1.12415927471552e+001dB,1.49686284536519e+002°)
1.09946000000000e+009	(-1.12409253723262e+001dB,1.45699145961118e+002°)
1.11945000000000e+009	(-1.12425823609515e+001dB,1.41700881756706e+002°)
1.13944000000000e+009	(-1.12468729206296e+001dB,1.37693342564002e+002°)
1.15943000000000e+009	(-1.12540797868618e+001dB,1.33678744412483e+002°)
1.17942000000000e+009	(-1.12644521035123e+001dB,1.29659679428679e+002°)
1.19941000000000e+009	(-1.12781956808073e+001dB,1.25639134546586e+002°)
1.21940000000000e+009	(-1.12954588703924e+001dB,1.21620510905653e+002°)
1.23939000000000e+009	(-1.13163122574476e+001dB,1.17607627729878e+002°)
1.25938000000000e+009	(-1.13407213565930e+001dB,1.13604681911969e+002°)
1.27937000000000e+009	(-1.13685142485002e+001dB,1.09616123150553e+002°)
1.29936000000000e+009	(-1.13993508634812e+001dB,1.05646404957355e+002°)
1.31935000000000e+009	(-1.14327061010364e+001dB,1.01699598476994e+002°)
1.33934000000000e+009	(-1.14678814996610e+001dB,9.77789156644222e+001°)
1.35933000000000e+009	(-1.15040549837293e+001dB,9.38862625314697e+001°)
1.37932000000000e+009	(-1.15403638965319e+001dB,9.00219828103180e+001°)
1.39931000000000e+009	(-1.15759994263460e+001dB,8.61849081838954e+001°)
1.41930000000000e+009	(-1.16102824900225e+001dB,8.23727076977393e+001°)
1.43929000000000e+009	(-1.16426993175585e+001dB,7.85824003880454e+001°)
1.45928000000000e+009	(-1.16728940628851e+001dB,7.48108463296263e+001°)
1.47927000000000e+009	(-1.17006326552431e+001dB,7.10550814904323e+001°)
1.49926000000000e+009	(-1.17257578579169e+001dB,6.73124583278004e+001°)
1.51925000000000e+009	(-1.17481509503171e+001dB,6.35806315395501e+001°)
1.53924000000000e+009	(-1.17677070035070e+001dB,5.98574583218271e+001°)
1.55923000000000e+009	(-1.17843238299856e+001dB,5.61408745062420e+001°)
1.57922000000000e+009	(-1.17979012376494e+001dB,5.24287846772225e+001°)
1.59921000000000e+009	(-1.18083465497366e+001dB,4.87189823820155e+001°)
1.61920000000000e+009	(-1.18155831025371e+001dB,4.50091021374592e+001°)
1.63919000000000e+009	(-1.18195595599842e+001dB,4.12965977963749e+001°)
1.65918000000000e+009	(-1.18202588799709e+001dB,3.75787393506229e+001°)
1.67917000000000e+009	(-1.18177065032660e+001dB,3.38526198565925e+001°)
1.69916000000000e+009	(-1.18119778850272e+001dB,3.01151640025211e+001°)
1.71915000000000e+009	(-1.18032060375830e+001dB,2.63631284943137e+001°)
1.73914000000000e+009	(-1.17915906455207e+001dB,2.25930804099823e+001°)
1.75913000000000e+009	(-1.17774123245350e+001dB,1.88013305414402e+001°)
1.77912000000000e+009	(-1.17610608328479e+001dB,1.49837802655284e+001°)
1.79911000000000e+009	(-1.17431010214126e+001dB,1.11356081368800e+001°)
1.81910000000000e+009	(-1.17244471458979e+001dB,7.25069797549482e+000°)
1.83909000000000e+009	(-1.17068741748973e+001dB,3.32097685182217e+000°)
1.85908000000000e+009	(-1.16946037867480e+001dB,-6.61119944708727e-001°)
1.87907000000000e+009	(-1.16978850819667e+001dB,-4.67009542312186e+000°)
1.89906000000000e+009	(-1.17197676410348e+001dB,-8.51402812915209e+000°)
1.91905000000000e+009	(-1.17024583303042e+001dB,-1.21578154040955e+001°)
1.93904000000000e+009	(-1.16543165771464e+001dB,-1.60435812677940e+001°)
1.95903000000000e+009	(-1.16177733454028e+001dB,-2.01001344639435e+001°)
1.97902000000000e+009	(-1.15931960690231e+001dB,-2.42138017675078e+001°)
1.99901000000000e+009	(-1.15768727656160e+001dB,-2.83567100551068e+001°)
2.01900000000000e+009	(-1.15672179863161e+001dB,-3.25226145258605e+001°)
2.03899000000000e+009	(-1.15638096856525e+001dB,-3.67090239456022e+001°)
2.05898000000000e+009	(-1.15667415823020e+001dB,-4.09135977697088e+001°)
2.07897000000000e+009	(-1.15763467153784e+001dB,-4.51334052238185e+001°)
2.09896000000000e+009	(-1.15930813589330e+001dB,-4.93647209113358e+001°)
2.11895000000000e+009	(-1.16174719849089e+001dB,-5.36028507112882e+001°)
2.13894000000000e+009	(-1.16500795751184e+001dB,-5.78418582348818e+001°)
2.15893000000000e+009	(-1.16914514136735e+001dB,-6.20741688293528e+001°)
2.17892000000000e+009	(-1.17420333486015e+001dB,-6.62901102412892e+001°)
2.19891000000000e+009	(-1.18020188174948e+001dB,-7.04775711390098e+001°)
2.21890000000000e+009	(-1.18711276605596e+001dB,-7.46221180463556e+001°)
2.23889000000000e+009	(-1.19483497690329e+001dB,-7.87080182234094e+001°)
2.25888000000000e+009	(-1.20317527547803e+001dB,-8.27204768234230e+001°)
2.27887000000000e+009	(-1.21184996708369e+001dB,-8.66488318299048e+001°)
2.29886000000000e+009	(-1.22051822443541e+001dB,-9.04896078591298e+001°)
2.31885000000000e+009	(-1.22884168574280e+001dB,-9.42478786173352e+001°)
2.33884000000000e+009	(-1.23654684653674e+001dB,-9.79360177675545e+001°)
2.35883000000000e+009	(-1.24346287487599e+001dB,-1.01570383371230e+002°)
2.37882000000000e+009	(-1.24952292244024e+001dB,-1.05167575789225e+002°)
2.39881000000000e+009	(-1.25473778195870e+001dB,-1.08741779101279e+002°)
2.41880000000000e+009	(-1.25916045551420e+001dB,-1.12303723153943e+002°)
2.43879000000000e+009	(-1.26285642416335e+001dB,-1.15860925610403e+002°)
2.45878000000000e+009	(-1.26588543864674e+001dB,-1.19418564048004e+002°)
2.47877000000000e+009	(-1.26829391362135e+001dB,-1.22980454702338e+002°)
2.49876000000000e+009	(-1.27011441512247e+001dB,-1.26549868687518e+002°)
2.51875000000000e+009	(-1.27136887971325e+001dB,-1.30130113745637e+002°)
2.53874000000000e+009	(-1.27207332894464e+001dB,-1.33724911024187e+002°)
2.55873000000000e+009	(-1.27224295776312e+001dB,-1.37338629441576e+002°)
2.57872000000000e+009	(-1.27189728889496e+001dB,-1.40976439799617e+002°)
2.59871000000000e+009	(-1.27106564992442e+001dB,-1.44644439466108e+002°)
2.61870000000000e+009	(-1.26979371830777e+001dB,-1.48349785881534e+002°)
2.63869000000000e+009	(-1.26815251767867e+001dB,-1.52100863374082e+002°)
2.65868000000000e+009	(-1.26625235558838e+001dB,-1.55907481891246e+002°)
2.67867000000000e+009	(-1.26426628681070e+001dB,-1.59781033007174e+002°)
2.69866000000000e+009	(-1.26247155099638e+001dB,-1.63734303073494e+002°)
2.71865000000000e+009	(-1.26132345046912e+001dB,-1.67779962695348e+002°)
2.73864000000000e+009	(-1.26157926608509e+001dB,-1.71924838116007e+002°)
2.75863000000000e+009	(-1.26445755771878e+001dB,-1.76152753529762e+002°)
2.77862000000000e+009	(-1.27166161848293e+001dB,1.79614807233070e+002°)
2.79861000000000e+009	(-1.28498749852779e+001dB,1.75583464224280e+002°)
2.81860000000000e+009	(-1.30433729676045e+001dB,1.72272164380682e+002°)
2.83859000000000e+009	(-1.31368088401014e+001dB,1.70267263116410e+002°)
2.85858000000000e+009	(-1.29627004368108e+001dB,1.68065730376005e+002°)
2.87857000000000e+009	(-1.27192761713065e+001dB,1.64562636976851e+002°)
2.89856000000000e+009	(-1.25320461707299e+001dB,1.60324343670941e+002°)
2.91855000000000e+009	(-1.24032689695055e+001dB,1.55809473309304e+002°)
2.93854000000000e+009	(-1.23162861784102e+001dB,1.51188926217479e+002°)
2.95853000000000e+009	(-1.22594009226623e+001dB,1.46517394181671e+002°)
2.97852000000000e+009	(-1.22261475892635e+001dB,1.41811655898793e+002°)
2.99851000000000e+009	(-1.22133174015806e+001dB,1.37076854863787e+002°)
3.01850000000000e+009	(-1.22196563385977e+001dB,1.32315069654928e+002°)
3.03849000000000e+009	(-1.22452058571280e+001dB,1.27528359556478e+002°)
3.05848000000000e+009	(-1.22910334629685e+001dB,1.22720454452460e+002°)
3.07847000000000e+009	(-1.23591609545084e+001dB,1.17898815357011e+002°)
3.09846000000000e+009	(-1.24525044034502e+001dB,1.13078053644509e+002°)
3.11845000000000e+009	(-1.25745565975212e+001dB,1.08285162702483e+002°)
3.13844000000000e+009	(-1.27284115707805e+001dB,1.03565648944919e+002°)
3.15843000000000e+009	(-1.29147530930215e+001dB,9.89865864556726e+001°)
3.17842000000000e+009	(-1.31290459970074e+001dB,9.46288307722836e+001°)
3.19841000000000e+009	(-1.33596130867485e+001dB,9.05619837450024e+001°)
3.21840000000000e+009	(-1.35892766433390e+001dB,8.68097504375556e+001°)
3.23839000000000e+009	(-1.38011883239740e+001dB,8.33315592196366e+001°)
3.25838000000000e+009	(-1.39850833088105e+001dB,8.00401197741637e+001°)
3.27837000000000e+009	(-1.41392930048978e+001dB,7.68413167560364e+001°)
3.29836000000000e+009	(-1.42681878637722e+001dB,7.36652452985141e+001°)
3.31835000000000e+009	(-1.43782786305752e+001dB,7.04742938711080e+001°)
3.33834000000000e+009	(-1.44755512378806e+001dB,6.72557518569691e+001°)
3.35833000000000e+009	(-1.45644654241033e+001dB,6.40108446989023e+001°)
3.37832000000000e+009	(-1.46479782718405e+001dB,6.07463874433121e+001°)
3.39831000000000e+009	(-1.47279507812625e+001dB,5.74700775111955e+001°)
3.41830000000000e+009	(-1.48055959219493e+001dB,5.41884465984435e+001°)
3.43829000000000e+009	(-1.48818535842768e+001dB,5.09063297418103e+001°)
3.45828000000000e+009	(-1.49576884138153e+001dB,4.76270703786703e+001°)
3.47827000000000e+009	(-1.50343544635979e+001dB,4.43530174669781e+001°)
3.49826000000000e+009	(-1.51137132749359e+001dB,4.10860962672743e+001°)
3.51825000000000e+009	(-1.51987920769432e+001dB,3.78285461106235e+001°)
3.53824000000000e+009	(-1.52950224419048e+001dB,3.45852101672049e+001°)
3.55823000000000e+009	(-1.54130619537195e+001dB,3.13745097450044e+001°)
3.57822000000000e+009	(-1.55738553942189e+001dB,2.82763851126735e+001°)
3.59821000000000e+009	(-1.58085609386558e+001dB,2.55973005656833e+001°)
3.61820000000000e+009	(-1.61045401665890e+001dB,2.41877142455433e+001°)
3.63819000000000e+009	(-1.62225777936460e+001dB,2.49185516247237e+001°)
3.65818000000000e+009	(-1.58258105361178e+001dB,2.58227654144801e+001°)
3.67817000000000e+009	(-1.51630548036675e+001dB,2.39577615658392e+001°)
3.69816000000000e+009	(-1.46157531604489e+001dB,1.99208690919483e+001°)
3.71815000000000e+009	(-1.42427734064345e+001dB,1.51332833305134e+001°)
3.73814000000000e+009	(-1.39885243103573e+001dB,1.02352394316817e+001°)
3.75813000000000e+009	(-1.38034764019556e+001dB,5.40143572071053e+000°)
3.77812000000000e+009	(-1.36580194988767e+001dB,6.46143938025701e-001°)
3.79811000000000e+009	(-1.35361729376064e+001dB,-4.05984007625560e+000°)
3.81810000000000e+009	(-1.34298654658289e+001dB,-8.75204090386479e+000°)
3.83809000000000e+009	(-1.33355419282529e+001dB,-1.34617156147342e+001°)
3.85808000000000e+009	(-1.32522983432321e+001dB,-1.82135470497582e+001°)
3.87807000000000e+009	(-1.31808624632496e+001dB,-2.30257284416287e+001°)
3.89806000000000e+009	(-1.31230327838123e+001dB,-2.79105817568036e+001°)
3.91805000000000e+009	(-1.30813792935389e+001dB,-3.28751316231660e+001°)
3.93804000000000e+009	(-1.30591154403110e+001dB,-3.79213975270920e+001°)
3.95803000000000e+009	(-1.30601057389468e+001dB,-4.30461140322596e+001°)
3.97802000000000e+009	(-1.30889832807823e+001dB,-4.82392676311346e+001°)
3.99801000000000e+009	(-1.31512816361269e+001dB,-5.34802947388582e+001°)
4.01800000000000e+009	(-1.32532435983298e+001dB,-5.87304170920867e+001°)
4.03799000000000e+009	(-1.34004617779825e+001dB,-6.39212010183243e+001°)
4.05798000000000e+009	(-1.35940924288467e+001dB,-6.89472888731457e+001°)
4.07797000000000e+009	(-1.38249209101102e+001dB,-7.36861746726279e+001°)
4.09796000000000e+009	(-1.40710556043558e+001dB,-7.80639877676988e+001°)
4.11795000000000e+009	(-1.43074147331714e+001dB,-8.21222208807006e+001°)
4.13794000000000e+009	(-1.45213368429367e+001dB,-8.59934829789804e+001°)
4.15793000000000e+009	(-1.47167344632131e+001dB,-8.98024986968947e+001°)
4.17792000000000e+009	(-1.49052315386445e+001dB,-9.36059519570055e+001°)
4.19791000000000e+009	(-1.50973874409536e+001dB,-9.74025664910939e+001°)
4.21790000000000e+009	(-1.52999660106876e+001dB,-1.01165009566233e+002°)
4.23789000000000e+009	(-1.55169106069996e+001dB,-1.04860506727008e+002°)
4.25788000000000e+009	(-1.57512084322743e+001dB,-1.08456891506694e+002°)
4.27787000000000e+009	(-1.60066283852713e+001dB,-1.11918588101690e+002°)
4.29786000000000e+009	(-1.62892256916565e+001dB,-1.15193026636136e+002°)
4.31785000000000e+009	(-1.66082320227605e+001dB,-1.18180179570485e+002°)
4.33784000000000e+009	(-1.69735496775734e+001dB,-1.20667468521255e+002°)
4.35783000000000e+009	(-1.73783359677023e+001dB,-1.22217279706371e+002°)
4.37782000000000e+009	(-1.77372779126203e+001dB,-1.22151514051623e+002°)
4.39781000000000e+009	(-1.77986650761083e+001dB,-1.20381161423302e+002°)
4.41780000000000e+009	(-1.73488410075004e+001dB,-1.19104485305507e+002°)
4.43779000000000e+009	(-1.66553649886640e+001dB,-1.20812450510151e+002°)
4.45778000000000e+009	(-1.60996806071405e+001dB,-1.24959797628847e+002°)
4.47777000000000e+009	(-1.57681526762364e+001dB,-1.29982970820172e+002°)
4.49776000000000e+009	(-1.56022989504496e+001dB,-1.35030121532844e+002°)
4.51775000000000e+009	(-1.55368936194403e+001dB,-1.39814076041295e+002°)
4.53774000000000e+009	(-1.55268904106871e+001dB,-1.44279592518335e+002°)
4.55773000000000e+009	(-1.55437999004912e+001dB,-1.48451822972360e+002°)
4.57772000000000e+009	(-1.55699850596598e+001dB,-1.52380163778042e+002°)
4.59771000000000e+009	(-1.55946946152119e+001dB,-1.56117291545255e+002°)
4.61770000000000e+009	(-1.56115109183399e+001dB,-1.59711522780375e+002°)
4.63769000000000e+009	(-1.56167246238345e+001dB,-1.63204687031288e+002°)
4.65768000000000e+009	(-1.56083141141348e+001dB,-1.66632284682165e+002°)
4.67767000000000e+009	(-1.55853173853857e+001dB,-1.70024464957835e+002°)
4.69766000000000e+009	(-1.55474546368236e+001dB,-1.73407169356312e+002°)
4.71765000000000e+009	(-1.54949089177036e+001dB,-1.76803175953869e+002°)
4.73764000000000e+009	(-1.54282061478216e+001dB,1.79767039684251e+002°)
4.75763000000000e+009	(-1.53481583842914e+001dB,1.76284636055301e+002°)
4.77762000000000e+009	(-1.52558486570317e+001dB,1.72731913704750e+002°)
4.79761000000000e+009	(-1.51526447510923e+001dB,1.69091981044167e+002°)
4.81760000000000e+009	(-1.50402349615737e+001dB,1.65348566595874e+002°)
4.83759000000000e+009	(-1.49206824289477e+001dB,1.61485978326416e+002°)
4.85758000000000e+009	(-1.47964970254736e+001dB,1.57489227279683e+002°)
4.87757000000000e+009	(-1.46707253229186e+001dB,1.53344356925237e+002°)
4.89756000000000e+009	(-1.45470597326278e+001dB,1.49039058967462e+002°)
4.91755000000000e+009	(-1.44299659130270e+001dB,1.44563724107540e+002°)
4.93754000000000e+009	(-1.43248180623883e+001dB,1.39913190476872e+002°)
4.95753000000000e+009	(-1.42380022023439e+001dB,1.35089619429013e+002°)
4.97752000000000e+009	(-1.41768717945168e+001dB,1.30107070907942e+002°)
4.99751000000000e+009	(-1.41492817670545e+001dB,1.24998097611856e+002°)
5.01750000000000e+009	(-1.41622032162813e+001dB,1.19820988596226e+002°)
5.03749000000000e+009	(-1.42189278610519e+001dB,1.14661633534172e+002°)
5.05748000000000e+009	(-1.43154554882059e+001dB,1.09617857923328e+002°)
5.07747000000000e+009	(-1.44392753421919e+001dB,1.04758954978980e+002°)
5.09746000000000e+009	(-1.45746393664167e+001dB,1.00083774932424e+002°)
5.11745000000000e+009	(-1.47122254601546e+001dB,9.55256018135064e+001°)
5.13744000000000e+009	(-1.48540534072132e+001dB,9.10091261810699e+001°)
5.15743000000000e+009	(-1.50098117298733e+001dB,8.65032824416025e+001°)
5.17742000000000e+009	(-1.51904650820623e+001dB,8.20335630607694e+001°)
5.19741000000000e+009	(-1.54045180009706e+001dB,7.76723040596470e+001°)
5.21740000000000e+009	(-1.56562515761946e+001dB,7.35369207979971e+001°)
5.23739000000000e+009	(-1.59411749892794e+001dB,6.98045161516703e+001°)
5.25738000000000e+009	(-1.62318845754260e+001dB,6.67040631980897e+001°)
5.27737000000000e+009	(-1.64576287415808e+001dB,6.43417618655129e+001°)
5.29736000000000e+009	(-1.65319133049866e+001dB,6.22843046749214e+001°)
5.31735000000000e+009	(-1.64682492903566e+001dB,5.96489257853577e+001°)
5.33734000000000e+009	(-1.63868349684695e+001dB,5.61019230537358e+001°)
5.35733000000000e+009	(-1.63696581625484e+001dB,5.20203967758477e+001°)
5.37732000000000e+009	(-1.64236554287291e+001dB,4.78300504308636e+001°)
5.39731000000000e+009	(-1.65277932957194e+001dB,4.37499321941813e+001°)
5.41730000000000e+009	(-1.66609632453841e+001dB,3.98553530677603e+001°)
5.43729000000000e+009	(-1.68078769764914e+001dB,3.61568173922276e+001°)
5.45728000000000e+009	(-1.69583331505657e+001dB,3.26401122783068e+001°)
5.47727000000000e+009	(-1.71056703347227e+001dB,2.92832080564655e+001°)
5.49726000000000e+009	(-1.72455589319709e+001dB,2.60630355640601e+001°)
