Freq.	V(n_3p)
2.00000000000000e+007	(-1.08829120271748e+001dB,-5.22329310026714e+000°)
3.99900000000000e+007	(-1.09053072901204e+001dB,-1.02640298620524e+001°)
5.99800000000000e+007	(-1.09228522882441e+001dB,-1.52687319893218e+001°)
7.99700000000000e+007	(-1.09389149693928e+001dB,-2.02590475464983e+001°)
9.99600000000000e+007	(-1.09545927038132e+001dB,-2.52376382070519e+001°)
1.19950000000000e+008	(-1.09701503659505e+001dB,-3.02059576544107e+001°)
1.39940000000000e+008	(-1.09856871828260e+001dB,-3.51653621784052e+001°)
1.59930000000000e+008	(-1.10012500509520e+001dB,-4.01167769137937e+001°)
1.79920000000000e+008	(-1.10168137662035e+001dB,-4.50607258110483e+001°)
1.99910000000000e+008	(-1.10322443506907e+001dB,-4.99976304690350e+001°)
2.19900000000000e+008	(-1.10472437247190e+001dB,-5.49283051089272e+001°)
2.39890000000000e+008	(-1.10611982192442e+001dB,-5.98553865961759e+001°)
2.59880000000000e+008	(-1.10731538224793e+001dB,-6.47911161400707e+001°)
2.79870000000000e+008	(-1.10871558453982e+001dB,-6.97666767356106e+001°)
2.99860000000000e+008	(-1.11101312982173e+001dB,-7.47220252466665e+001°)
3.19850000000000e+008	(-1.11316728600562e+001dB,-7.96410427343876e+001°)
3.39840000000000e+008	(-1.11521584687797e+001dB,-8.45584466445337e+001°)
3.59830000000000e+008	(-1.11734719903945e+001dB,-8.94752811106457e+001°)
3.79820000000000e+008	(-1.11961978754329e+001dB,-9.43870115919204e+001°)
3.99810000000000e+008	(-1.12203478349970e+001dB,-9.92894426358034e+001°)
4.19800000000000e+008	(-1.12456633799384e+001dB,-1.04179410345549e+002°)
4.39790000000000e+008	(-1.12717561181125e+001dB,-1.09054846631714e+002°)
4.59780000000000e+008	(-1.12981881246392e+001dB,-1.13914662931113e+002°)
4.79770000000000e+008	(-1.13245169166860e+001dB,-1.18758575256246e+002°)
4.99760000000000e+008	(-1.13503184190376e+001dB,-1.23586943901444e+002°)
5.19750000000000e+008	(-1.13751985710422e+001dB,-1.28400653797483e+002°)
5.39740000000000e+008	(-1.13988004607476e+001dB,-1.33201030615080e+002°)
5.59730000000000e+008	(-1.14208102915160e+001dB,-1.37989777865334e+002°)
5.79720000000000e+008	(-1.14409632173829e+001dB,-1.42768922108737e+002°)
5.99710000000000e+008	(-1.14590490483316e+001dB,-1.47540758386239e+002°)
6.19700000000000e+008	(-1.14749175422447e+001dB,-1.52307792169883e+002°)
6.39690000000000e+008	(-1.14884831070958e+001dB,-1.57072676526363e+002°)
6.59680000000000e+008	(-1.14997291949956e+001dB,-1.61838143398362e+002°)
6.79670000000000e+008	(-1.15087141429764e+001dB,-1.66606921621878e+002°)
6.99660000000000e+008	(-1.15155856785383e+001dB,-1.71381579040316e+002°)
7.19650000000000e+008	(-1.15205957166961e+001dB,-1.76163635961230e+002°)
7.39640000000000e+008	(-1.15231927669450e+001dB,1.79046393868134e+002°)
7.59630000000000e+008	(-1.15243905652851e+001dB,1.74235823582573e+002°)
7.79620000000000e+008	(-1.15249752604589e+001dB,1.69412568693796e+002°)
7.99610000000000e+008	(-1.15248474385890e+001dB,1.64573945389527e+002°)
8.19600000000000e+008	(-1.15244527347572e+001dB,1.59718421304458e+002°)
8.39590000000000e+008	(-1.15242652163993e+001dB,1.54845406645812e+002°)
8.59580000000000e+008	(-1.15247697396802e+001dB,1.49954906371435e+002°)
8.79570000000000e+008	(-1.15264545998983e+001dB,1.45047487143930e+002°)
8.99560000000000e+008	(-1.15298017913486e+001dB,1.40124290089800e+002°)
9.19550000000000e+008	(-1.15352753358103e+001dB,1.35187057210363e+002°)
9.39540000000000e+008	(-1.15433065477716e+001dB,1.30238167367667e+002°)
9.59530000000000e+008	(-1.15542736797391e+001dB,1.25280675857671e+002°)
9.79520000000000e+008	(-1.15684726802975e+001dB,1.20318336899395e+002°)
9.99510000000000e+008	(-1.15860770822613e+001dB,1.15355564284470e+002°)
1.01950000000000e+009	(-1.16070900558562e+001dB,1.10397263076447e+002°)
1.03949000000000e+009	(-1.16313007024271e+001dB,1.05448470471025e+002°)
1.05948000000000e+009	(-1.16582655407863e+001dB,1.00513806461337e+002°)
1.07947000000000e+009	(-1.16873356848539e+001dB,9.55968509286701e+001°)
1.09946000000000e+009	(-1.17177335058888e+001dB,9.06996614610561e+001°)
1.11945000000000e+009	(-1.17486564471626e+001dB,8.58226242264300e+001°)
1.13944000000000e+009	(-1.17793701473298e+001dB,8.09646709111158e+001°)
1.15943000000000e+009	(-1.18092618179010e+001dB,7.61237137772251e+001°)
1.17942000000000e+009	(-1.18378494808390e+001dB,7.12970848837541e+001°)
1.19941000000000e+009	(-1.18647628964881e+001dB,6.64818334716350e+001°)
1.21940000000000e+009	(-1.18897168441520e+001dB,6.16748496389922e+001°)
1.23939000000000e+009	(-1.19124908114426e+001dB,5.68728585855932e+001°)
1.25938000000000e+009	(-1.19329202027522e+001dB,5.20723474286878e+001°)
1.27937000000000e+009	(-1.19508983958452e+001dB,4.72694682380454e+001°)
1.29936000000000e+009	(-1.19663872019511e+001dB,4.24599324329401e+001°)
1.31935000000000e+009	(-1.19794344099111e+001dB,3.76388852312304e+001°)
1.33934000000000e+009	(-1.19902004151134e+001dB,3.28007241083864e+001°)
1.35933000000000e+009	(-1.19990025241174e+001dB,2.79387947662011e+001°)
1.37932000000000e+009	(-1.20064001757882e+001dB,2.30448511330187e+001°)
1.39931000000000e+009	(-1.20133815035344e+001dB,1.81080977117435e+001°)
1.41930000000000e+009	(-1.20218150439468e+001dB,1.31136108987465e+001°)
1.43929000000000e+009	(-1.20356315480981e+001dB,8.04053589069012e+000°)
1.45928000000000e+009	(-1.20640062597705e+001dB,2.86544392197126e+000°)
1.47927000000000e+009	(-1.21283826558784e+001dB,-2.39443567856870e+000°)
1.49926000000000e+009	(-1.22600126918533e+001dB,-7.48683364074501e+000°)
1.51925000000000e+009	(-1.24225351596026e+001dB,-1.17610507303343e+001°)
1.53924000000000e+009	(-1.24263927183263e+001dB,-1.54284442008203e+001°)
1.55923000000000e+009	(-1.23304144778663e+001dB,-1.99043955768353e+001°)
1.57922000000000e+009	(-1.22693507433254e+001dB,-2.48896512943948e+001°)
1.59921000000000e+009	(-1.22439561873485e+001dB,-3.00094092650834e+001°)
1.61920000000000e+009	(-1.22408973547427e+001dB,-3.51604001568162e+001°)
1.63919000000000e+009	(-1.22528091803830e+001dB,-4.03177384146361e+001°)
1.65918000000000e+009	(-1.22761639446248e+001dB,-4.54751225541121e+001°)
1.67917000000000e+009	(-1.23093842057957e+001dB,-5.06304679255585e+001°)
1.69916000000000e+009	(-1.23519862489620e+001dB,-5.57820098649017e+001°)
1.71915000000000e+009	(-1.24042225783992e+001dB,-6.09264717379118e+001°)
1.73914000000000e+009	(-1.24668746785817e+001dB,-6.60570781298769e+001°)
1.75913000000000e+009	(-1.25409300593771e+001dB,-7.11610114168640e+001°)
1.77912000000000e+009	(-1.26269131196727e+001dB,-7.62173691458579e+001°)
1.79911000000000e+009	(-1.27238461258760e+001dB,-8.11984035181561e+001°)
1.81910000000000e+009	(-1.28283488150323e+001dB,-8.60769329980242e+001°)
1.83909000000000e+009	(-1.29348395542072e+001dB,-9.08382832516719e+001°)
1.85908000000000e+009	(-1.30372217994033e+001dB,-9.54884128580998e+001°)
1.87907000000000e+009	(-1.31309732493603e+001dB,-1.00050918140601e+002°)
1.89906000000000e+009	(-1.32141186435818e+001dB,-1.04555936134883e+002°)
1.91905000000000e+009	(-1.32868089015234e+001dB,-1.09030141565114e+002°)
1.93904000000000e+009	(-1.33503506391614e+001dB,-1.13492736433344e+002°)
1.95903000000000e+009	(-1.34064588538370e+001dB,-1.17956071621930e+002°)
1.97902000000000e+009	(-1.34569461617458e+001dB,-1.22427727753058e+002°)
1.99901000000000e+009	(-1.35037350278670e+001dB,-1.26911999366177e+002°)
2.01900000000000e+009	(-1.35490235665189e+001dB,-1.31409938183517e+002°)
2.03899000000000e+009	(-1.35954491301239e+001dB,-1.35917585740245e+002°)
2.05898000000000e+009	(-1.36460378280693e+001dB,-1.40422316314294e+002°)
2.07897000000000e+009	(-1.37036347614695e+001dB,-1.44898950488602e+002°)
2.09896000000000e+009	(-1.37701809022738e+001dB,-1.49312262485043e+002°)
2.11895000000000e+009	(-1.38501165177654e+001dB,-1.53622340623392e+002°)
2.13894000000000e+009	(-1.39598476515994e+001dB,-1.57668825030014e+002°)
2.15893000000000e+009	(-1.40680914276067e+001dB,-1.60834489810060e+002°)
2.17892000000000e+009	(-1.39529749727121e+001dB,-1.63226160083721e+002°)
2.19891000000000e+009	(-1.36207420425611e+001dB,-1.66897902647030e+002°)
2.21890000000000e+009	(-1.33355170409155e+001dB,-1.71940407530912e+002°)
2.23889000000000e+009	(-1.31489137450717e+001dB,-1.77444484464820e+002°)
2.25888000000000e+009	(-1.30270045918856e+001dB,1.76960643756993e+002°)
2.27887000000000e+009	(-1.29439277203621e+001dB,1.71354612851822e+002°)
2.29886000000000e+009	(-1.28868871653138e+001dB,1.65740473609506e+002°)
2.31885000000000e+009	(-1.28503955186145e+001dB,1.60108615881067e+002°)
2.33884000000000e+009	(-1.28325833189005e+001dB,1.54452263543632e+002°)
2.35883000000000e+009	(-1.28333139892252e+001dB,1.48770351855240e+002°)
2.37882000000000e+009	(-1.28532220749920e+001dB,1.43067249015849e+002°)
2.39881000000000e+009	(-1.28932104682808e+001dB,1.37351745020728e+002°)
2.41880000000000e+009	(-1.29542015970896e+001dB,1.31635978097972e+002°)
2.43879000000000e+009	(-1.30370552434376e+001dB,1.25934624633279e+002°)
2.45878000000000e+009	(-1.31426012307084e+001dB,1.20264758201712e+002°)
2.47877000000000e+009	(-1.32716996720139e+001dB,1.14646968520891e+002°)
2.49876000000000e+009	(-1.34251149325420e+001dB,1.09108186718279e+002°)
2.51875000000000e+009	(-1.36028168755122e+001dB,1.03685122428085e+002°)
2.53874000000000e+009	(-1.38024767858223e+001dB,9.84233231566933e+001°)
2.55873000000000e+009	(-1.40180764082087e+001dB,9.33647029756957e+001°)
2.57872000000000e+009	(-1.42408753699228e+001dB,8.85273398921089e+001°)
2.59871000000000e+009	(-1.44630919156858e+001dB,8.38991685941125e+001°)
2.61870000000000e+009	(-1.46806482100403e+001dB,7.94560023458624e+001°)
2.63869000000000e+009	(-1.48924245643370e+001dB,7.51835053922663e+001°)
2.65868000000000e+009	(-1.50979055804836e+001dB,7.10842410712435e+001°)
2.67867000000000e+009	(-1.52959174419533e+001dB,6.71740490097374e+001°)
2.69866000000000e+009	(-1.54852446841846e+001dB,6.34884669995424e+001°)
2.71865000000000e+009	(-1.56615466377244e+001dB,6.01374596194395e+001°)
2.73864000000000e+009	(-1.57841867153981e+001dB,5.73382051363631e+001°)
2.75863000000000e+009	(-1.57393420392465e+001dB,5.48035839017042e+001°)
2.77862000000000e+009	(-1.55469342371126e+001dB,5.12475989985942e+001°)
2.79861000000000e+009	(-1.54123320775445e+001dB,4.65609471249690e+001°)
2.81860000000000e+009	(-1.53888452758607e+001dB,4.16444554981003e+001°)
2.83859000000000e+009	(-1.54275845826895e+001dB,3.69220645087324e+001°)
2.85858000000000e+009	(-1.54879230064401e+001dB,3.24432546866620e+001°)
2.87857000000000e+009	(-1.55490405130632e+001dB,2.81594342110124e+001°)
2.89856000000000e+009	(-1.56013103896463e+001dB,2.40147120875933e+001°)
2.91855000000000e+009	(-1.56404138619051e+001dB,1.99637022721608e+001°)
2.93854000000000e+009	(-1.56645049955574e+001dB,1.59716498978126e+001°)
2.95853000000000e+009	(-1.56729233647945e+001dB,1.20116548389497e+001°)
2.97852000000000e+009	(-1.56656093874185e+001dB,8.06218224596825e+000°)
2.99851000000000e+009	(-1.56428368762354e+001dB,4.10529066019478e+000°)
3.01850000000000e+009	(-1.56050921899224e+001dB,1.25452074752709e-001°)
3.03849000000000e+009	(-1.55530233935512e+001dB,-3.89121313208264e+000°)
3.05848000000000e+009	(-1.54874240753236e+001dB,-7.95742006668371e+000°)
3.07847000000000e+009	(-1.54092348957062e+001dB,-1.20850093255988e+001°)
3.09846000000000e+009	(-1.53195543168527e+001dB,-1.62850967606271e+001°)
3.11845000000000e+009	(-1.52196537449588e+001dB,-2.05681145561951e+001°)
3.13844000000000e+009	(-1.51109939212390e+001dB,-2.49437614801896e+001°)
3.15843000000000e+009	(-1.49952399131483e+001dB,-2.94208723308973e+001°)
3.17842000000000e+009	(-1.48742720165995e+001dB,-3.40072131142427e+001°)
3.19841000000000e+009	(-1.47501895790417e+001dB,-3.87092086032500e+001°)
3.21840000000000e+009	(-1.46253044100868e+001dB,-4.35316123346434e+001°)
3.23839000000000e+009	(-1.45021202733744e+001dB,-4.84771355454521e+001°)
3.25838000000000e+009	(-1.43832951845543e+001dB,-5.35460605250534e+001°)
3.27837000000000e+009	(-1.42715841179482e+001dB,-5.87358741917220e+001°)
3.29836000000000e+009	(-1.41697614434500e+001dB,-6.40409673102450e+001°)
3.31835000000000e+009	(-1.40805250281518e+001dB,-6.94524506140246e+001°)
3.33834000000000e+009	(-1.40063872459301e+001dB,-7.49581376426976e+001°)
3.35833000000000e+009	(-1.39495616294061e+001dB,-8.05427323250881e+001°)
3.37832000000000e+009	(-1.39118568029713e+001dB,-8.61882360376546e+001°)
3.39831000000000e+009	(-1.38945908598783e+001dB,-9.18745555132819e+001°)
3.41830000000000e+009	(-1.38985389981086e+001dB,-9.75802526304888e+001°)
3.43829000000000e+009	(-1.39239249104397e+001dB,-1.03283330333570e+002°)
3.45828000000000e+009	(-1.39704616283540e+001dB,-1.08961886567171e+002°)
3.47827000000000e+009	(-1.40374362309817e+001dB,-1.14594363742219e+002°)
3.49826000000000e+009	(-1.41237981358014e+001dB,-1.20158940202726e+002°)
3.51825000000000e+009	(-1.42280982030012e+001dB,-1.25631447519602e+002°)
3.53824000000000e+009	(-1.43478270095379e+001dB,-1.30982092838156e+002°)
3.55823000000000e+009	(-1.44774344837824e+001dB,-1.36177500697502e+002°)
3.57822000000000e+009	(-1.46064835680637e+001dB,-1.41206757793513e+002°)
3.59821000000000e+009	(-1.47247976293287e+001dB,-1.46119529879886e+002°)
3.61820000000000e+009	(-1.48320516297123e+001dB,-1.50998964530169e+002°)
3.63819000000000e+009	(-1.49375863177947e+001dB,-1.55885870358831e+002°)
3.65818000000000e+009	(-1.50489992011963e+001dB,-1.60749647141931e+002°)
3.67817000000000e+009	(-1.51657924804724e+001dB,-1.65548254248260e+002°)
3.69816000000000e+009	(-1.52843143209168e+001dB,-1.70264695592022e+002°)
3.71815000000000e+009	(-1.54013468516673e+001dB,-1.74898883163158e+002°)
3.73814000000000e+009	(-1.55146453814065e+001dB,-1.79457080072075e+002°)
3.75813000000000e+009	(-1.56226905003103e+001dB,1.76052721357681e+002°)
3.77812000000000e+009	(-1.57244364133267e+001dB,1.71622374053232e+002°)
3.79811000000000e+009	(-1.58191510406243e+001dB,1.67244056355115e+002°)
3.81810000000000e+009	(-1.59063210019822e+001dB,1.62910397784322e+002°)
3.83809000000000e+009	(-1.59855935858313e+001dB,1.58614496334411e+002°)
3.85808000000000e+009	(-1.60567390653305e+001dB,1.54349905406448e+002°)
3.87807000000000e+009	(-1.61196243977730e+001dB,1.50110613838799e+002°)
3.89806000000000e+009	(-1.61741935455581e+001dB,1.45891024909053e+002°)
3.91805000000000e+009	(-1.62204518697608e+001dB,1.41685934745489e+002°)
3.93804000000000e+009	(-1.62584532269321e+001dB,1.37490509169847e+002°)
3.95803000000000e+009	(-1.62882890444111e+001dB,1.33300257922164e+002°)
3.97802000000000e+009	(-1.63100790074377e+001dB,1.29111005573559e+002°)
3.99801000000000e+009	(-1.63239631886548e+001dB,1.24918858879347e+002°)
4.01800000000000e+009	(-1.63300955546898e+001dB,1.20720170733622e+002°)
4.03799000000000e+009	(-1.63286388341637e+001dB,1.16511501210346e+002°)
4.05798000000000e+009	(-1.63197607503159e+001dB,1.12289576405592e+002°)
4.07797000000000e+009	(-1.63036316242449e+001dB,1.08051245940941e+002°)
4.09796000000000e+009	(-1.62804233508882e+001dB,1.03793440067582e+002°)
4.11795000000000e+009	(-1.62503097451070e+001dB,9.95131273471900e+001°)
4.13794000000000e+009	(-1.62134682531887e+001dB,9.52072739035216e+001°)
4.15793000000000e+009	(-1.61700830277277e+001dB,9.08728052652930e+001°)
4.17792000000000e+009	(-1.61203493716768e+001dB,8.65065718889313e+001°)
4.19791000000000e+009	(-1.60644795687684e+001dB,8.21053195984853e+001°)
4.21790000000000e+009	(-1.60027101275244e+001dB,7.76656664538089e+001°)
4.23789000000000e+009	(-1.59353104647810e+001dB,7.31840879979804e+001°)
4.25788000000000e+009	(-1.58625930258368e+001dB,6.86569134588340e+001°)
4.27787000000000e+009	(-1.57849247595862e+001dB,6.40803362514581e+001°)
4.29786000000000e+009	(-1.57027397133407e+001dB,5.94504429187568e+001°)
4.31785000000000e+009	(-1.56165522643497e+001dB,5.47632652007338e+001°)
4.33784000000000e+009	(-1.55269701636231e+001dB,5.00148598622607e+001°)
4.35783000000000e+009	(-1.54347061672949e+001dB,4.52014198021519e+001°)
4.37782000000000e+009	(-1.53405866491192e+001dB,4.03194174752790e+001°)
4.39781000000000e+009	(-1.52455553372898e+001dB,3.53657777317597e+001°)
4.41780000000000e+009	(-1.51506703175623e+001dB,3.03380721910246e+001°)
4.43779000000000e+009	(-1.50570927730759e+001dB,2.52347220173854e+001°)
4.45778000000000e+009	(-1.49660665978899e+001dB,2.00551914295915e+001°)
4.47777000000000e+009	(-1.48788889623075e+001dB,1.48001512738336e+001°)
4.49776000000000e+009	(-1.47968730307307e+001dB,9.47159087472900e+000°)
4.51775000000000e+009	(-1.47213052908080e+001dB,4.07285702252789e+000°)
4.53774000000000e+009	(-1.46534014372054e+001dB,-1.39139893992923e+000°)
4.55773000000000e+009	(-1.45942668162714e+001dB,-6.91538106772711e+000°)
4.57772000000000e+009	(-1.45448709208361e+001dB,-1.24924220888973e+001°)
4.59771000000000e+009	(-1.45060519972334e+001dB,-1.81153489082931e+001°)
4.61770000000000e+009	(-1.44785792467835e+001dB,-2.37768234530803e+001°)
4.63769000000000e+009	(-1.44633077486958e+001dB,-2.94692261790999e+001°)
4.65768000000000e+009	(-1.44613901016570e+001dB,-3.51828798521450e+001°)
4.67767000000000e+009	(-1.44741138998300e+001dB,-4.09012058126263e+001°)
4.69766000000000e+009	(-1.45014722557367e+001dB,-4.65979710894339e+001°)
4.71765000000000e+009	(-1.45408698979834e+001dB,-5.22505878949501e+001°)
4.73764000000000e+009	(-1.45894227565133e+001dB,-5.78518137300603e+001°)
4.75763000000000e+009	(-1.46453880122839e+001dB,-6.33947743014138e+001°)
4.77762000000000e+009	(-1.47060384271200e+001dB,-6.88676438531875e+001°)
4.79761000000000e+009	(-1.47669178331386e+001dB,-7.42668701803126e+001°)
4.81760000000000e+009	(-1.48234697102375e+001dB,-7.96059532968643e+001°)
4.83759000000000e+009	(-1.48729137663950e+001dB,-8.49107749218759e+001°)
4.85758000000000e+009	(-1.49146759098406e+001dB,-9.02083681045779e+001°)
4.87757000000000e+009	(-1.49495493278754e+001dB,-9.55197530912687e+001°)
4.89756000000000e+009	(-1.49787354937326e+001dB,-1.00859502739297e+002°)
4.91755000000000e+009	(-1.50033778145503e+001dB,-1.06238422142870e+002°)
4.93754000000000e+009	(-1.50245192735048e+001dB,-1.11666044337771e+002°)
4.95753000000000e+009	(-1.50432405268125e+001dB,-1.17151917928442e+002°)
4.97752000000000e+009	(-1.50608228131125e+001dB,-1.22705872112658e+002°)
4.99751000000000e+009	(-1.50788767208185e+001dB,-1.28337658676663e+002°)
5.01750000000000e+009	(-1.50994240621592e+001dB,-1.34056251921884e+002°)
5.03749000000000e+009	(-1.51249329001907e+001dB,-1.39868959008964e+002°)
5.05748000000000e+009	(-1.51583054848180e+001dB,-1.45780426399017e+002°)
5.07747000000000e+009	(-1.52028159912806e+001dB,-1.51791613679145e+002°)
5.09746000000000e+009	(-1.52619938637587e+001dB,-1.57898823274408e+002°)
5.11745000000000e+009	(-1.53394510124340e+001dB,-1.64092904953538e+002°)
5.13744000000000e+009	(-1.54386576562810e+001dB,-1.70358780269747e+002°)
5.15743000000000e+009	(-1.55626816441726e+001dB,-1.76675436430638e+002°)
5.17742000000000e+009	(-1.57139175137390e+001dB,1.76983493779412e+002°)
5.19741000000000e+009	(-1.58938407806075e+001dB,1.70648525889190e+002°)
5.21740000000000e+009	(-1.61028258657118e+001dB,1.64352561918699e+002°)
5.23739000000000e+009	(-1.63400597538663e+001dB,1.58128760944344e+002°)
5.25738000000000e+009	(-1.66035680093073e+001dB,1.52008317645514e+002°)
5.27737000000000e+009	(-1.68903488239382e+001dB,1.46018449868059e+002°)
5.29736000000000e+009	(-1.71965903935730e+001dB,1.40180847850648e+002°)
5.31735000000000e+009	(-1.75179330497006e+001dB,1.34510729553029e+002°)
5.33734000000000e+009	(-1.78497336811199e+001dB,1.29016511537150e+002°)
5.35733000000000e+009	(-1.81872959904326e+001dB,1.23699980514130e+002°)
5.37732000000000e+009	(-1.85260430093008e+001dB,1.18556764156340e+002°)
5.39731000000000e+009	(-1.88616237495811e+001dB,1.13576859292895e+002°)
5.41730000000000e+009	(-1.91899604304871e+001dB,1.08744969967568e+002°)
5.43729000000000e+009	(-1.95072555656673e+001dB,1.04040413615290e+002°)
5.45728000000000e+009	(-1.98099923304014e+001dB,9.94363477171313e+001°)
5.47727000000000e+009	(-2.00949846577750e+001dB,9.48980467578689e+001°)
5.49726000000000e+009	(-2.03595778725266e+001dB,9.03799641254015e+001°)
