Freq.	V(n_3p)
2.00000000000000e+007	(-1.08172244161974e+001dB,-4.69431236000449e+000°)
3.99900000000000e+007	(-1.08375667367651e+001dB,-9.22138626613818e+000°)
5.99800000000000e+007	(-1.08535366016086e+001dB,-1.37184316788126e+001°)
7.99700000000000e+007	(-1.08683295342671e+001dB,-1.81995049217825e+001°)
9.99600000000000e+007	(-1.08826111223134e+001dB,-2.26668371620650e+001°)
1.19950000000000e+008	(-1.08964511017380e+001dB,-2.71221678862938e+001°)
1.39940000000000e+008	(-1.09098242216570e+001dB,-3.15671352385639e+001°)
1.59930000000000e+008	(-1.09226707945965e+001dB,-3.60029429882372e+001°)
1.79920000000000e+008	(-1.09348552769545e+001dB,-4.04304457581982e+001°)
1.99910000000000e+008	(-1.09461160264285e+001dB,-4.48505440080445e+001°)
2.19900000000000e+008	(-1.09560042765728e+001dB,-4.92648577148329e+001°)
2.39890000000000e+008	(-1.09637477336331e+001dB,-5.36774367461317e+001°)
2.59880000000000e+008	(-1.09682848760004e+001dB,-5.81028721382655e+001°)
2.79870000000000e+008	(-1.09737740241676e+001dB,-6.25756977880883e+001°)
2.99860000000000e+008	(-1.09875829917434e+001dB,-6.70379946994461e+001°)
3.19850000000000e+008	(-1.09997143202772e+001dB,-7.14745096232153e+001°)
3.39840000000000e+008	(-1.10110460259875e+001dB,-7.59197342933698e+001°)
3.59830000000000e+008	(-1.10238228149220e+001dB,-8.03730473960291e+001°)
3.79820000000000e+008	(-1.10388163656288e+001dB,-8.48280821719868e+001°)
3.99810000000000e+008	(-1.10561370116968e+001dB,-8.92790637213296e+001°)
4.19800000000000e+008	(-1.10755833121110e+001dB,-9.37214282504476e+001°)
4.39790000000000e+008	(-1.10967906405607e+001dB,-9.81518138466299e+001°)
4.59780000000000e+008	(-1.11193150899974e+001dB,-1.02567967000070e+002°)
4.79770000000000e+008	(-1.11426894752448e+001dB,-1.06968594498492e+002°)
4.99760000000000e+008	(-1.11664585790902e+001dB,-1.11353177048495e+002°)
5.19750000000000e+008	(-1.11901970161236e+001dB,-1.15721785983333e+002°)
5.39740000000000e+008	(-1.12135152521181e+001dB,-1.20074936716884e+002°)
5.59730000000000e+008	(-1.12360597958679e+001dB,-1.24413488878667e+002°)
5.79720000000000e+008	(-1.12575119352119e+001dB,-1.28738585067475e+002°)
5.99710000000000e+008	(-1.12775872372713e+001dB,-1.33051613808092e+002°)
6.19700000000000e+008	(-1.12960364431901e+001dB,-1.37354183740258e+002°)
6.39690000000000e+008	(-1.13126475574640e+001dB,-1.41648100213535e+002°)
6.59680000000000e+008	(-1.13272486430942e+001dB,-1.45935339316081e+002°)
6.79670000000000e+008	(-1.13397108177719e+001dB,-1.50218016902935e+002°)
6.99660000000000e+008	(-1.13499510095844e+001dB,-1.54498351288858e+002°)
7.19650000000000e+008	(-1.13579340245825e+001dB,-1.58778617765631e+002°)
7.39640000000000e+008	(-1.13636731015034e+001dB,-1.63061089641099e+002°)
7.59630000000000e+008	(-1.13672258992578e+001dB,-1.67347948607308e+002°)
7.79620000000000e+008	(-1.13686683113144e+001dB,-1.71641115740537e+002°)
7.99610000000000e+008	(-1.13679148244228e+001dB,-1.75942249554081e+002°)
8.19600000000000e+008	(-1.13647427617122e+001dB,1.79739380245745e+002°)
8.39590000000000e+008	(-1.13618643632014e+001dB,1.75405712824628e+002°)
8.59580000000000e+008	(-1.13577118425076e+001dB,1.71063788071669e+002°)
8.79570000000000e+008	(-1.13525373621719e+001dB,1.66706579904128e+002°)
8.99560000000000e+008	(-1.13468821399275e+001dB,1.62332639422079e+002°)
9.19550000000000e+008	(-1.13411940711781e+001dB,1.57941432303150e+002°)
9.39540000000000e+008	(-1.13359054370393e+001dB,1.53532838804071e+002°)
9.59530000000000e+008	(-1.13314478881931e+001dB,1.49107149099903e+002°)
9.79520000000000e+008	(-1.13282506077334e+001dB,1.44665091269402e+002°)
9.99510000000000e+008	(-1.13267333749952e+001dB,1.40207858897907e+002°)
1.01950000000000e+009	(-1.13272968761402e+001dB,1.35737137589113e+002°)
1.03949000000000e+009	(-1.13303100740897e+001dB,1.31255130080152e+002°)
1.05948000000000e+009	(-1.13360934974653e+001dB,1.26764574432771e+002°)
1.07947000000000e+009	(-1.13448971966981e+001dB,1.22268740699682e+002°)
1.09946000000000e+009	(-1.13568732009173e+001dB,1.17771380155989e+002°)
1.11945000000000e+009	(-1.13720450995779e+001dB,1.13276593467079e+002°)
1.13944000000000e+009	(-1.13902816328568e+001dB,1.08788590868822e+002°)
1.15943000000000e+009	(-1.14112849470451e+001dB,1.04311348968363e+002°)
1.17942000000000e+009	(-1.14346038517347e+001dB,9.98482219852434e+001°)
1.19941000000000e+009	(-1.14596752679762e+001dB,9.54016126268233e+001°)
1.21940000000000e+009	(-1.14858850970533e+001dB,9.09728089693662e+001°)
1.23939000000000e+009	(-1.15126303372084e+001dB,8.65620324939637e+001°)
1.25938000000000e+009	(-1.15393644533254e+001dB,8.21686526452689e+001°)
1.27937000000000e+009	(-1.15656175478530e+001dB,7.77914643639293e+001°)
1.29936000000000e+009	(-1.15909945884430e+001dB,7.34289283701987e+001°)
1.31935000000000e+009	(-1.16151616766925e+001dB,6.90793214052233e+001°)
1.33934000000000e+009	(-1.16378303814268e+001dB,6.47407951321476e+001°)
1.35933000000000e+009	(-1.16587463324940e+001dB,6.04113719029295e+001°)
1.37932000000000e+009	(-1.16776840794613e+001dB,5.60889108757449e+001°)
1.39931000000000e+009	(-1.16944474977134e+001dB,5.17710694161620e+001°)
1.41930000000000e+009	(-1.17088739381205e+001dB,4.74552727361077e+001°)
1.43929000000000e+009	(-1.17208402954575e+001dB,4.31386947223383e+001°)
1.45928000000000e+009	(-1.17302696262460e+001dB,3.88182459276460e+001°)
1.47927000000000e+009	(-1.17371375380739e+001dB,3.44905595094952e+001°)
1.49926000000000e+009	(-1.17414782236469e+001dB,3.01519603007690e+001°)
1.51925000000000e+009	(-1.17433909036171e+001dB,2.57983931094676e+001°)
1.53924000000000e+009	(-1.17430491591851e+001dB,2.14252686183648e+001°)
1.55923000000000e+009	(-1.17407198110789e+001dB,1.70271484964223e+001°)
1.57922000000000e+009	(-1.17368095379918e+001dB,1.25971127255957e+001°)
1.59921000000000e+009	(-1.17319925821641e+001dB,8.12548289907978e+000°)
1.61920000000000e+009	(-1.17275914169402e+001dB,3.59724286334365e+000°)
1.63919000000000e+009	(-1.17268248450542e+001dB,-1.01274860687654e+000°)
1.65918000000000e+009	(-1.17392571568479e+001dB,-5.74300632397534e+000°)
1.67917000000000e+009	(-1.17946262687517e+001dB,-1.05854001828655e+001°)
1.69916000000000e+009	(-1.19323515991129e+001dB,-1.50673337228723e+001°)
1.71915000000000e+009	(-1.20057251630062e+001dB,-1.85469431006557e+001°)
1.73914000000000e+009	(-1.19304154523236e+001dB,-2.24471108931907e+001°)
1.75913000000000e+009	(-1.18700341994527e+001dB,-2.69234673355728e+001°)
1.77912000000000e+009	(-1.18406363130625e+001dB,-3.15531078156169e+001°)
1.79911000000000e+009	(-1.18299606102127e+001dB,-3.62230048415610e+001°)
1.81910000000000e+009	(-1.18314698456743e+001dB,-4.09091564701275e+001°)
1.83909000000000e+009	(-1.18423667749659e+001dB,-4.56060130750756e+001°)
1.85908000000000e+009	(-1.18616445334396e+001dB,-5.03114989942093e+001°)
1.87907000000000e+009	(-1.18892462922952e+001dB,-5.50231930108430e+001°)
1.89906000000000e+009	(-1.19256948161432e+001dB,-5.97365684757205e+001°)
1.91905000000000e+009	(-1.19718372468275e+001dB,-6.44433257109137e+001°)
1.93904000000000e+009	(-1.20284901937552e+001dB,-6.91296693720096e+001°)
1.95903000000000e+009	(-1.20958532500631e+001dB,-7.37754671298078e+001°)
1.97902000000000e+009	(-1.21727387247184e+001dB,-7.83561196163640e+001°)
1.99901000000000e+009	(-1.22559922745042e+001dB,-8.28486187790353e+001°)
2.01900000000000e+009	(-1.23406998151807e+001dB,-8.72403647719831e+001°)
2.03899000000000e+009	(-1.24214144472632e+001dB,-9.15354463337164e+001°)
2.05898000000000e+009	(-1.24937669662972e+001dB,-9.57533807866540e+001°)
2.07897000000000e+009	(-1.25554240347621e+001dB,-9.99212232013725e+001°)
2.09896000000000e+009	(-1.26059817023309e+001dB,-1.04064917414868e+002°)
2.11895000000000e+009	(-1.26462217607204e+001dB,-1.08204527129515e+002°)
2.13894000000000e+009	(-1.26773512774930e+001dB,-1.12353723055216e+002°)
2.15893000000000e+009	(-1.27005335628620e+001dB,-1.16521528597938e+002°)
2.17892000000000e+009	(-1.27167112162121e+001dB,-1.20714480525515e+002°)
2.19891000000000e+009	(-1.27266094525144e+001dB,-1.24938347297462e+002°)
2.21890000000000e+009	(-1.27308210413890e+001dB,-1.29199260354045e+002°)
2.23889000000000e+009	(-1.27299192242467e+001dB,-1.33504400329805e+002°)
2.25888000000000e+009	(-1.27245816662398e+001dB,-1.37862423053531e+002°)
2.27887000000000e+009	(-1.27157324512841e+001dB,-1.42283762940975e+002°)
2.29886000000000e+009	(-1.27047275464053e+001dB,-1.46780872216470e+002°)
2.31885000000000e+009	(-1.26936301926532e+001dB,-1.51368321300490e+002°)
2.33884000000000e+009	(-1.26856499937096e+001dB,-1.56062382377768e+002°)
2.35883000000000e+009	(-1.26858334346738e+001dB,-1.60878959812955e+002°)
2.37882000000000e+009	(-1.27019698685977e+001dB,-1.65827084192185e+002°)
2.39881000000000e+009	(-1.27449644143019e+001dB,-1.70893650307690e+002°)
2.41880000000000e+009	(-1.28261963864893e+001dB,-1.76025593160357e+002°)
2.43879000000000e+009	(-1.29534787946939e+001dB,1.78832649108134e+002°)
2.45878000000000e+009	(-1.31610929786455e+001dB,1.73681282328690e+002°)
2.47877000000000e+009	(-1.35445819121903e+001dB,1.69320895233585e+002°)
2.49876000000000e+009	(-1.38342573776464e+001dB,1.67639138739394e+002°)
2.51875000000000e+009	(-1.36437848306910e+001dB,1.65775485226307e+002°)
2.53874000000000e+009	(-1.33629261218732e+001dB,1.61778694836008e+002°)
2.55873000000000e+009	(-1.31798474614888e+001dB,1.56767291682121e+002°)
2.57872000000000e+009	(-1.30846435122590e+001dB,1.51416551115628e+002°)
2.59871000000000e+009	(-1.30516447947416e+001dB,1.45949063097272e+002°)
2.61870000000000e+009	(-1.30651026627929e+001dB,1.40434145187026e+002°)
2.63869000000000e+009	(-1.31170034915238e+001dB,1.34892053425420e+002°)
2.65868000000000e+009	(-1.32044209098811e+001dB,1.29325122975822e+002°)
2.67867000000000e+009	(-1.33286973807624e+001dB,1.23728313452767e+002°)
2.69866000000000e+009	(-1.34962784959901e+001dB,1.18097696010235e+002°)
2.71865000000000e+009	(-1.37209407088638e+001dB,1.12450726255706e+002°)
2.73864000000000e+009	(-1.40256198426768e+001dB,1.06881180495147e+002°)
2.75863000000000e+009	(-1.44347896240126e+001dB,1.01673795896293e+002°)
2.77862000000000e+009	(-1.49348850194659e+001dB,9.73888122840713e+001°)
2.79861000000000e+009	(-1.54134982851033e+001dB,9.44815189073927e+001°)
2.81860000000000e+009	(-1.57226549267355e+001dB,9.24682299359621e+001°)
2.83859000000000e+009	(-1.58555702358659e+001dB,9.02921892717570e+001°)
2.85858000000000e+009	(-1.59127580921584e+001dB,8.75003784753113e+001°)
2.87857000000000e+009	(-1.59688236446343e+001dB,8.42274309308176e+001°)
2.89856000000000e+009	(-1.60503218996880e+001dB,8.07145467176650e+001°)
2.91855000000000e+009	(-1.61611762179745e+001dB,7.71314202478185e+001°)
2.93854000000000e+009	(-1.63000813846437e+001dB,7.35769759177641e+001°)
2.95853000000000e+009	(-1.64684112891708e+001dB,7.01136906416279e+001°)
2.97852000000000e+009	(-1.66755734978503e+001dB,6.68102746376748e+001°)
2.99851000000000e+009	(-1.69451101129377e+001dB,6.38337660274990e+001°)
3.01850000000000e+009	(-1.73105047233559e+001dB,6.17206871580577e+001°)
3.03849000000000e+009	(-1.77120454799167e+001dB,6.19185456807553e+001°)
3.05848000000000e+009	(-1.76262359301116e+001dB,6.54310594202235e+001°)
3.07847000000000e+009	(-1.65994988818712e+001dB,6.65877657312007e+001°)
3.09846000000000e+009	(-1.55748365643502e+001dB,6.16746307087509e+001°)
3.11845000000000e+009	(-1.50450620078818e+001dB,5.46807709883292e+001°)
3.13844000000000e+009	(-1.48399538761962e+001dB,4.79876292655382e+001°)
3.15843000000000e+009	(-1.47850107754854e+001dB,4.20301501004068e+001°)
3.17842000000000e+009	(-1.47883322911640e+001dB,3.67114237384318e+001°)
3.19841000000000e+009	(-1.48060898638593e+001dB,3.18580521404641e+001°)
3.21840000000000e+009	(-1.48180062133042e+001dB,2.73199067165976e+001°)
3.23839000000000e+009	(-1.48151280056320e+001dB,2.29828085838053e+001°)
3.25838000000000e+009	(-1.47939735989229e+001dB,1.87622691684607e+001°)
3.27837000000000e+009	(-1.47537493603784e+001dB,1.45950817387082e+001°)
3.29836000000000e+009	(-1.46950374265229e+001dB,1.04325369643675e+001°)
3.31835000000000e+009	(-1.46191941178112e+001dB,6.23563808263314e+000°)
3.33834000000000e+009	(-1.45280958610543e+001dB,1.97192697721855e+000°)
3.35833000000000e+009	(-1.44240578080374e+001dB,-2.38651622310966e+000°)
3.37832000000000e+009	(-1.43098393849873e+001dB,-6.86422774926388e+000°)
3.39831000000000e+009	(-1.41886928630717e+001dB,-1.14828827180854e+001°)
3.41830000000000e+009	(-1.40644303797002e+001dB,-1.62613149177366e+001°)
3.43829000000000e+009	(-1.39414936581717e+001dB,-2.12151089913971e+001°)
3.45828000000000e+009	(-1.38250153276285e+001dB,-2.63558069366664e+001°)
3.47827000000000e+009	(-1.37208650599541e+001dB,-3.16897403218898e+001°)
3.49826000000000e+009	(-1.36356791694804e+001dB,-3.72164333097758e+001°)
3.51825000000000e+009	(-1.35768733574734e+001dB,-4.29263440696011e+001°)
3.53824000000000e+009	(-1.35526071239038e+001dB,-4.87973236735555e+001°)
3.55823000000000e+009	(-1.35715226042111e+001dB,-5.47886567060245e+001°)
3.57822000000000e+009	(-1.36416790185993e+001dB,-6.08320828928169e+001°)
3.59821000000000e+009	(-1.37675804718181e+001dB,-6.68248453545612e+001°)
3.61820000000000e+009	(-1.39451828426786e+001dB,-7.26439668389665e+001°)
3.63819000000000e+009	(-1.41598830777169e+001dB,-7.82006893421477e+001°)
3.65818000000000e+009	(-1.43950078812362e+001dB,-8.34922524949249e+001°)
3.67817000000000e+009	(-1.46442712272808e+001dB,-8.85678066916252e+001°)
3.69816000000000e+009	(-1.49128140766934e+001dB,-9.34393653451932e+001°)
3.71815000000000e+009	(-1.52087226250855e+001dB,-9.80235996712695e+001°)
3.73814000000000e+009	(-1.55295370288574e+001dB,-1.02095024326478e+002°)
3.75813000000000e+009	(-1.58228541102993e+001dB,-1.05298509018978e+002°)
3.77812000000000e+009	(-1.59399643308683e+001dB,-1.07792680946814e+002°)
3.79811000000000e+009	(-1.58344068792653e+001dB,-1.11103180503130e+002°)
3.81810000000000e+009	(-1.57400954740986e+001dB,-1.15967345470674e+002°)
3.83809000000000e+009	(-1.57956255919267e+001dB,-1.21434800793724e+002°)
3.85808000000000e+009	(-1.59700559800982e+001dB,-1.26738989025107e+002°)
3.87807000000000e+009	(-1.62068261780206e+001dB,-1.31649796334557e+002°)
3.89806000000000e+009	(-1.64681852111264e+001dB,-1.36166032691493e+002°)
3.91805000000000e+009	(-1.67331695166029e+001dB,-1.40346751844614e+002°)
3.93804000000000e+009	(-1.69907537110113e+001dB,-1.44255268317302e+002°)
3.95803000000000e+009	(-1.72352498176136e+001dB,-1.47944952080070e+002°)
3.97802000000000e+009	(-1.74637569016180e+001dB,-1.51457959033167e+002°)
3.99801000000000e+009	(-1.76748241875256e+001dB,-1.54827219221170e+002°)
4.01800000000000e+009	(-1.78677605100882e+001dB,-1.58078736579042e+002°)
4.03799000000000e+009	(-1.80422764628006e+001dB,-1.61233464860409e+002°)
4.05798000000000e+009	(-1.81982966742587e+001dB,-1.64308691840328e+002°)
4.07797000000000e+009	(-1.83358596965757e+001dB,-1.67319028242722e+002°)
4.09796000000000e+009	(-1.84550636891022e+001dB,-1.70277111675842e+002°)
4.11795000000000e+009	(-1.85560365338620e+001dB,-1.73194113292333e+002°)
4.13794000000000e+009	(-1.86389193290014e+001dB,-1.76080109738005e+002°)
4.15793000000000e+009	(-1.87038574610641e+001dB,-1.78944363216275e+002°)
4.17792000000000e+009	(-1.87509961783508e+001dB,1.78204461398777e+002°)
4.19791000000000e+009	(-1.87804790265140e+001dB,1.75358122839272e+002°)
4.21790000000000e+009	(-1.87924482890098e+001dB,1.72508659776214e+002°)
4.23789000000000e+009	(-1.87870470157650e+001dB,1.69648268013676e+002°)
4.25788000000000e+009	(-1.87644224864150e+001dB,1.66769192136595e+002°)
4.27787000000000e+009	(-1.87247311252190e+001dB,1.63863627129349e+002°)
4.29786000000000e+009	(-1.86681450090564e+001dB,1.60923626875440e+002°)
4.31785000000000e+009	(-1.85948602127335e+001dB,1.57941017535453e+002°)
4.33784000000000e+009	(-1.85051073308784e+001dB,1.54907314745062e+002°)
4.35783000000000e+009	(-1.83991646100086e+001dB,1.51813644507011e+002°)
4.37782000000000e+009	(-1.82773742201885e+001dB,1.48650668685811e+002°)
4.39781000000000e+009	(-1.81401622909433e+001dB,1.45408517264123e+002°)
4.41780000000000e+009	(-1.79880634233973e+001dB,1.42076731103178e+002°)
4.43779000000000e+009	(-1.78217504555229e+001dB,1.38644220990406e+002°)
4.45778000000000e+009	(-1.76420702758415e+001dB,1.35099251379109e+002°)
4.47777000000000e+009	(-1.74500864161917e+001dB,1.31429460530589e+002°)
4.49776000000000e+009	(-1.72471289546555e+001dB,1.27621932802187e+002°)
4.51775000000000e+009	(-1.70348518598987e+001dB,1.23663343508320e+002°)
4.53774000000000e+009	(-1.68152972373887e+001dB,1.19540201839705e+002°)
4.55773000000000e+009	(-1.65909649450233e+001dB,1.15239222224555e+002°)
4.57772000000000e+009	(-1.63648847489210e+001dB,1.10747858539933e+002°)
4.59771000000000e+009	(-1.61406867571418e+001dB,1.06055038332476e+002°)
4.61770000000000e+009	(-1.59226646976942e+001dB,1.01152137135038e+002°)
4.63769000000000e+009	(-1.57158262603616e+001dB,9.60342431036313e+001°)
4.65768000000000e+009	(-1.55259252135823e+001dB,9.07017998814751e+001°)
4.67767000000000e+009	(-1.53594679143142e+001dB,8.51628270445451e+001°)
4.69766000000000e+009	(-1.52236660121744e+001dB,7.94361819695933e+001°)
4.71765000000000e+009	(-1.51262137491783e+001dB,7.35567846218821e+001°)
4.73764000000000e+009	(-1.50744672514739e+001dB,6.75838836791761e+001°)
4.75763000000000e+009	(-1.50729545351762e+001dB,6.16103864294065e+001°)
4.77762000000000e+009	(-1.51179967869978e+001dB,5.57574642883293e+001°)
4.79761000000000e+009	(-1.51926924813842e+001dB,5.01207863737246e+001°)
4.81760000000000e+009	(-1.52735690437151e+001dB,4.46873618033796e+001°)
4.83759000000000e+009	(-1.53471597989962e+001dB,3.93360943199333e+001°)
4.85758000000000e+009	(-1.54199841626926e+001dB,3.39238326907910e+001°)
4.87757000000000e+009	(-1.55141773682176e+001dB,2.84156071193132e+001°)
4.89756000000000e+009	(-1.56441604298144e+001dB,2.29080770788087e+001°)
4.91755000000000e+009	(-1.58086841453051e+001dB,1.75094244135200e+001°)
4.93754000000000e+009	(-1.59996776602369e+001dB,1.22817613031668e+001°)
4.95753000000000e+009	(-1.62085537502252e+001dB,7.24977294909043e+000°)
4.97752000000000e+009	(-1.64280555930510e+001dB,2.41740985888646e+000°)
4.99751000000000e+009	(-1.66524214031605e+001dB,-2.22180823355017e+000°)
5.01750000000000e+009	(-1.68771578555960e+001dB,-6.67939856442987e+000°)
5.03749000000000e+009	(-1.70987800279680e+001dB,-1.09691103336726e+001°)
5.05748000000000e+009	(-1.73145919814564e+001dB,-1.51054278110427e+001°)
5.07747000000000e+009	(-1.75225136681182e+001dB,-1.91027580418228e+001°)
5.09746000000000e+009	(-1.77209464391818e+001dB,-2.29749940398769e+001°)
5.11745000000000e+009	(-1.79086685594076e+001dB,-2.67352920772366e+001°)
5.13744000000000e+009	(-1.80847536801968e+001dB,-3.03959743874084e+001°)
5.15743000000000e+009	(-1.82485069015609e+001dB,-3.39685064282578e+001°)
5.17742000000000e+009	(-1.83994144089615e+001dB,-3.74635185059044e+001°)
5.19741000000000e+009	(-1.85371036832172e+001dB,-4.08908533147278e+001°)
5.21740000000000e+009	(-1.86613120190717e+001dB,-4.42596278927186e+001°)
5.23739000000000e+009	(-1.87718616248290e+001dB,-4.75783027396530e+001°)
5.25738000000000e+009	(-1.88686399707526e+001dB,-5.08547535256156e+001°)
5.27737000000000e+009	(-1.89515843500008e+001dB,-5.40963425494716e+001°)
5.29736000000000e+009	(-1.90206698417046e+001dB,-5.73099882441363e+001°)
5.31735000000000e+009	(-1.90759000409248e+001dB,-6.05022317766950e+001°)
5.33734000000000e+009	(-1.91173000579604e+001dB,-6.36793002853751e+001°)
5.35733000000000e+009	(-1.91449113990653e+001dB,-6.68471666142929e+001°)
5.37732000000000e+009	(-1.91587884286437e+001dB,-7.00116056051296e+001°)
5.39731000000000e+009	(-1.91589961842988e+001dB,-7.31782471189473e+001°)
5.41730000000000e+009	(-1.91456093743142e+001dB,-7.63526260163164e+001°)
5.43729000000000e+009	(-1.91187124350447e+001dB,-7.95402293371082e+001°)
5.45728000000000e+009	(-1.90784005654234e+001dB,-8.27465409050433e+001°)
5.47727000000000e+009	(-1.90247816890890e+001dB,-8.59770835453960e+001°)
5.49726000000000e+009	(-1.89579793229548e+001dB,-8.92374590543360e+001°)
