Freq.	V(n_3p)
2.00000000000000e+007	(-2.88970802239067e+001dB,-4.36540095583163e+000°)
3.99900000000000e+007	(-2.89247811431577e+001dB,-8.51490032538731e+000°)
5.99800000000000e+007	(-2.89438855956132e+001dB,-1.26132331774100e+001°)
7.99700000000000e+007	(-2.89597110314739e+001dB,-1.66980699386741e+001°)
9.99600000000000e+007	(-2.89741879120692e+001dB,-2.07727604787071e+001°)
1.19950000000000e+008	(-2.89878688563738e+001dB,-2.48381438862908e+001°)
1.39940000000000e+008	(-2.90009566810509e+001dB,-2.88950428307505e+001°)
1.59930000000000e+008	(-2.90135287785522e+001dB,-3.29440022357252e+001°)
1.79920000000000e+008	(-2.90255541138666e+001dB,-3.69852847144551e+001°)
1.99910000000000e+008	(-2.90368701958978e+001dB,-4.10191489347635e+001°)
2.19900000000000e+008	(-2.90471334289160e+001dB,-4.50463459747895e+001°)
2.39890000000000e+008	(-2.90556719413775e+001dB,-4.90695736236430e+001°)
2.59880000000000e+008	(-2.90614727322428e+001dB,-5.31012743882941e+001°)
2.79870000000000e+008	(-2.90685186923009e+001dB,-5.71727216818731e+001°)
2.99860000000000e+008	(-2.90835608190030e+001dB,-6.12244424207913e+001°)
3.19850000000000e+008	(-2.90961637863870e+001dB,-6.52419193286369e+001°)
3.39840000000000e+008	(-2.91067514573166e+001dB,-6.92609271305882e+001°)
3.59830000000000e+008	(-2.91172777651866e+001dB,-7.32836386030729e+001°)
3.79820000000000e+008	(-2.91284605103479e+001dB,-7.73065258269978e+001°)
3.99810000000000e+008	(-2.91404871684567e+001dB,-8.13260615581448e+001°)
4.19800000000000e+008	(-2.91532872323623e+001dB,-8.53393785694458e+001°)
4.39790000000000e+008	(-2.91666534903554e+001dB,-8.93444110713445e+001°)
4.59780000000000e+008	(-2.91803180037248e+001dB,-9.33398626340791e+001°)
4.79770000000000e+008	(-2.91939990796057e+001dB,-9.73250632578387e+001°)
4.99760000000000e+008	(-2.92074236998498e+001dB,-1.01299798582129e+002°)
5.19750000000000e+008	(-2.92203333959255e+001dB,-1.05264176805880e+002°)
5.39740000000000e+008	(-2.92324829092667e+001dB,-1.09218555126823e+002°)
5.59730000000000e+008	(-2.92436383375836e+001dB,-1.13163513735921e+002°)
5.79720000000000e+008	(-2.92535776931669e+001dB,-1.17099854075658e+002°)
5.99710000000000e+008	(-2.92620941226252e+001dB,-1.21028602082578e+002°)
6.19700000000000e+008	(-2.92690008933272e+001dB,-1.24951005686433e+002°)
6.39690000000000e+008	(-2.92741371150285e+001dB,-1.28868522764288e+002°)
6.59680000000000e+008	(-2.92773734343168e+001dB,-1.32782799589315e+002°)
6.79670000000000e+008	(-2.92786172643803e+001dB,-1.36695641287218e+002°)
6.99660000000000e+008	(-2.92778173724320e+001dB,-1.40608975975098e+002°)
7.19650000000000e+008	(-2.92749678511164e+001dB,-1.44524813786074e+002°)
7.39640000000000e+008	(-2.92701117330526e+001dB,-1.48445200964541e+002°)
7.59630000000000e+008	(-2.92633449624523e+001dB,-1.52372166615573e+002°)
7.79620000000000e+008	(-2.92548226026808e+001dB,-1.56307650330859e+002°)
7.99610000000000e+008	(-2.92447720745244e+001dB,-1.60253355754023e+002°)
8.19600000000000e+008	(-2.92335175992409e+001dB,-1.64210232170733e+002°)
8.39590000000000e+008	(-2.92213230089921e+001dB,-1.68176096846902e+002°)
8.59580000000000e+008	(-2.92064358749581e+001dB,-1.72150707209398e+002°)
8.79570000000000e+008	(-2.91906075904421e+001dB,-1.76159790114092e+002°)
8.99560000000000e+008	(-2.91762408172226e+001dB,1.79815003068521e+002°)
9.19550000000000e+008	(-2.91623605658212e+001dB,1.75775723420618e+002°)
9.39540000000000e+008	(-2.91491611504362e+001dB,1.71720620240047e+002°)
9.59530000000000e+008	(-2.91370442532145e+001dB,1.67649469071837e+002°)
9.79520000000000e+008	(-2.91264309102169e+001dB,1.63562875292806e+002°)
9.99510000000000e+008	(-2.91177337915426e+001dB,1.59462012509956e+002°)
1.01950000000000e+009	(-2.91113478957285e+001dB,1.55348541170841e+002°)
1.03949000000000e+009	(-2.91076435388441e+001dB,1.51224584346969e+002°)
1.05948000000000e+009	(-2.91069590413785e+001dB,1.47092729038280e+002°)
1.07947000000000e+009	(-2.91095915810272e+001dB,1.42956045877049e+002°)
1.09946000000000e+009	(-2.91157839419731e+001dB,1.38818123496910e+002°)
1.11945000000000e+009	(-2.91257039747909e+001dB,1.34683106130041e+002°)
1.13944000000000e+009	(-2.91394134471515e+001dB,1.30555705352458e+002°)
1.15943000000000e+009	(-2.91568250424205e+001dB,1.26441131921984e+002°)
1.17942000000000e+009	(-2.91776521761862e+001dB,1.22344873177326e+002°)
1.19941000000000e+009	(-2.92013662012336e+001dB,1.18272251407862e+002°)
1.21940000000000e+009	(-2.92271852842876e+001dB,1.14227769590031e+002°)
1.23939000000000e+009	(-2.92541192270182e+001dB,1.10214383301659e+002°)
1.25938000000000e+009	(-2.92810759877519e+001dB,1.06232961089260e+002°)
1.27937000000000e+009	(-2.93070032682320e+001dB,1.02282189979514e+002°)
1.29936000000000e+009	(-2.93310146040667e+001dB,9.83589954441709e+001°)
1.31935000000000e+009	(-2.93524557156601e+001dB,9.44592883316729e+001°)
1.33934000000000e+009	(-2.93708999676334e+001dB,9.05787187773760e+001°)
1.35933000000000e+009	(-2.93860952619987e+001dB,8.67131876659870e+001°)
1.37932000000000e+009	(-2.93978969955508e+001dB,8.28590439563461e+001°)
1.39931000000000e+009	(-2.94062132218354e+001dB,7.90130394811144e+001°)
1.41930000000000e+009	(-2.94109724750805e+001dB,7.51721611626743e+001°)
1.43929000000000e+009	(-2.94121129427482e+001dB,7.13334382139152e+001°)
1.45928000000000e+009	(-2.94095868131721e+001dB,6.74937766307934e+001°)
1.47927000000000e+009	(-2.94033737065827e+001dB,6.36498352265756e+001°)
1.49926000000000e+009	(-2.93934994120251e+001dB,5.97979344002753e+001°)
1.51925000000000e+009	(-2.93800591941117e+001dB,5.59339768291011e+001°)
1.53924000000000e+009	(-2.93632486939028e+001dB,5.20533516427752e+001°)
1.55923000000000e+009	(-2.93434115583647e+001dB,4.81507851667841e+001°)
1.57922000000000e+009	(-2.93211260505211e+001dB,4.42200921997447e+001°)
1.59921000000000e+009	(-2.92973858217857e+001dB,4.02537965334376e+001°)
1.61920000000000e+009	(-2.92740194494992e+001dB,3.62427831705367e+001°)
1.63919000000000e+009	(-2.92547364767563e+001dB,3.21774051722211e+001°)
1.65918000000000e+009	(-2.92476526875638e+001dB,2.80587671650787e+001°)
1.67917000000000e+009	(-2.92680815643017e+001dB,2.39625987598826e+001°)
1.69916000000000e+009	(-2.93138319410124e+001dB,2.01944666007511e+001°)
1.71915000000000e+009	(-2.92935669252036e+001dB,1.68676203141762e+001°)
1.73914000000000e+009	(-2.91870689535159e+001dB,1.31558542521601e+001°)
1.75913000000000e+009	(-2.90968777624103e+001dB,9.00353032075000e+000°)
1.77912000000000e+009	(-2.90347431680425e+001dB,4.72701527464670e+000°)
1.79911000000000e+009	(-2.89893338787220e+001dB,4.16693253899590e-001°)
1.81910000000000e+009	(-2.89546260893378e+001dB,-3.91256608136471e+000°)
1.83909000000000e+009	(-2.89282177635213e+001dB,-8.25955039178980e+000°)
1.85908000000000e+009	(-2.89093173269197e+001dB,-1.26242169794034e+001°)
1.87907000000000e+009	(-2.88978513272876e+001dB,-1.70055104321787e+001°)
1.89906000000000e+009	(-2.88940909138106e+001dB,-2.14011298352559e+001°)
1.91905000000000e+009	(-2.88984934379660e+001dB,-2.58075574018537e+001°)
1.93904000000000e+009	(-2.89116328459532e+001dB,-3.02199693951964e+001°)
1.95903000000000e+009	(-2.89341567243740e+001dB,-3.46319225581238e+001°)
1.97902000000000e+009	(-2.89667247683744e+001dB,-3.90348022861232e+001°)
1.99901000000000e+009	(-2.90098837707289e+001dB,-4.34171417776971e+001°)
2.01900000000000e+009	(-2.90638395299465e+001dB,-4.77641449190049e+001°)
2.03899000000000e+009	(-2.91281220226852e+001dB,-5.20580343158227e+001°)
2.05898000000000e+009	(-2.92012274259459e+001dB,-5.62799648895109e+001°)
2.07897000000000e+009	(-2.92804342754117e+001dB,-6.04137666442654e+001°)
2.09896000000000e+009	(-2.93620225847205e+001dB,-6.44505215668120e+001°)
2.11895000000000e+009	(-2.94419509655460e+001dB,-6.83917104108625e+001°)
2.13894000000000e+009	(-2.95167284619645e+001dB,-7.22488904397472e+001°)
2.15893000000000e+009	(-2.95840477730240e+001dB,-7.60399618969152e+001°)
2.17892000000000e+009	(-2.96429209787625e+001dB,-7.97842185780542e+001°)
2.19891000000000e+009	(-2.96933976009231e+001dB,-8.34985972272154e+001°)
2.21890000000000e+009	(-2.97361320933367e+001dB,-8.71961139103983e+001°)
2.23889000000000e+009	(-2.97720240176022e+001dB,-9.08860529032548e+001°)
2.25888000000000e+009	(-2.98020177504788e+001dB,-9.45749698812699e+001°)
2.27887000000000e+009	(-2.98270494894601e+001dB,-9.82677646155144e+001°)
2.29886000000000e+009	(-2.98480965824828e+001dB,-1.01968437911022e+002°)
2.31885000000000e+009	(-2.98662910523794e+001dB,-1.05680379164346e+002°)
2.33884000000000e+009	(-2.98830757329503e+001dB,-1.09406080028938e+002°)
2.35883000000000e+009	(-2.99003885802335e+001dB,-1.13146067877318e+002°)
2.37882000000000e+009	(-2.99208407546291e+001dB,-1.16896654897831e+002°)
2.39881000000000e+009	(-2.99477816287566e+001dB,-1.20646014259202e+002°)
2.41880000000000e+009	(-2.99850490712224e+001dB,-1.24368948117304e+002°)
2.43879000000000e+009	(-3.00366290890739e+001dB,-1.28023414438385e+002°)
2.45878000000000e+009	(-3.01091642170683e+001dB,-1.31541418366506e+002°)
2.47877000000000e+009	(-3.02160246927793e+001dB,-1.34701935610181e+002°)
2.49876000000000e+009	(-3.03059423406634e+001dB,-1.36870590097973e+002°)
2.51875000000000e+009	(-3.01546055666788e+001dB,-1.38382370991707e+002°)
2.53874000000000e+009	(-2.98052532657158e+001dB,-1.41206017466965e+002°)
2.55873000000000e+009	(-2.95014136779836e+001dB,-1.45303700971412e+002°)
2.57872000000000e+009	(-2.92883771515374e+001dB,-1.49845241107318e+002°)
2.59871000000000e+009	(-2.91362691388452e+001dB,-1.54476540094738e+002°)
2.61870000000000e+009	(-2.90202835479298e+001dB,-1.59109940476106e+002°)
2.63869000000000e+009	(-2.89269045606477e+001dB,-1.63737222147688e+002°)
2.65868000000000e+009	(-2.88494878088614e+001dB,-1.68367993869593e+002°)
2.67867000000000e+009	(-2.87850369465089e+001dB,-1.73012754947273e+002°)
2.69866000000000e+009	(-2.87324707099078e+001dB,-1.77678866400043e+002°)
2.71865000000000e+009	(-2.86917258142357e+001dB,1.77629926039084e+002°)
2.73864000000000e+009	(-2.86632882278813e+001dB,1.72913078418028e+002°)
2.75863000000000e+009	(-2.86479508981485e+001dB,1.68172716325547e+002°)
2.77862000000000e+009	(-2.86467012354480e+001dB,1.63413247372239e+002°)
2.79861000000000e+009	(-2.86606871826090e+001dB,1.58641285586823e+002°)
2.81860000000000e+009	(-2.86912198673263e+001dB,1.53866080301786e+002°)
2.83859000000000e+009	(-2.87397503163822e+001dB,1.49100651655447e+002°)
2.85858000000000e+009	(-2.88077112168982e+001dB,1.44363653410711e+002°)
2.87857000000000e+009	(-2.88960709689061e+001dB,1.39681339134392e+002°)
2.89856000000000e+009	(-2.90045035352271e+001dB,1.35087762859437e+002°)
2.91855000000000e+009	(-2.91303858010663e+001dB,1.30620317320619e+002°)
2.93854000000000e+009	(-2.92683503844206e+001dB,1.26309329469236e+002°)
2.95853000000000e+009	(-2.94112327961034e+001dB,1.22166149960985e+002°)
2.97852000000000e+009	(-2.95522713761642e+001dB,1.18178833692668e+002°)
2.99851000000000e+009	(-2.96871160092514e+001dB,1.14319789356034e+002°)
3.01850000000000e+009	(-2.98143406893788e+001dB,1.10559219526581e+002°)
3.03849000000000e+009	(-2.99345945099291e+001dB,1.06874948621530e+002°)
3.05848000000000e+009	(-3.00494019081968e+001dB,1.03255226854424e+002°)
3.07847000000000e+009	(-3.01603405838704e+001dB,9.96968962065663e+001°)
3.09846000000000e+009	(-3.02687516024071e+001dB,9.62022636450743e+001°)
3.11845000000000e+009	(-3.03759095128340e+001dB,9.27766092176201e+001°)
3.13844000000000e+009	(-3.04837036350390e+001dB,8.94277425664039e+001°)
3.15843000000000e+009	(-3.05961009489775e+001dB,8.61719961837160e+001°)
3.17842000000000e+009	(-3.07211397649081e+001dB,8.30616319331454e+001°)
3.19841000000000e+009	(-3.08682958349986e+001dB,8.02664122056205e+001°)
3.21840000000000e+009	(-3.10180798473706e+001dB,7.81900385072568e+001°)
3.23839000000000e+009	(-3.10427688314758e+001dB,7.71384418285712e+001°)
3.25838000000000e+009	(-3.07841833279018e+001dB,7.60136467390272e+001°)
3.27837000000000e+009	(-3.03838888125093e+001dB,7.32514117988392e+001°)
3.29836000000000e+009	(-3.00644734529068e+001dB,6.92108012446914e+001°)
3.31835000000000e+009	(-2.98595317083087e+001dB,6.47927847948664e+001°)
3.33834000000000e+009	(-2.97279900218132e+001dB,6.04042100746153e+001°)
3.35833000000000e+009	(-2.96341795838206e+001dB,5.61403878062318e+001°)
3.37832000000000e+009	(-2.95570589611793e+001dB,5.19931128888335e+001°)
3.39831000000000e+009	(-2.94852707506146e+001dB,4.79296544754543e+001°)
3.41830000000000e+009	(-2.94129052763567e+001dB,4.39161630769127e+001°)
3.43829000000000e+009	(-2.93370731957510e+001dB,3.99233546156352e+001°)
3.45828000000000e+009	(-2.92566104364135e+001dB,3.59270925463976e+001°)
3.47827000000000e+009	(-2.91713893060490e+001dB,3.19077221021672e+001°)
3.49826000000000e+009	(-2.90819457788799e+001dB,2.78492839431472e+001°)
3.51825000000000e+009	(-2.89892722781803e+001dB,2.37388989993303e+001°)
3.53824000000000e+009	(-2.88946972626678e+001dB,1.95663651170851e+001°)
3.55823000000000e+009	(-2.87998093878653e+001dB,1.53239365952640e+001°)
3.57822000000000e+009	(-2.87064027493477e+001dB,1.10062433417231e+001°)
3.59821000000000e+009	(-2.86164296838315e+001dB,6.61030707460545e+000°)
3.61820000000000e+009	(-2.85319532490695e+001dB,2.13561560307160e+000°)
3.63819000000000e+009	(-2.84550950243378e+001dB,-2.41578001838946e+000°)
3.65818000000000e+009	(-2.83879763061779e+001dB,-7.03917641901756e+000°)
3.67817000000000e+009	(-2.83326524838361e+001dB,-1.17271621318222e+001°)
3.69816000000000e+009	(-2.82910413018547e+001dB,-1.64696128639674e+001°)
3.71815000000000e+009	(-2.82648455706984e+001dB,-2.12537485313269e+001°)
3.73814000000000e+009	(-2.82554695362659e+001dB,-2.60642619570408e+001°)
3.75813000000000e+009	(-2.82639262796839e+001dB,-3.08835440434029e+001°)
3.77812000000000e+009	(-2.82907337239686e+001dB,-3.56920688466703e+001°)
3.79811000000000e+009	(-2.83358037848591e+001dB,-4.04690556783661e+001°)
3.81810000000000e+009	(-2.83983471732716e+001dB,-4.51935461243444e+001°)
3.83809000000000e+009	(-2.84768411516920e+001dB,-4.98459323069857e+001°)
3.85808000000000e+009	(-2.85691178667974e+001dB,-5.44096924268277e+001°)
3.87807000000000e+009	(-2.86725970563856e+001dB,-5.88727559804014e+001°)
3.89806000000000e+009	(-2.87846093519589e+001dB,-6.32278700034105e+001°)
3.91805000000000e+009	(-2.89026956315093e+001dB,-6.74717931846185e+001°)
3.93804000000000e+009	(-2.90248012626695e+001dB,-7.16037945776283e+001°)
3.95803000000000e+009	(-2.91494155219539e+001dB,-7.56240039587497e+001°)
3.97802000000000e+009	(-2.92758230011341e+001dB,-7.95308583539676e+001°)
3.99801000000000e+009	(-2.94044296647339e+001dB,-8.33137141256155e+001°)
4.01800000000000e+009	(-2.95358049803300e+001dB,-8.69338887009945e+001°)
4.03799000000000e+009	(-2.96637725360530e+001dB,-9.03026939053406e+001°)
4.05798000000000e+009	(-2.97595653961881e+001dB,-9.33456703693798e+001°)
4.07797000000000e+009	(-2.97801802448744e+001dB,-9.62621930578791e+001°)
4.09796000000000e+009	(-2.97381452033632e+001dB,-9.94917285586938e+001°)
4.11795000000000e+009	(-2.96959442216776e+001dB,-1.03118843543988e+002°)
4.13794000000000e+009	(-2.96822069987590e+001dB,-1.06912219797228e+002°)
4.15793000000000e+009	(-2.96911796293189e+001dB,-1.10698843110692e+002°)
4.17792000000000e+009	(-2.97109434314637e+001dB,-1.14417780840019e+002°)
4.19791000000000e+009	(-2.97328214411298e+001dB,-1.18061551762127e+002°)
4.21790000000000e+009	(-2.97515693660011e+001dB,-1.21640145164010e+002°)
4.23789000000000e+009	(-2.97641563689501e+001dB,-1.25167509891641e+002°)
4.25788000000000e+009	(-2.97688526260337e+001dB,-1.28657356952313e+002°)
4.27787000000000e+009	(-2.97646947144999e+001dB,-1.32122124974408e+002°)
4.29786000000000e+009	(-2.97511883105089e+001dB,-1.35572916651368e+002°)
4.31785000000000e+009	(-2.97281430517869e+001dB,-1.39019685413936e+002°)
4.33784000000000e+009	(-2.96955795694121e+001dB,-1.42471447980150e+002°)
4.35783000000000e+009	(-2.96536764013252e+001dB,-1.45936460889783e+002°)
4.37782000000000e+009	(-2.96027394420993e+001dB,-1.49422350382807e+002°)
4.39781000000000e+009	(-2.95431844181639e+001dB,-1.52936199516233e+002°)
4.41780000000000e+009	(-2.94755269954664e+001dB,-1.56484599159048e+002°)
4.43779000000000e+009	(-2.94003773137701e+001dB,-1.60073668833725e+002°)
4.45778000000000e+009	(-2.93184369132407e+001dB,-1.63709052058237e+002°)
4.47777000000000e+009	(-2.92304966460363e+001dB,-1.67395889754393e+002°)
4.49776000000000e+009	(-2.91374344972551e+001dB,-1.71138774660355e+002°)
4.51775000000000e+009	(-2.90402124133197e+001dB,-1.74941689550258e+002°)
4.53774000000000e+009	(-2.89398713336885e+001dB,-1.78807932396829e+002°)
4.55773000000000e+009	(-2.88375236986735e+001dB,1.77259967632079e+002°)
4.57772000000000e+009	(-2.87343428046963e+001dB,1.73260338345851e+002°)
4.59771000000000e+009	(-2.86315485354614e+001dB,1.69192450532422e+002°)
4.61770000000000e+009	(-2.85303892461747e+001dB,1.65056594057504e+002°)
4.63769000000000e+009	(-2.84321199442245e+001dB,1.60854135181915e+002°)
4.65768000000000e+009	(-2.83379774055281e+001dB,1.56587545728238e+002°)
4.67767000000000e+009	(-2.82491534757617e+001dB,1.52260395443937e+002°)
4.69766000000000e+009	(-2.81667684694946e+001dB,1.47877301450217e+002°)
4.71765000000000e+009	(-2.80918471728055e+001dB,1.43443833581186e+002°)
4.73764000000000e+009	(-2.80253002780955e+001dB,1.38966381882958e+002°)
4.75763000000000e+009	(-2.79679138894948e+001dB,1.34452001938639e+002°)
4.77762000000000e+009	(-2.79203488389985e+001dB,1.29908263257287e+002°)
4.79761000000000e+009	(-2.78831499704686e+001dB,1.25343133107596e+002°)
4.81760000000000e+009	(-2.78567636661822e+001dB,1.20764931113795e+002°)
4.83759000000000e+009	(-2.78415603081985e+001dB,1.16182391007752e+002°)
4.85758000000000e+009	(-2.78378570671620e+001dB,1.11604874799437e+002°)
4.87757000000000e+009	(-2.78459329583607e+001dB,1.07042816472702e+002°)
4.89756000000000e+009	(-2.78660149131541e+001dB,1.02508531927226e+002°)
4.91755000000000e+009	(-2.78981752246675e+001dB,9.80175622308364e+001°)
4.93754000000000e+009	(-2.79419985465333e+001dB,9.35904575603343e+001°)
4.95753000000000e+009	(-2.79957811045560e+001dB,8.92536266452486e+001°)
4.97752000000000e+009	(-2.80552012858626e+001dB,8.50346533713833e+001°)
4.99751000000000e+009	(-2.81125857877973e+001dB,8.09454734506251e+001°)
5.01750000000000e+009	(-2.81595530186588e+001dB,7.69608956480413e+001°)
5.03749000000000e+009	(-2.81924040283129e+001dB,7.30269645383197e+001°)
5.05748000000000e+009	(-2.82125277794616e+001dB,6.90972365398499e+001°)
5.07747000000000e+009	(-2.82232714590875e+001dB,6.51368558803037e+001°)
5.09746000000000e+009	(-2.82310536699050e+001dB,6.11255417217636e+001°)
5.11745000000000e+009	(-2.82423815062823e+001dB,5.70800863456250e+001°)
5.13744000000000e+009	(-2.82592608955678e+001dB,5.30346761019204e+001°)
5.15743000000000e+009	(-2.82803527235856e+001dB,4.90137916440453e+001°)
5.17742000000000e+009	(-2.83034716482142e+001dB,4.50283875348479e+001°)
5.19741000000000e+009	(-2.83266846965890e+001dB,4.10810558114353e+001°)
5.21740000000000e+009	(-2.83485176394803e+001dB,3.71703261124284e+001°)
5.23739000000000e+009	(-2.83678920057252e+001dB,3.32929601139797e+001°)
5.25738000000000e+009	(-2.83840259414872e+001dB,2.94450277594107e+001°)
5.27737000000000e+009	(-2.83963546528934e+001dB,2.56223936384810e+001°)
5.29736000000000e+009	(-2.84044747729114e+001dB,2.18209375422185e+001°)
5.31735000000000e+009	(-2.84081065280617e+001dB,1.80366583231138e+001°)
5.33734000000000e+009	(-2.84070675014523e+001dB,1.42657268483870e+001°)
5.35733000000000e+009	(-2.84012535576398e+001dB,1.05045160876939e+001°)
5.37732000000000e+009	(-2.83906241085660e+001dB,6.74961961883402e+000°)
5.39731000000000e+009	(-2.83751900458915e+001dB,2.99786264118777e+000°)
5.41730000000000e+009	(-2.83550034044030e+001dB,-7.53693243095982e-001°)
