Freq.	V(d_3p)
2.00000000000000e+007	(-7.95640644444433e+000dB,-4.92987646635036e-001°)
3.99900000000000e+007	(-7.96539770123959e+000dB,-8.94145573610741e-001°)
5.99800000000000e+007	(-7.96936118078300e+000dB,-1.28433865180078e+000°)
7.99700000000000e+007	(-7.97145956872414e+000dB,-1.67769054060338e+000°)
9.99600000000000e+007	(-7.97286751027787e+000dB,-2.07354549284733e+000°)
1.19950000000000e+008	(-7.97397560405807e+000dB,-2.47050057585454e+000°)
1.39940000000000e+008	(-7.97491599604279e+000dB,-2.86760490075244e+000°)
1.59930000000000e+008	(-7.97572593302505e+000dB,-3.26428052982983e+000°)
1.79920000000000e+008	(-7.97640443415412e+000dB,-3.66019354891523e+000°)
1.99910000000000e+008	(-7.97693481715625e+000dB,-4.05516954800174e+000°)
2.19900000000000e+008	(-7.97729476288659e+000dB,-4.44914117405548e+000°)
2.39890000000000e+008	(-7.97746118748425e+000dB,-4.84211416171734e+000°)
2.59880000000000e+008	(-7.97741267134659e+000dB,-5.23414407065934e+000°)
2.79870000000000e+008	(-7.97713061647000e+000dB,-5.62531964954033e+000°)
2.99860000000000e+008	(-7.97659969439699e+000dB,-6.01575064575125e+000°)
3.19850000000000e+008	(-7.97580788620464e+000dB,-6.40555881277177e+000°)
3.39840000000000e+008	(-7.97474629114578e+000dB,-6.79487132636353e+000°)
3.59830000000000e+008	(-7.97340881343602e+000dB,-7.18381605725713e+000°)
3.79820000000000e+008	(-7.97179179661180e+000dB,-7.57251828168841e+000°)
3.99810000000000e+008	(-7.96989364909618e+000dB,-7.96109849777756e+000°)
4.19800000000000e+008	(-7.96771448732522e+000dB,-8.34967107997264e+000°)
4.39790000000000e+008	(-7.96525581107765e+000dB,-8.73834355585823e+000°)
4.59780000000000e+008	(-7.96252021781675e+000dB,-9.12721633352263e+000°)
4.79770000000000e+008	(-7.95951115776673e+000dB,-9.51638274484019e+000°)
4.99760000000000e+008	(-7.95623272831074e+000dB,-9.90592930111494e+000°)
5.19750000000000e+008	(-7.95268950451788e+000dB,-1.02959360830486e+001°)
5.39740000000000e+008	(-7.94888640174749e+000dB,-1.06864772075149e+001°)
5.59730000000000e+008	(-7.94482856601637e+000dB,-1.10776213297786e+001°)
5.79720000000000e+008	(-7.94052128792142e+000dB,-1.14694321522720e+001°)
5.99710000000000e+008	(-7.93596993622722e+000dB,-1.18619689204887e+001°)
6.19700000000000e+008	(-7.93117990764724e+000dB,-1.22552868935630e+001°)
6.39690000000000e+008	(-7.92615658980074e+000dB,-1.26494377822128e+001°)
6.59680000000000e+008	(-7.92090533477292e+000dB,-1.30444701503526e+001°)
6.79670000000000e+008	(-7.91543144111912e+000dB,-1.34404297792040e+001°)
6.99660000000000e+008	(-7.90974014252232e+000dB,-1.38373599944197e+001°)
7.19650000000000e+008	(-7.90383660163639e+000dB,-1.42353019578225e+001°)
7.39640000000000e+008	(-7.89772590792096e+000dB,-1.46342949260055e+001°)
7.59630000000000e+008	(-7.89141307850555e+000dB,-1.50343764783789e+001°)
7.79620000000000e+008	(-7.88490306131303e+000dB,-1.54355827173800e+001°)
7.99610000000000e+008	(-7.87820073983009e+000dB,-1.58379484435435e+001°)
8.19600000000000e+008	(-7.87131093904169e+000dB,-1.62415073080284e+001°)
8.39590000000000e+008	(-7.86423843215165e+000dB,-1.66462919450363e+001°)
8.59580000000000e+008	(-7.85698794779606e+000dB,-1.70523340863689e+001°)
8.79570000000000e+008	(-7.84956417752240e+000dB,-1.74596646601696e+001°)
8.99560000000000e+008	(-7.84197178336348e+000dB,-1.78683138756941e+001°)
9.19550000000000e+008	(-7.83421540537641e+000dB,-1.82783112957626e+001°)
9.39540000000000e+008	(-7.82629966905072e+000dB,-1.86896858983595e+001°)
9.59530000000000e+008	(-7.81822919251720e+000dB,-1.91024661286833e+001°)
9.79520000000000e+008	(-7.81000859350876e+000dB,-1.95166799427905e+001°)
9.99510000000000e+008	(-7.80164249604057e+000dB,-1.99323548438418e+001°)
1.01950000000000e+009	(-7.79313553678953e+000dB,-2.03495179118352e+001°)
1.03949000000000e+009	(-7.78449237116225e+000dB,-2.07681958275969e+001°)
1.05948000000000e+009	(-7.77571767904715e+000dB,-2.11884148917083e+001°)
1.07947000000000e+009	(-7.76681617025246e+000dB,-2.16102010389569e+001°)
1.09946000000000e+009	(-7.75779258963414e+000dB,-2.20335798488247e+001°)
1.11945000000000e+009	(-7.74865172192224e+000dB,-2.24585765524638e+001°)
1.13944000000000e+009	(-7.73939839625394e+000dB,-2.28852160365489e+001°)
1.15943000000000e+009	(-7.73003749042379e+000dB,-2.33135228443429e+001°)
1.17942000000000e+009	(-7.72057393486218e+000dB,-2.37435211742773e+001°)
1.19941000000000e+009	(-7.71101271635188e+000dB,-2.41752348762981e+001°)
1.21940000000000e+009	(-7.70135888149460e+000dB,-2.46086874462055e+001°)
1.23939000000000e+009	(-7.69161753993691e+000dB,-2.50439020181817e+001°)
1.25938000000000e+009	(-7.68179386736536e+000dB,-2.54809013556756e+001°)
1.27937000000000e+009	(-7.67189310828044e+000dB,-2.59197078407950e+001°)
1.29936000000000e+009	(-7.66192057855727e+000dB,-2.63603434623337e+001°)
1.31935000000000e+009	(-7.65188166780094e+000dB,-2.68028298025506e+001°)
1.33934000000000e+009	(-7.64178184150341e+000dB,-2.72471880227973e+001°)
1.35933000000000e+009	(-7.63162664300797e+000dB,-2.76934388480843e+001°)
1.37932000000000e+009	(-7.62142169528687e+000dB,-2.81416025506635e+001°)
1.39931000000000e+009	(-7.61117270253664e+000dB,-2.85916989326950e+001°)
1.41930000000000e+009	(-7.60088545159505e+000dB,-2.90437473080617e+001°)
1.43929000000000e+009	(-7.59056581318330e+000dB,-2.94977664833859e+001°)
1.45928000000000e+009	(-7.58021974297543e+000dB,-2.99537747382989e+001°)
1.47927000000000e+009	(-7.56985328249765e+000dB,-3.04117898050105e+001°)
1.49926000000000e+009	(-7.55947255985880e+000dB,-3.08718288472204e+001°)
1.51925000000000e+009	(-7.54908379031270e+000dB,-3.13339084384112e+001°)
1.53924000000000e+009	(-7.53869327665302e+000dB,-3.17980445395622e+001°)
1.55923000000000e+009	(-7.52830740944072e+000dB,-3.22642524763184e+001°)
1.57922000000000e+009	(-7.51793266706313e+000dB,-3.27325469156512e+001°)
1.59921000000000e+009	(-7.50757561562482e+000dB,-3.32029418420456e+001°)
1.61920000000000e+009	(-7.49724290866800e+000dB,-3.36754505332457e+001°)
1.63919000000000e+009	(-7.48694128672168e+000dB,-3.41500855355957e+001°)
1.65918000000000e+009	(-7.47667757667754e+000dB,-3.46268586390083e+001°)
1.67917000000000e+009	(-7.46645869099098e+000dB,-3.51057808515983e+001°)
1.69916000000000e+009	(-7.45629162670433e+000dB,-3.55868623740144e+001°)
1.71915000000000e+009	(-7.44618346429107e+000dB,-3.60701125735091e+001°)
1.73914000000000e+009	(-7.43614136631733e+000dB,-3.65555399577833e+001°)
1.75913000000000e+009	(-7.42617257591936e+000dB,-3.70431521486465e+001°)
1.77912000000000e+009	(-7.41628441509320e+000dB,-3.75329558555327e+001°)
1.79911000000000e+009	(-7.40648428279512e+000dB,-3.80249568489168e+001°)
1.81910000000000e+009	(-7.39677965284891e+000dB,-3.85191599336746e+001°)
1.83909000000000e+009	(-7.38717807165912e+000dB,-3.90155689224355e+001°)
1.85908000000000e+009	(-7.37768715572573e+000dB,-3.95141866089735e+001°)
1.87907000000000e+009	(-7.36831458895996e+000dB,-4.00150147416902e+001°)
1.89906000000000e+009	(-7.35906811979753e+000dB,-4.05180539972414e+001°)
1.91905000000000e+009	(-7.34995555810811e+000dB,-4.10233039543618e+001°)
1.93904000000000e+009	(-7.34098477189898e+000dB,-4.15307630679456e+001°)
1.95903000000000e+009	(-7.33216368381125e+000dB,-4.20404286434413e+001°)
1.97902000000000e+009	(-7.32350026740785e+000dB,-4.25522968116226e+001°)
1.99901000000000e+009	(-7.31500254325174e+000dB,-4.30663625037973e+001°)
2.01900000000000e+009	(-7.30667857477440e+000dB,-4.35826194275190e+001°)
2.03899000000000e+009	(-7.29853646393418e+000dB,-4.41010600428706e+001°)
2.05898000000000e+009	(-7.29058434666466e+000dB,-4.46216755393837e+001°)
2.07897000000000e+009	(-7.28283038811436e+000dB,-4.51444558136688e+001°)
2.09896000000000e+009	(-7.27528277767823e+000dB,-4.56693894478234e+001°)
2.11895000000000e+009	(-7.26794972382342e+000dB,-4.61964636886937e+001°)
2.13894000000000e+009	(-7.26083944871101e+000dB,-4.67256644280609e+001°)
2.15893000000000e+009	(-7.25396018261739e+000dB,-4.72569761838299e+001°)
2.17892000000000e+009	(-7.24732015815786e+000dB,-4.77903820822939e+001°)
2.19891000000000e+009	(-7.24092760431740e+000dB,-4.83258638415498e+001°)
2.21890000000000e+009	(-7.23479074029302e+000dB,-4.88634017561434e+001°)
2.23889000000000e+009	(-7.22891776915297e+000dB,-4.94029746830179e+001°)
2.25888000000000e+009	(-7.22331687131968e+000dB,-4.99445600288429e+001°)
2.27887000000000e+009	(-7.21799619788228e+000dB,-5.04881337387982e+001°)
2.29886000000000e+009	(-7.21296386374728e+000dB,-5.10336702868871e+001°)
2.31885000000000e+009	(-7.20822794063495e+000dB,-5.15811426678531e+001°)
2.33884000000000e+009	(-7.20379644993089e+000dB,-5.21305223907700e+001°)
2.35883000000000e+009	(-7.19967735540242e+000dB,-5.26817794743754e+001°)
2.37882000000000e+009	(-7.19587855579031e+000dB,-5.32348824442173e+001°)
2.39881000000000e+009	(-7.19240787728702e+000dB,-5.37897983316744e+001°)
2.41880000000000e+009	(-7.18927306591356e+000dB,-5.43464926749175e+001°)
2.43879000000000e+009	(-7.18648177980749e+000dB,-5.49049295218646e+001°)
2.45878000000000e+009	(-7.18404158143549e+000dB,-5.54650714351908e+001°)
2.47877000000000e+009	(-7.18195992974449e+000dB,-5.60268794994394e+001°)
2.49876000000000e+009	(-7.18024417226608e+000dB,-5.65903133302831e+001°)
2.51875000000000e+009	(-7.17890153718927e+000dB,-5.71553310859773e+001°)
2.53874000000000e+009	(-7.17793912541779e+000dB,-5.77218894810415e+001°)
2.55873000000000e+009	(-7.17736390262791e+000dB,-5.82899438022002e+001°)
2.57872000000000e+009	(-7.17718269134400e+000dB,-5.88594479266119e+001°)
2.59871000000000e+009	(-7.17740216304881e+000dB,-5.94303543424010e+001°)
2.61870000000000e+009	(-7.17802883034635e+000dB,-6.00026141715122e+001°)
2.63869000000000e+009	(-7.17906903919547e+000dB,-6.05761771948877e+001°)
2.65868000000000e+009	(-7.18052896123224e+000dB,-6.11509918799758e+001°)
2.67867000000000e+009	(-7.18241458619970e+000dB,-6.17270054105553e+001°)
2.69866000000000e+009	(-7.18473171450363e+000dB,-6.23041637188692e+001°)
2.71865000000000e+009	(-7.18748594991301e+000dB,-6.28824115200411e+001°)
2.73864000000000e+009	(-7.19068269242408e+000dB,-6.34616923487509e+001°)
2.75863000000000e+009	(-7.19432713130632e+000dB,-6.40419485981288e+001°)
2.77862000000000e+009	(-7.19842423834874e+000dB,-6.46231215608269e+001°)
2.79861000000000e+009	(-7.20297876132537e+000dB,-6.52051514722181e+001°)
2.81860000000000e+009	(-7.20799521769705e+000dB,-6.57879775556595e+001°)
2.83859000000000e+009	(-7.21347788856741e+000dB,-6.63715380697599e+001°)
2.85858000000000e+009	(-7.21943081291034e+000dB,-6.69557703575736e+001°)
2.87857000000000e+009	(-7.22585778208488e+000dB,-6.75406108976413e+001°)
2.89856000000000e+009	(-7.23276233465384e+000dB,-6.81259953567916e+001°)
2.91855000000000e+009	(-7.24014775152114e+000dB,-6.87118586446081e+001°)
2.93854000000000e+009	(-7.24801705140238e+000dB,-6.92981349694607e+001°)
2.95853000000000e+009	(-7.25637298664181e+000dB,-6.98847578959966e+001°)
2.97852000000000e+009	(-7.26521803938883e+000dB,-7.04716604039751e+001°)
2.99851000000000e+009	(-7.27455441814529e+000dB,-7.10587749483317e+001°)
3.01850000000000e+009	(-7.28438405469434e+000dB,-7.16460335203465e+001°)
3.03849000000000e+009	(-7.29470860142012e+000dB,-7.22333677097906e+001°)
3.05848000000000e+009	(-7.30552942902708e+000dB,-7.28207087679169e+001°)
3.07847000000000e+009	(-7.31684762466564e+000dB,-7.34079876711642e+001°)
3.09846000000000e+009	(-7.32866399047043e+000dB,-7.39951351854358e+001°)
3.11845000000000e+009	(-7.34097904251562e+000dB,-7.45820819308054e+001°)
3.13844000000000e+009	(-7.35379301019089e+000dB,-7.51687584465221e+001°)
3.15843000000000e+009	(-7.36710583600004e+000dB,-7.57550952561566e+001°)
3.17842000000000e+009	(-7.38091717578348e+000dB,-7.63410229327545e+001°)
3.19841000000000e+009	(-7.39522639936296e+000dB,-7.69264721638465e+001°)
3.21840000000000e+009	(-7.41003259160826e+000dB,-7.75113738161776e+001°)
3.23839000000000e+009	(-7.42533455392148e+000dB,-7.80956590000071e+001°)
3.25838000000000e+009	(-7.44113080613519e+000dB,-7.86792591328407e+001°)
3.27837000000000e+009	(-7.45741958881824e+000dB,-7.92621060024594e+001°)
3.29836000000000e+009	(-7.47419886598335e+000dB,-7.98441318291028e+001°)
3.31835000000000e+009	(-7.49146632818665e+000dB,-8.04252693266811e+001°)
3.33834000000000e+009	(-7.50921939601188e+000dB,-8.10054517628811e+001°)
3.35833000000000e+009	(-7.52745522392731e+000dB,-8.15846130180490e+001°)
3.37832000000000e+009	(-7.54617070450499e+000dB,-8.21626876427230e+001°)
3.39831000000000e+009	(-7.56536247298919e+000dB,-8.27396109137075e+001°)
3.41830000000000e+009	(-7.58502691220118e+000dB,-8.33153188885768e+001°)
3.43829000000000e+009	(-7.60516015776604e+000dB,-8.38897484585092e+001°)
3.45828000000000e+009	(-7.62575810364589e+000dB,-8.44628373993514e+001°)
3.47827000000000e+009	(-7.64681640796504e+000dB,-8.50345244208273e+001°)
3.49826000000000e+009	(-7.66833049910922e+000dB,-8.56047492138065e+001°)
3.51825000000000e+009	(-7.69029558208289e+000dB,-8.61734524955579e+001°)
3.53824000000000e+009	(-7.71270664510672e+000dB,-8.67405760529206e+001°)
3.55823000000000e+009	(-7.73555846643773e+000dB,-8.73060627833290e+001°)
3.57822000000000e+009	(-7.75884562139326e+000dB,-8.78698567336439e+001°)
3.59821000000000e+009	(-7.78256248956063e+000dB,-8.84319031367357e+001°)
3.61820000000000e+009	(-7.80670326217416e+000dB,-8.89921484457918e+001°)
3.63819000000000e+009	(-7.83126194963994e+000dB,-8.95505403663066e+001°)
3.65818000000000e+009	(-7.85623238919012e+000dB,-9.01070278857396e+001°)
3.67817000000000e+009	(-7.88160825264801e+000dB,-9.06615613008222e+001°)
3.69816000000000e+009	(-7.90738305428486e+000dB,-9.12140922425014e+001°)
3.71815000000000e+009	(-7.93355015875015e+000dB,-9.17645736985272e+001°)
3.73814000000000e+009	(-7.96010278905735e+000dB,-9.23129600336772e+001°)
3.75813000000000e+009	(-7.98703403460672e+000dB,-9.28592070076432e+001°)
3.77812000000000e+009	(-8.01433685922800e+000dB,-9.34032717905853e+001°)
3.79811000000000e+009	(-8.04200410922578e+000dB,-9.39451129763900e+001°)
3.81810000000000e+009	(-8.07002852141077e+000dB,-9.44846905936519e+001°)
3.83809000000000e+009	(-8.09840273110088e+000dB,-9.50219661144216e+001°)
3.85808000000000e+009	(-8.12711928007666e+000dB,-9.55569024607594e+001°)
3.87807000000000e+009	(-8.15617062447587e+000dB,-9.60894640091365e+001°)
3.89806000000000e+009	(-8.18554914261295e+000dB,-9.66196165927422e+001°)
3.91805000000000e+009	(-8.21524714270989e+000dB,-9.71473275017436e+001°)
3.93804000000000e+009	(-8.24525687052495e+000dB,-9.76725654815605e+001°)
3.95803000000000e+009	(-8.27557051686762e+000dB,-9.81953007292167e+001°)
3.97802000000000e+009	(-8.30618022498748e+000dB,-9.87155048878353e+001°)
3.99801000000000e+009	(-8.33707809782683e+000dB,-9.92331510393394e+001°)
4.01800000000000e+009	(-8.36825620512648e+000dB,-9.97482136954360e+001°)
4.03799000000000e+009	(-8.39970659037552e+000dB,-1.00260668786952e+002°)
4.05798000000000e+009	(-8.43142127759629e+000dB,-1.00770493651596e+002°)
4.07797000000000e+009	(-8.46339227795711e+000dB,-1.01277667020226e+002°)
4.09796000000000e+009	(-8.49561159620518e+000dB,-1.01782169001691e+002°)
4.11795000000000e+009	(-8.52807123691340e+000dB,-1.02283981066340e+002°)
4.13794000000000e+009	(-8.56076321053566e+000dB,-1.02783086028257e+002°)
4.15793000000000e+009	(-8.59367953926533e+000dB,-1.03279468026318e+002°)
4.17792000000000e+009	(-8.62681226269302e+000dB,-1.03773112504136e+002°)
4.19791000000000e+009	(-8.66015344325982e+000dB,-1.04264006188985e+002°)
4.21790000000000e+009	(-8.69369517150317e+000dB,-1.04752137069769e+002°)
4.23789000000000e+009	(-8.72742957109331e+000dB,-1.05237494374118e+002°)
4.25788000000000e+009	(-8.76134880365826e+000dB,-1.05720068544690e+002°)
4.27787000000000e+009	(-8.79544507339694e+000dB,-1.06199851214749e+002°)
4.29786000000000e+009	(-8.82971063147896e+000dB,-1.06676835183103e+002°)
4.31785000000000e+009	(-8.86413778023277e+000dB,-1.07151014388455e+002°)
4.33784000000000e+009	(-8.89871887712090e+000dB,-1.07622383883263e+002°)
4.35783000000000e+009	(-8.93344633850488e+000dB,-1.08090939807152e+002°)
4.37782000000000e+009	(-8.96831264320105e+000dB,-1.08556679359974e+002°)
4.39781000000000e+009	(-9.00331033582878e+000dB,-1.09019600774548e+002°)
4.41780000000000e+009	(-9.03843202995436e+000dB,-1.09479703289173e+002°)
4.43779000000000e+009	(-9.07367041103306e+000dB,-1.09936987119957e+002°)
4.45778000000000e+009	(-9.10901823915219e+000dB,-1.10391453433026e+002°)
4.47777000000000e+009	(-9.14446835157995e+000dB,-1.10843104316670e+002°)
4.49776000000000e+009	(-9.18001366512256e+000dB,-1.11291942753478e+002°)
4.51775000000000e+009	(-9.21564717829468e+000dB,-1.11737972592510e+002°)
4.53774000000000e+009	(-9.25136197330750e+000dB,-1.12181198521566e+002°)
4.55773000000000e+009	(-9.28715121787900e+000dB,-1.12621626039587e+002°)
4.57772000000000e+009	(-9.32300816687150e+000dB,-1.13059261429230e+002°)
4.59771000000000e+009	(-9.35892616376111e+000dB,-1.13494111729676e+002°)
4.61770000000000e+009	(-9.39489864194530e+000dB,-1.13926184709683e+002°)
4.63769000000000e+009	(-9.43091912589283e+000dB,-1.14355488840946e+002°)
4.65768000000000e+009	(-9.46698123214244e+000dB,-1.14782033271782e+002°)
4.67767000000000e+009	(-9.50307867015545e+000dB,-1.15205827801168e+002°)
4.69766000000000e+009	(-9.53920524302813e+000dB,-1.15626882853179e+002°)
4.71765000000000e+009	(-9.57535484806986e+000dB,-1.16045209451830e+002°)
4.73764000000000e+009	(-9.61152147725201e+000dB,-1.16460819196363e+002°)
4.75763000000000e+009	(-9.64769921753421e+000dB,-1.16873724236988e+002°)
4.77762000000000e+009	(-9.68388225107359e+000dB,-1.17283937251106e+002°)
4.79761000000000e+009	(-9.72006485532235e+000dB,-1.17691471420026e+002°)
4.81760000000000e+009	(-9.75624140301972e+000dB,-1.18096340406187e+002°)
4.83759000000000e+009	(-9.79240636208401e+000dB,-1.18498558330908e+002°)
4.85758000000000e+009	(-9.82855429541031e+000dB,-1.18898139752668e+002°)
4.87757000000000e+009	(-9.86467986057899e+000dB,-1.19295099645925e+002°)
4.89756000000000e+009	(-9.90077780948108e+000dB,-1.19689453380483e+002°)
4.91755000000000e+009	(-9.93684298786514e+000dB,-1.20081216701410e+002°)
4.93754000000000e+009	(-9.97287033481133e+000dB,-1.20470405709514e+002°)
4.95753000000000e+009	(-1.00088548821374e+001dB,-1.20857036842367e+002°)
4.97752000000000e+009	(-1.00447917537415e+001dB,-1.21241126855898e+002°)
4.99751000000000e+009	(-1.00806761648872e+001dB,-1.21622692806527e+002°)
5.01750000000000e+009	(-1.01165034214337e+001dB,-1.22001752033859e+002°)
5.03749000000000e+009	(-1.01522689190180e+001dB,-1.22378322143922e+002°)
5.05748000000000e+009	(-1.01879681421910e+001dB,-1.22752420992944e+002°)
5.07747000000000e+009	(-1.02235966635133e+001dB,-1.23124066671673e+002°)
5.09746000000000e+009	(-1.02591501426134e+001dB,-1.23493277490220e+002°)
5.11745000000000e+009	(-1.02946243252128e+001dB,-1.23860071963417e+002°)
5.13744000000000e+009	(-1.03300150421217e+001dB,-1.24224468796698e+002°)
5.15743000000000e+009	(-1.03653182082073e+001dB,-1.24586486872470e+002°)
5.17742000000000e+009	(-1.04005298213399e+001dB,-1.24946145236978e+002°)
5.19741000000000e+009	(-1.04356459613178e+001dB,-1.25303463087652e+002°)
5.21740000000000e+009	(-1.04706627887758e+001dB,-1.25658459760918e+002°)
5.23739000000000e+009	(-1.05055765440777e+001dB,-1.26011154720474e+002°)
5.25738000000000e+009	(-1.05403835461978e+001dB,-1.26361567545997e+002°)
5.27737000000000e+009	(-1.05750801915912e+001dB,-1.26709717922295e+002°)
5.29736000000000e+009	(-1.06096629530571e+001dB,-1.27055625628877e+002°)
5.31735000000000e+009	(-1.06441283785957e+001dB,-1.27399310529919e+002°)
5.33734000000000e+009	(-1.06784730902616e+001dB,-1.27740792564645e+002°)
5.35733000000000e+009	(-1.07126937830140e+001dB,-1.28080091738072e+002°)
5.37732000000000e+009	(-1.07467872235668e+001dB,-1.28417228112136e+002°)
5.39731000000000e+009	(-1.07807502492391e+001dB,-1.28752221797174e+002°)
5.41730000000000e+009	(-1.08145797668069e+001dB,-1.29085092943751e+002°)
5.43729000000000e+009	(-1.08482727513586e+001dB,-1.29415861734820e+002°)
5.45728000000000e+009	(-1.08818262451535e+001dB,-1.29744548378205e+002°)
