Freq.	V(d_3p)
2.00000000000000e+007	(-7.90477587062103e+000dB,-2.22408766473508e-001°)
3.99900000000000e+007	(-7.90621623489259e+000dB,-4.08808358461792e-001°)
5.99800000000000e+007	(-7.90597188357671e+000dB,-6.02205126408229e-001°)
7.99700000000000e+007	(-7.90562349799402e+000dB,-8.01900946843467e-001°)
9.99600000000000e+007	(-7.90574080919817e+000dB,-1.00483831265855e+000°)
1.19950000000000e+008	(-7.90645355666808e+000dB,-1.20805039922658e+000°)
1.39940000000000e+008	(-7.90766093195793e+000dB,-1.40936136825579e+000°)
1.59930000000000e+008	(-7.90916117941827e+000dB,-1.60754549464258e+000°)
1.79920000000000e+008	(-7.91073499563852e+000dB,-1.80221414129992e+000°)
1.99910000000000e+008	(-7.91219373688413e+000dB,-1.99359182036971e+000°)
2.19900000000000e+008	(-7.91340166689558e+000dB,-2.18227332208456e+000°)
2.39890000000000e+008	(-7.91428016717405e+000dB,-2.36901060745418e+000°)
2.59880000000000e+008	(-7.91480067687431e+000dB,-2.55455304359820e+000°)
2.79870000000000e+008	(-7.91497208635836e+000dB,-2.73954727666418e+000°)
2.99860000000000e+008	(-7.91482699552676e+000dB,-2.92449046246532e+000°)
3.19850000000000e+008	(-7.91440966996184e+000dB,-3.10972333343852e+000°)
3.39840000000000e+008	(-7.91376701198512e+000dB,-3.29544777473250e+000°)
3.59830000000000e+008	(-7.91294272105180e+000dB,-3.48175571907290e+000°)
3.79820000000000e+008	(-7.91197415899936e+000dB,-3.66866008816658e+000°)
3.99810000000000e+008	(-7.91089118988328e+000dB,-3.85612245401467e+000°)
4.19800000000000e+008	(-7.90971628286235e+000dB,-4.04407514569854e+000°)
4.39790000000000e+008	(-7.90846530911466e+000dB,-4.23243747251148e+000°)
4.59780000000000e+008	(-7.90714863454038e+000dB,-4.42112674898235e+000°)
4.79770000000000e+008	(-7.90577225981636e+000dB,-4.61006518899936e+000°)
4.99760000000000e+008	(-7.90433887139171e+000dB,-4.79918375571523e+000°)
5.19750000000000e+008	(-7.90284874192509e+000dB,-4.98842390414041e+000°)
5.39740000000000e+008	(-7.90130046408966e+000dB,-5.17773795075017e+000°)
5.59730000000000e+008	(-7.89969152638583e+000dB,-5.36708860904274e+000°)
5.79720000000000e+008	(-7.89801875102628e+000dB,-5.55644806654895e+000°)
5.99710000000000e+008	(-7.89627861753664e+000dB,-5.74579685291133e+000°)
6.19700000000000e+008	(-7.89446749507439e+000dB,-5.93512265698994e+000°)
6.39690000000000e+008	(-7.89258180384541e+000dB,-6.12441918703970e+000°)
6.59680000000000e+008	(-7.89061812270453e+000dB,-6.31368512508435e+000°)
6.79670000000000e+008	(-7.88857325673921e+000dB,-6.50292319883364e+000°)
6.99660000000000e+008	(-7.88644427568721e+000dB,-6.69213937724676e+000°)
7.19650000000000e+008	(-7.88422853154792e+000dB,-6.88134218571715e+000°)
7.39640000000000e+008	(-7.88192366171710e+000dB,-7.07054213138683e+000°)
7.59630000000000e+008	(-7.87952758236722e+000dB,-7.25975122660159e+000°)
7.79620000000000e+008	(-7.87703847554503e+000dB,-7.44898259783926e+000°)
7.99610000000000e+008	(-7.87445477250201e+000dB,-7.63825016782379e+000°)
8.19600000000000e+008	(-7.87177513505044e+000dB,-7.82756839948993e+000°)
8.39590000000000e+008	(-7.86899843619542e+000dB,-8.01695209166993e+000°)
8.59580000000000e+008	(-7.86612374089697e+000dB,-8.20641621766185e+000°)
8.79570000000000e+008	(-7.86315028751984e+000dB,-8.39597579908023e+000°)
8.99560000000000e+008	(-7.86007747032162e+000dB,-8.58564580854695e+000°)
9.19550000000000e+008	(-7.85690482317423e+000dB,-8.77544109580699e+000°)
9.39540000000000e+008	(-7.85363200461107e+000dB,-8.96537633275680e+000°)
9.59530000000000e+008	(-7.85025878421848e+000dB,-9.15546597365057e+000°)
9.79520000000000e+008	(-7.84678503034071e+000dB,-9.34572422740746e+000°)
9.99510000000000e+008	(-7.84321069903802e+000dB,-9.53616503950062e+000°)
1.01950000000000e+009	(-7.83953582421735e+000dB,-9.72680208137348e+000°)
1.03949000000000e+009	(-7.83576050884635e+000dB,-9.91764874571431e+000°)
1.05948000000000e+009	(-7.83188491715785e+000dB,-1.01087181462404e+001°)
1.07947000000000e+009	(-7.82790926775266e+000dB,-1.03000231209074e+001°)
1.09946000000000e+009	(-7.82383382751147e+000dB,-1.04915762376714e+001°)
1.11945000000000e+009	(-7.81965890623159e+000dB,-1.06833898021121e+001°)
1.13944000000000e+009	(-7.81538485191103e+000dB,-1.08754758663647e+001°)
1.15943000000000e+009	(-7.81101204660823e+000dB,-1.10678462389284e+001°)
1.17942000000000e+009	(-7.80654090281253e+000dB,-1.12605124950117e+001°)
1.19941000000000e+009	(-7.80197186026563e+000dB,-1.14534859871489e+001°)
1.21940000000000e+009	(-7.79730538318306e+000dB,-1.16467778558888e+001°)
1.23939000000000e+009	(-7.79254195782765e+000dB,-1.18403990404004e+001°)
1.25938000000000e+009	(-7.78768209039240e+000dB,-1.20343602888804e+001°)
1.27937000000000e+009	(-7.78272630515760e+000dB,-1.22286721686824e+001°)
1.29936000000000e+009	(-7.77767514288740e+000dB,-1.24233450761043e+001°)
1.31935000000000e+009	(-7.77252915943872e+000dB,-1.26183892458004e+001°)
1.33934000000000e+009	(-7.76728892455514e+000dB,-1.28138147597869e+001°)
1.35933000000000e+009	(-7.76195502082560e+000dB,-1.30096315560334e+001°)
1.37932000000000e+009	(-7.75652804278604e+000dB,-1.32058494366332e+001°)
1.39931000000000e+009	(-7.75100859614856e+000dB,-1.34024780755558e+001°)
1.41930000000000e+009	(-7.74539729714160e+000dB,-1.35995270259878e+001°)
1.43929000000000e+009	(-7.73969477194896e+000dB,-1.37970057272750e+001°)
1.45928000000000e+009	(-7.73390165623561e+000dB,-1.39949235114781e+001°)
1.47927000000000e+009	(-7.72801859474965e+000dB,-1.41932896095558e+001°)
1.49926000000000e+009	(-7.72204624099276e+000dB,-1.43921131571937e+001°)
1.51925000000000e+009	(-7.71598525694998e+000dB,-1.45914032002930e+001°)
1.53924000000000e+009	(-7.70983631287307e+000dB,-1.47911687001369e+001°)
1.55923000000000e+009	(-7.70360008711049e+000dB,-1.49914185382505e+001°)
1.57922000000000e+009	(-7.69727726598019e+000dB,-1.51921615209705e+001°)
1.59921000000000e+009	(-7.69086854367857e+000dB,-1.53934063837388e+001°)
1.61920000000000e+009	(-7.68437462222352e+000dB,-1.55951617951361e+001°)
1.63919000000000e+009	(-7.67779621142709e+000dB,-1.57974363606697e+001°)
1.65918000000000e+009	(-7.67113402889410e+000dB,-1.60002386263253e+001°)
1.67917000000000e+009	(-7.66438880004522e+000dB,-1.62035770819005e+001°)
1.69916000000000e+009	(-7.65756125816137e+000dB,-1.64074601641276e+001°)
1.71915000000000e+009	(-7.65065214444661e+000dB,-1.66118962595972e+001°)
1.73914000000000e+009	(-7.64366220810951e+000dB,-1.68168937074957e+001°)
1.75913000000000e+009	(-7.63659220645896e+000dB,-1.70224608021612e+001°)
1.77912000000000e+009	(-7.62944290501517e+000dB,-1.72286057954719e+001°)
1.79911000000000e+009	(-7.62221507763230e+000dB,-1.74353368990700e+001°)
1.81910000000000e+009	(-7.61490950663397e+000dB,-1.76426622864347e+001°)
1.83909000000000e+009	(-7.60752698295834e+000dB,-1.78505900948041e+001°)
1.85908000000000e+009	(-7.60006830631291e+000dB,-1.80591284269596e+001°)
1.87907000000000e+009	(-7.59253428533861e+000dB,-1.82682853528736e+001°)
1.89906000000000e+009	(-7.58492573778110e+000dB,-1.84780689112284e+001°)
1.91905000000000e+009	(-7.57724349067002e+000dB,-1.86884871108117e+001°)
1.93904000000000e+009	(-7.56948838050398e+000dB,-1.88995479317912e+001°)
1.95903000000000e+009	(-7.56166125344276e+000dB,-1.91112593268762e+001°)
1.97902000000000e+009	(-7.55376296550391e+000dB,-1.93236292223661e+001°)
1.99901000000000e+009	(-7.54579438276505e+000dB,-1.95366655190926e+001°)
2.01900000000000e+009	(-7.53775638157091e+000dB,-1.97503760932586e+001°)
2.03899000000000e+009	(-7.52964984874378e+000dB,-1.99647687971738e+001°)
2.05898000000000e+009	(-7.52147568179892e+000dB,-2.01798514598958e+001°)
2.07897000000000e+009	(-7.51323478916223e+000dB,-2.03956318877724e+001°)
2.09896000000000e+009	(-7.50492809039229e+000dB,-2.06121178648929e+001°)
2.11895000000000e+009	(-7.49655651640430e+000dB,-2.08293171534482e+001°)
2.13894000000000e+009	(-7.48812100969713e+000dB,-2.10472374940014e+001°)
2.15893000000000e+009	(-7.47962252458267e+000dB,-2.12658866056729e+001°)
2.17892000000000e+009	(-7.47106202741680e+000dB,-2.14852721862378e+001°)
2.19891000000000e+009	(-7.46244049683263e+000dB,-2.17054019121415e+001°)
2.21890000000000e+009	(-7.45375892397528e+000dB,-2.19262834384320e+001°)
2.23889000000000e+009	(-7.44501831273729e+000dB,-2.21479243986097e+001°)
2.25888000000000e+009	(-7.43621967999643e+000dB,-2.23703324043998e+001°)
2.27887000000000e+009	(-7.42736405585334e+000dB,-2.25935150454421e+001°)
2.29886000000000e+009	(-7.41845248386988e+000dB,-2.28174798889039e+001°)
2.31885000000000e+009	(-7.40948602130892e+000dB,-2.30422344790157e+001°)
2.33884000000000e+009	(-7.40046573937311e+000dB,-2.32677863365278e+001°)
2.35883000000000e+009	(-7.39139272344462e+000dB,-2.34941429580924e+001°)
2.37882000000000e+009	(-7.38226807332448e+000dB,-2.37213118155685e+001°)
2.39881000000000e+009	(-7.37309290347133e+000dB,-2.39493003552509e+001°)
2.41880000000000e+009	(-7.36386834323958e+000dB,-2.41781159970232e+001°)
2.43879000000000e+009	(-7.35459553711742e+000dB,-2.44077661334381e+001°)
2.45878000000000e+009	(-7.34527564496281e+000dB,-2.46382581287185e+001°)
2.47877000000000e+009	(-7.33590984223889e+000dB,-2.48695993176872e+001°)
2.49876000000000e+009	(-7.32649932024760e+000dB,-2.51017970046193e+001°)
2.51875000000000e+009	(-7.31704528636196e+000dB,-2.53348584620213e+001°)
2.53874000000000e+009	(-7.30754896425562e+000dB,-2.55687909293332e+001°)
2.55873000000000e+009	(-7.29801159413102e+000dB,-2.58036016115573e+001°)
2.57872000000000e+009	(-7.28843443294455e+000dB,-2.60392976778111e+001°)
2.59871000000000e+009	(-7.27881875462897e+000dB,-2.62758862598034e+001°)
2.61870000000000e+009	(-7.26916585031280e+000dB,-2.65133744502373e+001°)
2.63869000000000e+009	(-7.25947702853667e+000dB,-2.67517693011352e+001°)
2.65868000000000e+009	(-7.24975361546533e+000dB,-2.69910778220893e+001°)
2.67867000000000e+009	(-7.23999695509634e+000dB,-2.72313069784342e+001°)
2.69866000000000e+009	(-7.23020840946382e+000dB,-2.74724636893439e+001°)
2.71865000000000e+009	(-7.22038935883850e+000dB,-2.77145548258539e+001°)
2.73864000000000e+009	(-7.21054120192136e+000dB,-2.79575872088029e+001°)
2.75863000000000e+009	(-7.20066535603276e+000dB,-2.82015676066990e+001°)
2.77862000000000e+009	(-7.19076325729584e+000dB,-2.84465027335105e+001°)
2.79861000000000e+009	(-7.18083636081315e+000dB,-2.86923992463762e+001°)
2.81860000000000e+009	(-7.17088614083678e+000dB,-2.89392637432411e+001°)
2.83859000000000e+009	(-7.16091409093186e+000dB,-2.91871027604127e+001°)
2.85858000000000e+009	(-7.15092172413165e+000dB,-2.94359227700415e+001°)
2.87857000000000e+009	(-7.14091057308533e+000dB,-2.96857301775234e+001°)
2.89856000000000e+009	(-7.13088219019659e+000dB,-2.99365313188255e+001°)
2.91855000000000e+009	(-7.12083814775355e+000dB,-3.01883324577350e+001°)
2.93854000000000e+009	(-7.11078003804908e+000dB,-3.04411397830337e+001°)
2.95853000000000e+009	(-7.10070947349045e+000dB,-3.06949594055944e+001°)
2.97852000000000e+009	(-7.09062808669880e+000dB,-3.09497973554049e+001°)
2.99851000000000e+009	(-7.08053753059644e+000dB,-3.12056595785166e+001°)
3.01850000000000e+009	(-7.07043947848278e+000dB,-3.14625519339210e+001°)
3.03849000000000e+009	(-7.06033562409759e+000dB,-3.17204801903557e+001°)
3.05848000000000e+009	(-7.05022768167017e+000dB,-3.19794500230384e+001°)
3.07847000000000e+009	(-7.04011738595546e+000dB,-3.22394670103343e+001°)
3.09846000000000e+009	(-7.03000649225453e+000dB,-3.25005366303571e+001°)
3.11845000000000e+009	(-7.01989677642045e+000dB,-3.27626642575065e+001°)
3.13844000000000e+009	(-7.00979003484712e+000dB,-3.30258551589427e+001°)
3.15843000000000e+009	(-6.99968808444212e+000dB,-3.32901144910055e+001°)
3.17842000000000e+009	(-6.98959276258091e+000dB,-3.35554472955745e+001°)
3.19841000000000e+009	(-6.97950592704316e+000dB,-3.38218584963825e+001°)
3.21840000000000e+009	(-6.96942945592977e+000dB,-3.40893528952770e+001°)
3.23839000000000e+009	(-6.95936524755982e+000dB,-3.43579351684416e+001°)
3.25838000000000e+009	(-6.94931522034662e+000dB,-3.46276098625790e+001°)
3.27837000000000e+009	(-6.93928131265242e+000dB,-3.48983813910610e+001°)
3.29836000000000e+009	(-6.92926548262097e+000dB,-3.51702540300520e+001°)
3.31835000000000e+009	(-6.91926970798663e+000dB,-3.54432319146120e+001°)
3.33834000000000e+009	(-6.90929598585999e+000dB,-3.57173190347878e+001°)
3.35833000000000e+009	(-6.89934633248911e+000dB,-3.59925192316962e+001°)
3.37832000000000e+009	(-6.88942278299572e+000dB,-3.62688361936125e+001°)
3.39831000000000e+009	(-6.87952739108567e+000dB,-3.65462734520680e+001°)
3.41830000000000e+009	(-6.86966222873322e+000dB,-3.68248343779691e+001°)
3.43829000000000e+009	(-6.85982938583851e+000dB,-3.71045221777484e+001°)
3.45828000000000e+009	(-6.85003096985867e+000dB,-3.73853398895550e+001°)
3.47827000000000e+009	(-6.84026910541057e+000dB,-3.76672903794984e+001°)
3.49826000000000e+009	(-6.83054593384693e+000dB,-3.79503763379591e+001°)
3.51825000000000e+009	(-6.82086361280416e+000dB,-3.82346002759727e+001°)
3.53824000000000e+009	(-6.81122431572288e+000dB,-3.85199645217073e+001°)
3.55823000000000e+009	(-6.80163023134118e+000dB,-3.88064712170440e+001°)
3.57822000000000e+009	(-6.79208356316068e+000dB,-3.90941223142758e+001°)
3.59821000000000e+009	(-6.78258652888605e+000dB,-3.93829195729402e+001°)
3.61820000000000e+009	(-6.77314135983848e+000dB,-3.96728645567981e+001°)
3.63819000000000e+009	(-6.76375030034523e+000dB,-3.99639586309779e+001°)
3.65818000000000e+009	(-6.75441560710432e+000dB,-4.02562029592988e+001°)
3.67817000000000e+009	(-6.74513954852734e+000dB,-4.05495985017865e+001°)
3.69816000000000e+009	(-6.73592440406191e+000dB,-4.08441460124029e+001°)
3.71815000000000e+009	(-6.72677246349484e+000dB,-4.11398460369981e+001°)
3.73814000000000e+009	(-6.71768602623891e+000dB,-4.14366989115047e+001°)
3.75813000000000e+009	(-6.70866740060562e+000dB,-4.17347047603888e+001°)
3.77812000000000e+009	(-6.69971890306651e+000dB,-4.20338634953668e+001°)
3.79811000000000e+009	(-6.69084285750625e+000dB,-4.23341748144072e+001°)
3.81810000000000e+009	(-6.68204159447115e+000dB,-4.26356382010240e+001°)
3.83809000000000e+009	(-6.67331745041579e+000dB,-4.29382529238732e+001°)
3.85808000000000e+009	(-6.66467276695367e+000dB,-4.32420180366607e+001°)
3.87807000000000e+009	(-6.65610989011396e+000dB,-4.35469323783689e+001°)
3.89806000000000e+009	(-6.64763116961043e+000dB,-4.38529945738023e+001°)
3.91805000000000e+009	(-6.63923895812711e+000dB,-4.41602030344567e+001°)
3.93804000000000e+009	(-6.63093561062493e+000dB,-4.44685559597062e+001°)
3.95803000000000e+009	(-6.62272348367588e+000dB,-4.47780513383079e+001°)
3.97802000000000e+009	(-6.61460493482868e+000dB,-4.50886869502087e+001°)
3.99801000000000e+009	(-6.60658232201236e+000dB,-4.54004603686463e+001°)
4.01800000000000e+009	(-6.59865800298282e+000dB,-4.57133689625253e+001°)
4.03799000000000e+009	(-6.59083433481793e+000dB,-4.60274098990464e+001°)
4.05798000000000e+009	(-6.58311367346636e+000dB,-4.63425801465646e+001°)
4.07797000000000e+009	(-6.57549837335525e+000dB,-4.66588764776424e+001°)
4.09796000000000e+009	(-6.56799078706214e+000dB,-4.69762954722653e+001°)
4.11795000000000e+009	(-6.56059326505385e+000dB,-4.72948335211785e+001°)
4.13794000000000e+009	(-6.55330815549899e+000dB,-4.76144868293002e+001°)
4.15793000000000e+009	(-6.54613780415526e+000dB,-4.79352514191587e+001°)
4.17792000000000e+009	(-6.53908455433472e+000dB,-4.82571231343049e+001°)
4.19791000000000e+009	(-6.53215074694894e+000dB,-4.85800976426380e+001°)
4.21790000000000e+009	(-6.52533872063659e+000dB,-4.89041704395873e+001°)
4.23789000000000e+009	(-6.51865081196982e+000dB,-4.92293368510809e+001°)
4.25788000000000e+009	(-6.51208935574222e+000dB,-4.95555920362416e+001°)
4.27787000000000e+009	(-6.50565668533421e+000dB,-4.98829309897382e+001°)
4.29786000000000e+009	(-6.49935513315138e+000dB,-5.02113485437266e+001°)
4.31785000000000e+009	(-6.49318703113333e+000dB,-5.05408393693112e+001°)
4.33784000000000e+009	(-6.48715471132562e+000dB,-5.08713979774660e+001°)
4.35783000000000e+009	(-6.48126050650677e+000dB,-5.12030187193451e+001°)
4.37782000000000e+009	(-6.47550675086353e+000dB,-5.15356957859336e+001°)
4.39781000000000e+009	(-6.46989578070262e+000dB,-5.18694232069734e+001°)
4.41780000000000e+009	(-6.46442993518873e+000dB,-5.22041948491288e+001°)
4.43779000000000e+009	(-6.45911155709641e+000dB,-5.25400044133413e+001°)
4.45778000000000e+009	(-6.45394299356240e+000dB,-5.28768454313497e+001°)
4.47777000000000e+009	(-6.44892659682490e+000dB,-5.32147112613492e+001°)
4.49776000000000e+009	(-6.44406472493459e+000dB,-5.35535950827815e+001°)
4.51775000000000e+009	(-6.43935974242173e+000dB,-5.38934898902523e+001°)
4.53774000000000e+009	(-6.43481402090557e+000dB,-5.42343884865896e+001°)
4.55773000000000e+009	(-6.43042993962922e+000dB,-5.45762834750674e+001°)
4.57772000000000e+009	(-6.42620988590431e+000dB,-5.49191672508293e+001°)
4.59771000000000e+009	(-6.42215625545305e+000dB,-5.52630319915577e+001°)
4.61770000000000e+009	(-6.41827145263090e+000dB,-5.56078696474563e+001°)
4.63769000000000e+009	(-6.41455789051816e+000dB,-5.59536719306079e+001°)
4.65768000000000e+009	(-6.41101799086874e+000dB,-5.63004303037961e+001°)
4.67767000000000e+009	(-6.40765418390477e+000dB,-5.66481359688814e+001°)
4.69766000000000e+009	(-6.40446890794823e+000dB,-5.69967798548280e+001°)
4.71765000000000e+009	(-6.40146460888315e+000dB,-5.73463526054957e+001°)
4.73764000000000e+009	(-6.39864373944165e+000dB,-5.76968445672999e+001°)
4.75763000000000e+009	(-6.39600875831204e+000dB,-5.80482457768690e+001°)
4.77762000000000e+009	(-6.39356212906626e+000dB,-5.84005459488043e+001°)
4.79761000000000e+009	(-6.39130631890792e+000dB,-5.87537344636729e+001°)
4.81760000000000e+009	(-6.38924379724361e+000dB,-5.91078003563463e+001°)
4.83759000000000e+009	(-6.38737703408320e+000dB,-5.94627323048016e+001°)
4.85758000000000e+009	(-6.38570849827309e+000dB,-5.98185186194944e+001°)
4.87757000000000e+009	(-6.38424065557505e+000dB,-6.01751472334097e+001°)
4.89756000000000e+009	(-6.38297596659634e+000dB,-6.05326056928889e+001°)
4.91755000000000e+009	(-6.38191688458571e+000dB,-6.08908811493149e+001°)
4.93754000000000e+009	(-6.38106585310732e+000dB,-6.12499603517431e+001°)
4.95753000000000e+009	(-6.38042530360590e+000dB,-6.16098296405387e+001°)
4.97752000000000e+009	(-6.37999765287849e+000dB,-6.19704749420811e+001°)
4.99751000000000e+009	(-6.37978530046830e+000dB,-6.23318817645807e+001°)
5.01750000000000e+009	(-6.37979062599536e+000dB,-6.26940351950395e+001°)
5.03749000000000e+009	(-6.38001598644148e+000dB,-6.30569198973804e+001°)
5.05748000000000e+009	(-6.38046371340416e+000dB,-6.34205201117551e+001°)
5.07747000000000e+009	(-6.38113611033517e+000dB,-6.37848196550315e+001°)
5.09746000000000e+009	(-6.38203544977964e+000dB,-6.41498019224461e+001°)
5.11745000000000e+009	(-6.38316397062917e+000dB,-6.45154498904080e+001°)
5.13744000000000e+009	(-6.38452387540427e+000dB,-6.48817461204209e+001°)
5.15743000000000e+009	(-6.38611732757749e+000dB,-6.52486727640876e+001°)
5.17742000000000e+009	(-6.38794644894975e+000dB,-6.56162115691543e+001°)
5.19741000000000e+009	(-6.39001331709166e+000dB,-6.59843438865420e+001°)
5.21740000000000e+009	(-6.39231996285884e+000dB,-6.63530506783170e+001°)
5.23739000000000e+009	(-6.39486836798916e+000dB,-6.67223125265349e+001°)
5.25738000000000e+009	(-6.39766046279202e+000dB,-6.70921096429017e+001°)
5.27737000000000e+009	(-6.40069812393256e+000dB,-6.74624218791858e+001°)
5.29736000000000e+009	(-6.40398317232029e+000dB,-6.78332287383185e+001°)
5.31735000000000e+009	(-6.40751737110241e+000dB,-6.82045093861191e+001°)
5.33734000000000e+009	(-6.41130242376788e+000dB,-6.85762426635757e+001°)
5.35733000000000e+009	(-6.41533997236359e+000dB,-6.89484070996249e+001°)
5.37732000000000e+009	(-6.41963159582370e+000dB,-6.93209809243645e+001°)
5.39731000000000e+009	(-6.42417880841358e+000dB,-6.96939420826401e+001°)
5.41730000000000e+009	(-6.42898305828784e+000dB,-7.00672682479522e+001°)
5.43729000000000e+009	(-6.43404572616127e+000dB,-7.04409368366237e+001°)
5.45728000000000e+009	(-6.43936812409243e+000dB,-7.08149250221828e+001°)
