Freq.	V(d_3p)
2.00000000000000e+007	(-7.99171891108774e+000dB,-7.75322023965156e-001°)
3.99900000000000e+007	(-8.00170475552897e+000dB,-1.43196000860838e+000°)
5.99800000000000e+007	(-8.00643064895643e+000dB,-2.08236344469525e+000°)
7.99700000000000e+007	(-8.00944367682060e+000dB,-2.73658727182821e+000°)
9.99600000000000e+007	(-8.01194252833275e+000dB,-3.39284807057332e+000°)
1.19950000000000e+008	(-8.01429605626681e+000dB,-4.04924792576503e+000°)
1.39940000000000e+008	(-8.01660215858358e+000dB,-4.70456723479162e+000°)
1.59930000000000e+008	(-8.01885918748463e+000dB,-5.35807877362305e+000°)
1.79920000000000e+008	(-8.02102596993980e+000dB,-6.00938069244284e+000°)
1.99910000000000e+008	(-8.02304639905012e+000dB,-6.65829355912567e+000°)
2.19900000000000e+008	(-8.02486096118691e+000dB,-7.30479578625668e+000°)
2.39890000000000e+008	(-8.02641264757561e+000dB,-7.94897978510527e+000°)
2.59880000000000e+008	(-8.02765006884368e+000dB,-8.59101986755862e+000°)
2.79870000000000e+008	(-8.02852899403622e+000dB,-9.23114755986134e+000°)
2.99860000000000e+008	(-8.02901292727045e+000dB,-9.86963218851647e+000°)
3.19850000000000e+008	(-8.02907307680176e+000dB,-1.05067655849548e+001°)
3.39840000000000e+008	(-8.02868794556023e+000dB,-1.11428501806412e+001°)
3.59830000000000e+008	(-8.02784270065751e+000dB,-1.17781899432842e+001°)
3.79820000000000e+008	(-8.02652843239287e+000dB,-1.24130836853785e+001°)
3.99810000000000e+008	(-8.02474137946677e+000dB,-1.30478203242218e+001°)
4.19800000000000e+008	(-8.02248217175632e+000dB,-1.36826757142327e+001°)
4.39790000000000e+008	(-8.01975512293669e+000dB,-1.43179107160020e+001°)
4.59780000000000e+008	(-8.01656759115246e+000dB,-1.49537702125360e+001°)
4.79770000000000e+008	(-8.01292941587250e+000dB,-1.55904828294526e+001°)
4.99760000000000e+008	(-8.00885243215959e+000dB,-1.62282611600410e+001°)
5.19750000000000e+008	(-8.00435005912347e+000dB,-1.68673023362553e+001°)
5.39740000000000e+008	(-7.99943695667502e+000dB,-1.75077888218144e+001°)
5.59730000000000e+008	(-7.99412874334795e+000dB,-1.81498893332701e+001°)
5.79720000000000e+008	(-7.98844176749439e+000dB,-1.87937598192982e+001°)
5.99710000000000e+008	(-7.98239292428322e+000dB,-1.94395444480445e+001°)
6.19700000000000e+008	(-7.97599951140273e+000dB,-2.00873765676866e+001°)
6.39690000000000e+008	(-7.96927911703821e+000dB,-2.07373796171634e+001°)
6.59680000000000e+008	(-7.96224953443813e+000dB,-2.13896679728732e+001°)
6.79670000000000e+008	(-7.95492869813905e+000dB,-2.20443477236635e+001°)
6.99660000000000e+008	(-7.94733463763551e+000dB,-2.27015173711098e+001°)
7.19650000000000e+008	(-7.93948544494135e+000dB,-2.33612684553516e+001°)
7.39640000000000e+008	(-7.93139925307178e+000dB,-2.40236861089437e+001°)
7.59630000000000e+008	(-7.92309422298715e+000dB,-2.46888495425783e+001°)
7.79620000000000e+008	(-7.91458853697765e+000dB,-2.53568324673509e+001°)
7.99610000000000e+008	(-7.90590039683984e+000dB,-2.60277034586413e+001°)
8.19600000000000e+008	(-7.89704802550509e+000dB,-2.67015262667872e+001°)
8.39590000000000e+008	(-7.88804967104127e+000dB,-2.73783600796482e+001°)
8.59580000000000e+008	(-7.87892361216218e+000dB,-2.80582597419388e+001°)
8.79570000000000e+008	(-7.86968816455235e+000dB,-2.87412759359234e+001°)
8.99560000000000e+008	(-7.86036168745990e+000dB,-2.94274553277362e+001°)
9.19550000000000e+008	(-7.85096259012606e+000dB,-3.01168406832483e+001°)
9.39540000000000e+008	(-7.84150933771130e+000dB,-3.08094709570602e+001°)
9.59530000000000e+008	(-7.83202045645621e+000dB,-3.15053813578728e+001°)
9.79520000000000e+008	(-7.82251453787435e+000dB,-3.22046033931806e+001°)
9.99510000000000e+008	(-7.81301024182264e+000dB,-3.29071648959539e+001°)
1.01950000000000e+009	(-7.80352629833306e+000dB,-3.36130900357079e+001°)
1.03949000000000e+009	(-7.79408150812243e+000dB,-3.43223993161393e+001°)
1.05948000000000e+009	(-7.78469474171792e+000dB,-3.50351095612952e+001°)
1.07947000000000e+009	(-7.77538493715852e+000dB,-3.57512338920577e+001°)
1.09946000000000e+009	(-7.76617109624665e+000dB,-3.64707816945727e+001°)
1.11945000000000e+009	(-7.75707227933768e+000dB,-3.71937585821050e+001°)
1.13944000000000e+009	(-7.74810759866367e+000dB,-3.79201663516788e+001°)
1.15943000000000e+009	(-7.73929621019823e+000dB,-3.86500029367634e+001°)
1.17942000000000e+009	(-7.73065730407529e+000dB,-3.93832623571606e+001°)
1.19941000000000e+009	(-7.72221009357948e+000dB,-4.01199346671797e+001°)
1.21940000000000e+009	(-7.71397380273493e+000dB,-4.08600059031089e+001°)
1.23939000000000e+009	(-7.70596765251915e+000dB,-4.16034580309333e+001°)
1.25938000000000e+009	(-7.69821084573855e+000dB,-4.23502688951983e+001°)
1.27937000000000e+009	(-7.69072255060187e+000dB,-4.31004121698650e+001°)
1.29936000000000e+009	(-7.68352188303664e+000dB,-4.38538573119637e+001°)
1.31935000000000e+009	(-7.67662788779408e+000dB,-4.46105695188157e+001°)
1.33934000000000e+009	(-7.67005951839618e+000dB,-4.53705096895504e+001°)
1.35933000000000e+009	(-7.66383561598008e+000dB,-4.61336343916200e+001°)
1.37932000000000e+009	(-7.65797488710176e+000dB,-4.68998958329682e+001°)
1.39931000000000e+009	(-7.65249588056485e+000dB,-4.76692418404955e+001°)
1.41930000000000e+009	(-7.64741696334537e+000dB,-4.84416158454069e+001°)
1.43929000000000e+009	(-7.64275629568812e+000dB,-4.92169568760194e+001°)
1.45928000000000e+009	(-7.63853180545508e+000dB,-4.99951995585506e+001°)
1.47927000000000e+009	(-7.63476116181183e+000dB,-5.07762741263885e+001°)
1.49926000000000e+009	(-7.63146174834187e+000dB,-5.15601064382960e+001°)
1.51925000000000e+009	(-7.62865063568414e+000dB,-5.23466180059659e+001°)
1.53924000000000e+009	(-7.62634455379233e+000dB,-5.31357260313013e+001°)
1.55923000000000e+009	(-7.62455986392066e+000dB,-5.39273434537468e+001°)
1.57922000000000e+009	(-7.62331253044274e+000dB,-5.47213790079511e+001°)
1.59921000000000e+009	(-7.62261809261557e+000dB,-5.55177372919941e+001°)
1.61920000000000e+009	(-7.62249163640166e+000dB,-5.63163188463496e+001°)
1.63919000000000e+009	(-7.62294776646677e+000dB,-5.71170202437116e+001°)
1.65918000000000e+009	(-7.62400057847232e+000dB,-5.79197341897458e+001°)
1.67917000000000e+009	(-7.62566363178237e+000dB,-5.87243496347759e+001°)
1.69916000000000e+009	(-7.62794992270634e+000dB,-5.95307518963439e+001°)
1.71915000000000e+009	(-7.63087185839907e+000dB,-6.03388227925373e+001°)
1.73914000000000e+009	(-7.63444123153867e+000dB,-6.11484407858976e+001°)
1.75913000000000e+009	(-7.63866919590137e+000dB,-6.19594811376729e+001°)
1.77912000000000e+009	(-7.64356624295068e+000dB,-6.27718160721063e+001°)
1.79911000000000e+009	(-7.64914217955535e+000dB,-6.35853149504009e+001°)
1.81910000000000e+009	(-7.65540610694552e+000dB,-6.43998444539263e+001°)
1.83909000000000e+009	(-7.66236640101436e+000dB,-6.52152687761865e+001°)
1.85908000000000e+009	(-7.67003069406433e+000dB,-6.60314498230010e+001°)
1.87907000000000e+009	(-7.67840585809323e+000dB,-6.68482474203045e+001°)
1.89906000000000e+009	(-7.68749798970732e+000dB,-6.76655195289142e+001°)
1.91905000000000e+009	(-7.69731239674139e+000dB,-6.84831224655666e+001°)
1.93904000000000e+009	(-7.70785358665717e+000dB,-6.93009111294882e+001°)
1.95903000000000e+009	(-7.71912525678378e+000dB,-7.01187392337183e+001°)
1.97902000000000e+009	(-7.73113028645301e+000dB,-7.09364595403718e+001°)
1.99901000000000e+009	(-7.74387073107364e+000dB,-7.17539240990065e+001°)
2.01900000000000e+009	(-7.75734781817819e+000dB,-7.25709844872248e+001°)
2.03899000000000e+009	(-7.77156194546642e+000dB,-7.33874920526426e+001°)
2.05898000000000e+009	(-7.78651268085631e+000dB,-7.42032981553254e+001°)
2.07897000000000e+009	(-7.80219876454685e+000dB,-7.50182544098068e+001°)
2.09896000000000e+009	(-7.81861811308234e+000dB,-7.58322129257930e+001°)
2.11895000000000e+009	(-7.83576782539943e+000dB,-7.66450265466805e+001°)
2.13894000000000e+009	(-7.85364419082751e+000dB,-7.74565490850084e+001°)
2.15893000000000e+009	(-7.87224269900218e+000dB,-7.82666355540059e+001°)
2.17892000000000e+009	(-7.89155805164251e+000dB,-7.90751423944179e+001°)
2.19891000000000e+009	(-7.91158417613313e+000dB,-7.98819276958089e+001°)
2.21890000000000e+009	(-7.93231424084332e+000dB,-8.06868514116083e+001°)
2.23889000000000e+009	(-7.95374067210736e+000dB,-8.14897755671758e+001°)
2.25888000000000e+009	(-7.97585517278228e+000dB,-8.22905644602311e+001°)
2.27887000000000e+009	(-7.99864874229353e+000dB,-8.30890848530288e+001°)
2.29886000000000e+009	(-8.02211169807071e+000dB,-8.38852061557216e+001°)
2.31885000000000e+009	(-8.04623369827324e+000dB,-8.46788006004032e+001°)
2.33884000000000e+009	(-8.07100376569856e+000dB,-8.54697434053874e+001°)
2.35883000000000e+009	(-8.09641031276335e+000dB,-8.62579129293285e+001°)
2.37882000000000e+009	(-8.12244116744520e+000dB,-8.70431908148668e+001°)
2.39881000000000e+009	(-8.14908360007018e+000dB,-8.78254621215210e+001°)
2.41880000000000e+009	(-8.17632435082962e+000dB,-8.86046154476287e+001°)
2.43879000000000e+009	(-8.20414965791089e+000dB,-8.93805430411909e+001°)
2.45878000000000e+009	(-8.23254528612606e+000dB,-9.01531408995287e+001°)
2.47877000000000e+009	(-8.26149655592366e+000dB,-9.09223088577333e+001°)
2.49876000000000e+009	(-8.29098837267113e+000dB,-9.16879506659280e+001°)
2.51875000000000e+009	(-8.32100525609750e+000dB,-9.24499740554295e+001°)
2.53874000000000e+009	(-8.35153136979004e+000dB,-9.32082907939440e+001°)
2.55873000000000e+009	(-8.38255055064035e+000dB,-9.39628167299670e+001°)
2.57872000000000e+009	(-8.41404633814235e+000dB,-9.47134718266300e+001°)
2.59871000000000e+009	(-8.44600200344661e+000dB,-9.54601801852410e+001°)
2.61870000000000e+009	(-8.47840057808226e+000dB,-9.62028700588414e+001°)
2.63869000000000e+009	(-8.51122488226214e+000dB,-9.69414738561026e+001°)
2.65868000000000e+009	(-8.54445755269325e+000dB,-9.76759281359453e+001°)
2.67867000000000e+009	(-8.57808106981972e+000dB,-9.84061735932656e+001°)
2.69866000000000e+009	(-8.61207778443150e+000dB,-9.91321550361910e+001°)
2.71865000000000e+009	(-8.64642994357854e+000dB,-9.98538213553068e+001°)
2.73864000000000e+009	(-8.68111971573598e+000dB,-1.00571125485296e+002°)
2.75863000000000e+009	(-8.71612921517212e+000dB,-1.01284024359472e+002°)
2.77862000000000e+009	(-8.75144052547661e+000dB,-1.01992478857662e+002°)
2.79861000000000e+009	(-8.78703572221243e+000dB,-1.02696453747928e+002°)
2.81860000000000e+009	(-8.82289689466180e+000dB,-1.03395917622606e+002°)
2.83859000000000e+009	(-8.85900616664006e+000dB,-1.04090842829136e+002°)
2.85858000000000e+009	(-8.89534571635931e+000dB,-1.04781205396169e+002°)
2.87857000000000e+009	(-8.93189779532621e+000dB,-1.05466984955413e+002°)
2.89856000000000e+009	(-8.96864474626590e+000dB,-1.06148164659681e+002°)
2.91855000000000e+009	(-9.00556902006758e+000dB,-1.06824731097593e+002°)
2.93854000000000e+009	(-9.04265319174991e+000dB,-1.07496674205372e+002°)
2.95853000000000e+009	(-9.07987997545394e+000dB,-1.08163987176160e+002°)
2.97852000000000e+009	(-9.11723223846737e+000dB,-1.08826666367248e+002°)
2.99851000000000e+009	(-9.15469301429556e+000dB,-1.09484711205635e+002°)
3.01850000000000e+009	(-9.19224551479174e+000dB,-1.10138124092271e+002°)
3.03849000000000e+009	(-9.22987314136475e+000dB,-1.10786910305337e+002°)
3.05848000000000e+009	(-9.26755949528524e+000dB,-1.11431077902916e+002°)
3.07847000000000e+009	(-9.30528838711219e+000dB,-1.12070637625338e+002°)
3.09846000000000e+009	(-9.34304384526398e+000dB,-1.12705602797524e+002°)
3.11845000000000e+009	(-9.38081012375983e+000dB,-1.13335989231568e+002°)
3.13844000000000e+009	(-9.41857170915947e+000dB,-1.13961815129851e+002°)
3.15843000000000e+009	(-9.45631332672825e+000dB,-1.14583100988873e+002°)
3.17842000000000e+009	(-9.49401994585615e+000dB,-1.15199869504063e+002°)
3.19841000000000e+009	(-9.53167678476084e+000dB,-1.15812145475736e+002°)
3.21840000000000e+009	(-9.56926931450390e+000dB,-1.16419955716394e+002°)
3.23839000000000e+009	(-9.60678326234963e+000dB,-1.17023328959533e+002°)
3.25838000000000e+009	(-9.64420461449741e+000dB,-1.17622295770105e+002°)
3.27837000000000e+009	(-9.68151961821818e+000dB,-1.18216888456786e+002°)
3.29836000000000e+009	(-9.71871478342317e+000dB,-1.18807140986155e+002°)
3.31835000000000e+009	(-9.75577688369947e+000dB,-1.19393088898917e+002°)
3.33834000000000e+009	(-9.79269295683864e+000dB,-1.19974769228245e+002°)
3.35833000000000e+009	(-9.82945030489192e+000dB,-1.20552220420339e+002°)
3.37832000000000e+009	(-9.86603649378096e+000dB,-1.21125482257270e+002°)
3.39831000000000e+009	(-9.90243935249375e+000dB,-1.21694595782148e+002°)
3.41830000000000e+009	(-9.93864697189448e+000dB,-1.22259603226684e+002°)
3.43829000000000e+009	(-9.97464770317769e+000dB,-1.22820547941144e+002°)
3.45828000000000e+009	(-1.00104301559906e+001dB,-1.23377474326746e+002°)
3.47827000000000e+009	(-1.00459831962539e+001dB,-1.23930427770472e+002°)
3.49826000000000e+009	(-1.00812959437034e+001dB,-1.24479454582333e+002°)
3.51825000000000e+009	(-1.01163577691770e+001dB,-1.25024601935034e+002°)
3.53824000000000e+009	(-1.01511582916724e+001dB,-1.25565917806062e+002°)
3.55823000000000e+009	(-1.01856873751936e+001dB,-1.26103450922147e+002°)
3.57822000000000e+009	(-1.02199351254094e+001dB,-1.26637250706075e+002°)
3.59821000000000e+009	(-1.02538918861419e+001dB,-1.27167367225829e+002°)
3.61820000000000e+009	(-1.02875482357050e+001dB,-1.27693851146009e+002°)
3.63819000000000e+009	(-1.03208949831075e+001dB,-1.28216753681500e+002°)
3.65818000000000e+009	(-1.03539231641403e+001dB,-1.28736126553338e+002°)
3.67817000000000e+009	(-1.03866240373607e+001dB,-1.29252021946748e+002°)
3.69816000000000e+009	(-1.04189890799895e+001dB,-1.29764492471276e+002°)
3.71815000000000e+009	(-1.04510099837340e+001dB,-1.30273591123009e+002°)
3.73814000000000e+009	(-1.04826786505505e+001dB,-1.30779371248795e+002°)
3.75813000000000e+009	(-1.05139871883564e+001dB,-1.31281886512434e+002°)
3.77812000000000e+009	(-1.05449279067060e+001dB,-1.31781190862796e+002°)
3.79811000000000e+009	(-1.05754933124382e+001dB,-1.32277338503795e+002°)
3.81810000000000e+009	(-1.06056761053070e+001dB,-1.32770383866181e+002°)
3.83809000000000e+009	(-1.06354691736036e+001dB,-1.33260381581099e+002°)
3.85808000000000e+009	(-1.06648655897789e+001dB,-1.33747386455360e+002°)
3.87807000000000e+009	(-1.06938586060741e+001dB,-1.34231453448373e+002°)
3.89806000000000e+009	(-1.07224416501675e+001dB,-1.34712637650695e+002°)
3.91805000000000e+009	(-1.07506083208426e+001dB,-1.35190994264133e+002°)
3.93804000000000e+009	(-1.07783523836860e+001dB,-1.35666578583366e+002°)
3.95803000000000e+009	(-1.08056677668188e+001dB,-1.36139445979038e+002°)
3.97802000000000e+009	(-1.08325485566693e+001dB,-1.36609651882256e+002°)
3.99801000000000e+009	(-1.08589889937891e+001dB,-1.37077251770466e+002°)
4.01800000000000e+009	(-1.08849834687186e+001dB,-1.37542301154656e+002°)
4.03799000000000e+009	(-1.09105265179075e+001dB,-1.38004855567835e+002°)
4.05798000000000e+009	(-1.09356128196900e+001dB,-1.38464970554759e+002°)
4.07797000000000e+009	(-1.09602371903232e+001dB,-1.38922701662839e+002°)
4.09796000000000e+009	(-1.09843945800871e+001dB,-1.39378104434224e+002°)
4.11795000000000e+009	(-1.10080800694527e+001dB,-1.39831234398980e+002°)
4.13794000000000e+009	(-1.10312888653181e+001dB,-1.40282147069363e+002°)
4.15793000000000e+009	(-1.10540162973174e+001dB,-1.40730897935121e+002°)
4.17792000000000e+009	(-1.10762578142012e+001dB,-1.41177542459807e+002°)
4.19791000000000e+009	(-1.10980089802950e+001dB,-1.41622136078067e+002°)
4.21790000000000e+009	(-1.11192654720325e+001dB,-1.42064734193856e+002°)
4.23789000000000e+009	(-1.11400230745684e+001dB,-1.42505392179565e+002°)
4.25788000000000e+009	(-1.11602776784720e+001dB,-1.42944165376030e+002°)
4.27787000000000e+009	(-1.11800252765001e+001dB,-1.43381109093373e+002°)
4.29786000000000e+009	(-1.11992619604538e+001dB,-1.43816278612679e+002°)
4.31785000000000e+009	(-1.12179839181176e+001dB,-1.44249729188449e+002°)
4.33784000000000e+009	(-1.12361874302833e+001dB,-1.44681516051833e+002°)
4.35783000000000e+009	(-1.12538688678568e+001dB,-1.45111694414597e+002°)
4.37782000000000e+009	(-1.12710246890535e+001dB,-1.45540319473810e+002°)
4.39781000000000e+009	(-1.12876514366767e+001dB,-1.45967446417238e+002°)
4.41780000000000e+009	(-1.13037457354844e+001dB,-1.46393130429402e+002°)
4.43779000000000e+009	(-1.13193042896428e+001dB,-1.46817426698304e+002°)
4.45778000000000e+009	(-1.13343238802669e+001dB,-1.47240390422789e+002°)
4.47777000000000e+009	(-1.13488013630504e+001dB,-1.47662076820529e+002°)
4.49776000000000e+009	(-1.13627336659831e+001dB,-1.48082541136616e+002°)
4.51775000000000e+009	(-1.13761177871570e+001dB,-1.48501838652741e+002°)
4.53774000000000e+009	(-1.13889507926630e+001dB,-1.48920024696961e+002°)
4.55773000000000e+009	(-1.14012298145766e+001dB,-1.49337154654017e+002°)
4.57772000000000e+009	(-1.14129520490344e+001dB,-1.49753283976217e+002°)
4.59771000000000e+009	(-1.14241147544005e+001dB,-1.50168468194855e+002°)
4.61770000000000e+009	(-1.14347152495260e+001dB,-1.50582762932158e+002°)
4.63769000000000e+009	(-1.14447509120995e+001dB,-1.50996223913767e+002°)
4.65768000000000e+009	(-1.14542191770901e+001dB,-1.51408906981721e+002°)
4.67767000000000e+009	(-1.14631175352851e+001dB,-1.51820868107954e+002°)
4.69766000000000e+009	(-1.14714435319208e+001dB,-1.52232163408296e+002°)
4.71765000000000e+009	(-1.14791947654097e+001dB,-1.52642849156962e+002°)
4.73764000000000e+009	(-1.14863688861632e+001dB,-1.53052981801533e+002°)
4.75763000000000e+009	(-1.14929635955123e+001dB,-1.53462617978432e+002°)
4.77762000000000e+009	(-1.14989766447267e+001dB,-1.53871814528872e+002°)
4.79761000000000e+009	(-1.15044058341344e+001dB,-1.54280628515290e+002°)
4.81760000000000e+009	(-1.15092490123425e+001dB,-1.54689117238260e+002°)
4.83759000000000e+009	(-1.15135040755616e+001dB,-1.55097338253881e+002°)
4.85758000000000e+009	(-1.15171689670354e+001dB,-1.55505349391644e+002°)
4.87757000000000e+009	(-1.15202416765770e+001dB,-1.55913208772773e+002°)
4.89756000000000e+009	(-1.15227202402151e+001dB,-1.56320974829045e+002°)
4.91755000000000e+009	(-1.15246027399515e+001dB,-1.56728706322085e+002°)
4.93754000000000e+009	(-1.15258873036328e+001dB,-1.57136462363146e+002°)
4.95753000000000e+009	(-1.15265721049392e+001dB,-1.57544302433362e+002°)
4.97752000000000e+009	(-1.15266553634934e+001dB,-1.57952286404488e+002°)
4.99751000000000e+009	(-1.15261353450925e+001dB,-1.58360474560128e+002°)
5.01750000000000e+009	(-1.15250103620669e+001dB,-1.58768927617448e+002°)
5.03749000000000e+009	(-1.15232787737692e+001dB,-1.59177706749377e+002°)
5.05748000000000e+009	(-1.15209389871984e+001dB,-1.59586873607312e+002°)
5.07747000000000e+009	(-1.15179894577618e+001dB,-1.59996490344309e+002°)
5.09746000000000e+009	(-1.15144286901816e+001dB,-1.60406619638783e+002°)
5.11745000000000e+009	(-1.15102552395487e+001dB,-1.60817324718709e+002°)
5.13744000000000e+009	(-1.15054677125313e+001dB,-1.61228669386330e+002°)
5.15743000000000e+009	(-1.15000647687420e+001dB,-1.61640718043375e+002°)
5.17742000000000e+009	(-1.14940451222710e+001dB,-1.62053535716791e+002°)
5.19741000000000e+009	(-1.14874075433905e+001dB,-1.62467188084988e+002°)
5.21740000000000e+009	(-1.14801508604388e+001dB,-1.62881741504607e+002°)
5.23739000000000e+009	(-1.14722739618897e+001dB,-1.63297263037796e+002°)
5.25738000000000e+009	(-1.14637757986161e+001dB,-1.63713820480017e+002°)
5.27737000000000e+009	(-1.14546553863562e+001dB,-1.64131482388366e+002°)
5.29736000000000e+009	(-1.14449118083901e+001dB,-1.64550318110411e+002°)
5.31735000000000e+009	(-1.14345442184376e+001dB,-1.64970397813549e+002°)
5.33734000000000e+009	(-1.14235518437861e+001dB,-1.65391792514878e+002°)
5.35733000000000e+009	(-1.14119339886602e+001dB,-1.65814574111571e+002°)
5.37732000000000e+009	(-1.13996900378431e+001dB,-1.66238815411762e+002°)
5.39731000000000e+009	(-1.13868194605634e+001dB,-1.66664590165921e+002°)
5.41730000000000e+009	(-1.13733218146590e+001dB,-1.67091973098716e+002°)
5.43729000000000e+009	(-1.13591967510318e+001dB,-1.67521039941348e+002°)
5.45728000000000e+009	(-1.13444440184083e+001dB,-1.67951867464346e+002°)
